#Parameters = {C_1=27.534904321902; C_2=630.65299298732; Conductivity=10000; Conductivity_MoGr=1000000; Ip=631.25380673694; Pipe_lenght=40; Pipe_r=30; beta=1; cells_wave=30; conductivity_copper=59500000; d=-880.65299298732; half_gap_x=30; half_gap_y=2.4650956780985; half_gap_z=125; mu_copper=0.999994; offset_x=5; offset_y=1; sigma_z=5; teta=2.5; thcoll=27.534904321902; translate_z=-755.65299298732; wakelength=20000}
#"Frequency / GHz"	"Y [Re / Ohm]"	"Y [Im / Ohm]"
#-----------------------------------------------
0.0000000000000	9.1881726524019e-12	-291.53061672778
0.0020002000200020	-30.047098823932	-285.33804095958
0.0040004000400040	-53.960275875724	-268.55457145590
0.0060006000600060	-67.608226483921	-245.92512516646
0.0080008000800080	-70.113075438223	-223.48416663484
0.010001000100010	-63.906175847244	-206.52105792400
0.012001200120012	-53.627728439113	-197.94441659270
0.014001400140014	-44.356440755908	-197.62242379108
0.016001600160016	-39.881739672418	-202.85754001723
0.018001800180018	-41.653717074680	-209.70047326764
0.020002000200020	-48.718287976881	-214.51184912380
0.022002200220022	-58.524704081389	-215.15220721957
0.024002400240024	-68.164790828341	-211.40811123786
0.026002600260026	-75.496351010433	-204.62153229371
0.028002800280028	-79.736385226814	-196.81349472216
0.030003000300030	-81.395405686434	-189.74780752532
0.032003200320032	-81.718205885288	-184.32357349912
0.034003400340034	-81.970190904992	-180.47249501513
0.036003600360036	-82.904687759813	-177.48667270838
0.038003800380038	-84.596815537644	-174.53198151487
0.040004000400040	-86.626413642556	-171.07400422827
0.042004200420042	-88.438521279881	-167.04487637504
0.044004400440044	-89.667158638867	-162.73904170993
0.046004600460046	-90.275484399509	-158.55745619658
0.048004800480048	-90.489054758319	-154.76566384112
0.050005000500050	-90.607476608724	-151.38593125585
0.052005200520052	-90.822350779693	-148.24779032415
0.054005400540054	-91.137601015115	-145.13331009033
0.056005600560056	-91.413048131114	-141.91685525308
0.058005800580058	-91.481107060673	-138.62305332288
0.060006000600060	-91.256520597514	-135.38691760573
0.062006200620062	-90.778481374336	-132.35743704727
0.064006400640064	-90.173706401969	-129.60980927858
0.066006600660066	-89.575648686586	-127.11475933030
0.068006800680068	-89.053656596624	-124.77244332638
0.070007000700070	-88.590891982130	-122.48033085681
0.072007200720072	-88.115273318666	-120.19020406800
0.074007400740074	-87.556438666092	-117.92320123058
0.076007600760076	-86.891084138820	-115.74129064266
0.078007800780078	-86.151915964954	-113.69927446448
0.080008000800080	-85.400786822484	-111.80907225064
0.082008200820082	-84.687739729469	-110.03587397713
0.084008400840084	-84.022871881239	-108.32381395280
0.086008600860086	-83.376384343822	-106.63142589863
0.088008800880088	-82.703074527041	-104.95395756148
0.090009000900090	-81.973249730179	-103.32060807320
0.092009200920092	-81.190473338655	-101.77146433564
0.094009400940094	-80.386989867259	-100.33060214470
0.096009600960096	-79.602321513169	-98.992100863937
0.098009800980098	-78.860045147334	-97.725845709703
0.10001000100010	-78.157028856582	-96.497159569934
0.10201020102010	-77.470104763440	-95.286634128030
0.10401040104010	-76.773935521429	-94.098058508015
0.10601060106011	-76.057739210197	-92.951069908327
0.10801080108011	-75.330695860002	-91.864928827774
0.11001100110011	-74.614016735454	-90.844555782973
0.11201120112011	-73.926148478965	-89.877314371898
0.11401140114011	-73.271152788714	-88.941420487665
0.11601160116012	-72.637273247186	-88.019513116522
0.11801180118012	-72.005631735196	-87.108347284171
0.12001200120012	-71.362672935489	-86.218871908352
0.12201220122012	-70.708241004565	-85.367502390970
0.12401240124012	-70.054654440121	-84.564810914966
0.12601260126013	-69.418179574994	-83.808884900938
0.12801280128013	-68.808898243136	-83.087023887397
0.13001300130013	-68.225398737036	-82.383915993393
0.13201320132013	-67.657108191015	-81.690579586837
0.13401340134013	-67.092051588128	-81.008422135196
0.13601360136014	-66.524637985125	-80.346357307152
0.13801380138014	-65.958562057773	-79.713472134113
0.14001400140014	-65.403436580792	-79.112313256576
0.14201420142014	-64.867859655609	-78.537021040475
0.14401440144014	-64.353651806120	-77.977104722270
0.14601460146015	-63.854867287395	-77.424002262693
0.14801480148015	-63.361865069488	-76.876023153319
0.15001500150015	-62.867489007381	-76.338635616218
0.15201520152015	-62.371289842325	-75.820239616171
0.15401540154015	-61.879263252038	-75.326413524506
0.15601560156016	-61.399598933862	-74.856363170667
0.15801580158016	-60.937414171802	-74.403630740136
0.16001600160016	-60.491856834176	-73.960277091345
0.16201620162016	-60.057203670426	-73.521620980145
0.16401640164016	-59.626926324563	-73.088496025111
0.16601660166017	-59.197896720512	-72.665798455584
0.16801680168017	-58.772033788844	-72.258553326402
0.17001700170017	-58.354530589831	-71.868218488317
0.17201720172017	-57.950053490278	-71.491595394094
0.17401740174017	-57.559509611485	-71.122877442657
0.17601760176018	-57.179440497992	-70.757315250486
0.17801780178018	-56.804281085423	-70.394036963173
0.18001800180018	-56.429870024112	-70.036256858071
0.18201820182018	-56.055895199416	-69.688885593868
0.18401840184018	-55.685780209605	-69.355213912686
0.18601860186019	-55.324240933174	-69.034828017639
0.18801880188019	-54.974208898849	-68.723994076094
0.19001900190019	-54.635110115266	-68.418098736089
0.19201920192019	-54.303493158012	-68.114451965694
0.19401940194019	-53.975435824189	-67.813641821230
0.19601960196020	-53.649061291499	-67.518678503021
0.19801980198020	-53.325535513529	-67.232633635137
0.20002000200020	-53.008000246867	-66.956403420596
0.20202020202020	-52.699262333772	-66.688043209035
0.20402040204020	-52.399815568334	-66.424019120207
0.20602060206021	-52.107467391152	-66.161462232958
0.20802080208021	-51.818735906020	-65.899911716416
0.21002100210021	-51.531030750951	-65.641442631121
0.21202120212021	-51.244177381458	-65.389172053610
0.21402140214021	-50.960341317814	-65.145179657186
0.21602160216022	-50.682484978091	-64.909199143743
0.21802180218022	-50.412421752604	-64.678869071451
0.22002200220022	-50.149729352722	-64.451289327538
0.22202220222022	-49.892161002946	-64.224808396156
0.22402240224022	-49.637194705769	-63.999882010726
0.22602260226023	-49.383650176367	-63.778509480931
0.22802280228023	-49.132321666596	-63.562700352055
0.23002300230023	-48.885271155163	-63.353026138048
0.23202320232023	-48.644314929088	-63.148199792252
0.23402340234023	-48.409733683541	-62.945909262788
0.23602360236024	-48.180040960079	-62.744304848110
0.23802380238024	-47.952918249053	-62.543142953654
0.24002400240024	-47.726663342812	-62.343856612444
0.24202420242024	-47.501195522705	-62.148550200406
0.24402440244024	-47.277990381554	-61.958610222568
0.24602460246025	-47.059035432817	-61.773839077853
0.24802480248025	-46.845522736462	-61.592638717991
0.25002500250025	-46.637127799336	-61.413070122393
0.25202520252025	-46.432303115945	-61.234060436741
0.25402540254025	-46.229338616234	-61.055972901687
0.25602560256026	-46.027459089134	-60.880207663601
0.25802580258026	-45.827242605988	-60.708146632895
0.26002600260026	-45.630121142421	-60.540166104895
0.26202620262026	-45.437333942176	-60.375362123801
0.26402640264026	-45.249044527028	-60.212139407851
0.26602660266027	-45.064195159024	-60.049244574981
0.26802680268027	-44.881168342595	-59.886551697267
0.27002700270027	-44.698796919530	-59.725096726878
0.27202720272027	-44.517056000932	-59.566364769715
0.27402740274027	-44.337002676261	-59.411317800895
0.27602760276028	-44.160033386187	-59.259797855359
0.27802780278028	-43.986965931887	-59.110670986192
0.28002800280028	-43.817543184324	-58.962583125246
0.28202820282028	-43.650655455870	-58.814810194968
0.28402840284028	-43.485099702509	-58.667648633481
0.28602860286029	-43.320354416765	-58.522116900096
0.28802880288029	-43.156863278315	-58.379197337663
0.29002900290029	-42.995663856349	-58.239137252441
0.29202920292029	-42.837632838300	-58.101267281557
0.29402940294029	-42.682859499546	-57.964438192586
0.29602960296030	-42.530556033777	-57.827768554120
0.29802980298030	-42.379547744779	-57.691203325348
0.30003000300030	-42.229006200958	-57.555524065266
0.30203020302030	-42.078941969774	-57.421820759962
0.30403040304030	-41.930146733222	-57.290784300406
0.30603060306031	-41.783642591897	-57.162281404407
0.30803080308031	-41.640012651599	-57.035473076426
0.31003100310031	-41.499048238601	-56.909375704792
0.31203120312031	-41.359924611947	-56.783481981989
0.31403140314031	-41.221765278578	-56.658036890257
0.31603160316032	-41.084208653257	-56.533805921521
0.31803180318032	-40.947605873322	-56.411510690589
0.32003200320032	-40.812734998060	-56.291317369456
0.32203220322032	-40.680238200208	-56.172713860123
0.32403240324032	-40.550162893116	-56.054844450747
0.32603260326033	-40.421906751200	-55.937068200995
0.32803280328033	-40.294592353696	-55.819368109398
0.33003300330033	-40.167615459687	-55.702347216761
0.33203320332033	-40.041005652662	-55.586825338025
0.33403340334033	-39.915371698936	-55.473309355081
0.33603360336034	-39.791481068907	-55.361682773129
0.33803380338034	-39.669758252116	-55.251305773191
0.34003400340034	-39.550028239407	-55.141443907518
0.34203420342034	-39.431659681530	-55.031733843213
0.34403440344034	-39.313996398606	-54.922382355867
0.34603460346035	-39.196782656244	-54.813980835768
0.34803480348035	-39.080303370388	-54.707073411339
0.35003500350035	-38.965157712585	-54.601773010059
0.35203520352035	-38.851828207263	-54.497677800786
0.35403540354035	-38.740336566690	-54.394134715082
0.35603560356036	-38.630211647052	-54.290667154823
0.35803580358036	-38.520783529144	-54.187281433466
0.36003600360036	-38.411603700485	-54.084453880440
0.36203620362036	-38.302714542200	-53.982814693533
0.36403640364036	-38.194597544602	-53.882741697663
0.36603660366037	-38.087843729260	-53.784129135818
0.36803680368037	-37.982768583423	-53.686474289056
0.37003700370037	-37.879222008454	-53.589213544860
0.37203720372037	-37.776707971849	-53.492080096218
0.37403740374037	-37.674722773739	-53.395249966339
0.37603760376038	-37.573081680327	-53.299189911419
0.37803780378038	-37.472019745118	-53.204318971444
0.38003800380038	-37.372008277828	-53.110713800938
0.38203820382038	-37.273417299147	-53.018051627955
0.38403840384038	-37.176251785817	-52.925822441324
0.38603860386039	-37.080134613588	-52.833663925498
0.38803880388039	-36.984542423951	-52.741595809848
0.39003900390039	-36.889134606744	-52.650001946112
0.39203920392039	-36.793958797785	-52.559377313715
0.39403940394039	-36.699402643322	-52.470010001866
0.39603960396040	-36.605930419123	-52.381805648408
0.39803980398040	-36.513781693721	-52.294362853556
0.40004000400040	-36.422828043681	-52.207241485184
0.40204020402040	-36.332674285018	-52.120242387282
0.40404040404040	-36.242928314331	-52.033516017474
0.40604060406041	-36.153456191110	-51.947435773285
0.40804080408041	-36.064455081368	-51.862328186291
0.41004100410041	-35.976301841245	-51.778243228296
0.41204120412041	-35.889284064833	-51.694916025808
0.41404140414041	-35.803394967915	-51.611940898412
0.41604160416042	-35.718326803305	-51.529038139062
0.41804180418042	-35.633663615639	-51.446235739262
0.42004200420042	-35.549143206013	-51.363848218179
0.42204220422042	-35.464815888438	-51.282270343216
0.42404240424042	-35.380999254933	-51.201723979881
0.42604260426043	-35.298063739604	-51.122123194697
0.42804280428043	-35.216192864774	-51.043141073243
0.43004300430043	-35.135274104961	-50.964427944726
0.43204320432043	-35.054986220482	-50.885833751134
0.43404340434043	-34.975018548861	-50.807489481668
0.43604360436044	-34.895273548945	-50.729699595719
0.43804380438044	-34.815919645599	-50.652722926204
0.44004400440044	-34.737263935266	-50.576590601250
0.44204420442044	-34.659533931933	-50.501080994997
0.44404440444044	-34.582715314156	-50.425865061011
0.44604460446045	-34.506552307163	-50.350722690075
0.44804480448045	-34.430707913409	-50.275686088910
0.45004500450045	-34.354976232168	-50.201017147636
0.45204520452045	-34.279407291537	-50.127036518218
0.45404540454045	-34.204265148376	-50.053918593787
0.45604560456046	-34.129850641538	-49.981585972282
0.45804580458046	-34.056307422388	-49.909768623383
0.46004600460046	-33.983537297862	-49.838183897044
0.46204620462046	-33.911275817845	-49.766716156804
0.46404640464046	-33.839272818281	-49.695478927060
0.46604660466047	-33.767455685029	-49.624723072543
0.46804680468047	-33.695968206490	-49.554656750755
0.47004700470047	-33.625062899782	-49.485299080893
0.47204720472047	-33.554921972584	-49.416464001006
0.47404740474047	-33.485527427386	-49.347882484164
0.47604760476048	-33.416665751035	-49.279379739217
0.47804780478048	-33.348062165744	-49.210989445172
0.48004800480048	-33.279554286993	-49.142930796518
0.48204820482048	-33.211190984910	-49.075465609307
0.48404840484048	-33.143193600614	-49.008730826048
0.48604860486049	-33.075807959873	-48.942655602174
0.48804880488049	-33.009146079213	-48.877014256038
0.49004900490049	-32.943120457923	-48.811576419036
0.49204920492049	-32.877510460403	-48.746253442488
0.49404940494049	-32.812112769252	-48.681145585728
0.49604960496050	-32.746874215406	-48.616462390254
0.49804980498050	-32.681919798733	-48.552372809609
0.50005000500050	-32.617460145997	-48.488886453968
0.50205020502050	-32.553642673974	-48.425844278086
0.50405040504050	-32.490446530754	-48.363022966425
0.50605060506051	-32.427690472970	-48.300282046676
0.50805080508051	-32.365147045289	-48.237655872949
0.51005100510051	-32.302686572416	-48.175330657106
0.51205120512051	-32.240356305610	-48.113523275370
0.51405140514051	-32.178344369473	-48.052342544283
0.51605160516052	-32.116854478138	-47.991723370954
0.51805180518052	-32.055974975205	-47.931474505383
0.52005200520052	-31.995627300554	-47.871405488784
0.52205220522052	-31.935624813493	-47.811447634043
0.52405240524052	-31.875799850646	-47.751690171368
0.52605260526053	-31.816113325564	-47.692310532381
0.52805280528053	-31.756674962011	-47.633447933177
0.53005300530053	-31.697662975213	-47.575105570787
0.53205320532053	-31.639198682375	-47.517145908032
0.53405340534053	-31.581260177781	-47.459380682950
0.53605360536054	-31.523691850589	-47.401694682889
0.53805380538054	-31.466302347554	-47.344121113092
0.54005400540054	-31.408985539739	-47.286819623097
0.54205420542054	-31.351785127744	-47.229972756630
0.54405440544054	-31.294861911576	-47.173669633770
0.54605460546055	-31.238387149194	-47.117852527128
0.54805480548055	-31.182433045831	-47.062359191344
0.55005500550055	-31.126931434141	-47.007030527089
0.55205520552055	-31.071725221908	-46.951811354155
0.55405540554055	-31.016675778229	-46.896778634348
0.55605560556056	-30.961753746307	-46.842080963020
0.55805580558056	-30.907053636554	-46.787832028795
0.56005600560056	-30.852724382940	-46.734030099546
0.56205620562056	-30.798863859214	-46.680556778394
0.56405640564056	-30.745448317900	-46.627254719632
0.56605660566057	-30.692343395132	-46.574031695131
0.56805680568057	-30.639388686316	-46.520921771180
0.57005700570057	-30.586499499694	-46.468063640786
0.57205720572057	-30.533718950452	-46.415611206246
0.57405740574057	-30.481187194608	-46.363635643672
0.57605760576058	-30.429049364537	-46.312082639645
0.57805780578058	-30.377363297788	-46.260811147943
0.58005800580058	-30.326066841429	-46.209686233209
0.58205820582058	-30.275024101370	-46.158663967336
0.58405840584058	-30.224117854806	-46.107813195886
0.58605860586059	-30.173325938342	-46.057261877773
0.58805880588059	-30.122731570361	-46.007105655689
0.59005900590059	-30.072462367410	-45.957340346886
0.59205920592059	-30.022600098565	-45.907862900717
0.59405940594059	-29.973121812137	-45.858539190477
0.59605960596060	-29.923911199509	-45.809292782712
0.59805980598060	-29.874832048650	-45.760155640469
0.60006000600060	-29.825814809043	-45.711247662013
0.60206020602060	-29.776899387463	-45.662699234495
0.60406040604060	-29.728206900616	-45.614568113500
0.60606060606061	-29.679860066627	-45.566804723858
0.60806080608061	-29.631905058775	-45.519287252184
0.61006100610061	-29.584285497119	-45.471901851399
0.61206120612061	-29.536883947586	-45.424614393799
0.61406140614061	-29.489601699379	-45.377487093373
0.61606160616062	-29.442423185552	-45.330630697048
0.61806180618062	-29.395422815539	-45.284125612891
0.62006200620062	-29.348710962720	-45.237965127034
0.62206220622062	-29.302356187555	-45.192058197627
0.62406240624062	-29.256335886115	-45.146289206743
0.62606260626063	-29.210547954334	-45.100594376211
0.62806280628063	-29.164875286930	-45.055004080963
0.63006300630063	-29.119260202661	-45.009623437377
0.63206320632063	-29.073739945951	-44.964564489780
0.63406340634063	-29.028420658036	-44.919874835795
0.63606360636064	-28.983407823439	-44.875509087879
0.63806380638064	-28.938739255561	-44.831360696282
0.64006400640064	-28.894364018565	-44.787331883344
0.64206420642064	-28.850179646512	-44.743395071382
0.64406440644064	-28.806101554863	-44.699605906778
0.64606460646065	-28.762118053066	-44.656060743440
0.64806480648065	-28.718294954671	-44.612828190140
0.65006500650065	-28.674727853980	-44.569900804471
0.65206520652065	-28.631474807859	-44.527198783312
0.65406540654065	-28.588514583368	-44.484622512794
0.65606560656066	-28.545758029462	-44.442118529447
0.65806580658066	-28.503104631310	-44.399715048582
0.66006600660066	-28.460506597361	-44.357503854320
0.66206620662066	-28.417998369658	-44.315580940437
0.66406640664066	-28.375672741843	-44.273985174284
0.66606660666067	-28.333620026939	-44.232674906604
0.66806680668067	-28.291870564754	-44.191556904060
0.67006700670067	-28.250377843388	-44.150547490739
0.67206720672067	-28.209052112295	-44.109625165097
0.67406740674067	-28.167821044548	-44.068840488375
0.67606760676068	-28.126676772326	-44.028277906744
0.67806780678068	-28.085678495932	-43.987995962647
0.68006800680068	-28.044909842390	-43.947986094464
0.68206820682068	-28.004420117010	-43.908177199411
0.68406840684068	-27.964188808533	-43.868482397769
0.68606860686069	-27.924136781146	-43.828856543080
0.68806880688069	-27.884176441191	-43.789326302573
0.69006900690069	-27.844267559895	-43.749973167674
0.69206920692069	-27.804442128915	-43.710880941407
0.69406940694069	-27.764782434400	-43.672082373913
0.69606960696070	-27.725367383685	-43.633539617348
0.69806980698070	-27.686222575393	-43.595170443141
0.70007000700070	-27.647306422719	-43.556902033011
0.70207020702070	-27.608540342422	-43.518716537950
0.70407040704070	-27.569861961667	-43.480658832311
0.70607060706071	-27.531265659412	-43.442802425248
0.70807080708071	-27.492803902814	-43.405197169735
0.71007100710071	-27.454549302508	-43.367833969059
0.71207120712071	-27.416543347154	-43.330649793837
0.71407140714071	-27.378766227988	-43.293569228416
0.71607160716072	-27.341147742629	-43.256554582319
0.71807180718072	-27.303611842577	-43.219631234311
0.72007200720072	-27.266125237909	-43.182871579016
0.72207220722072	-27.228718112024	-43.146348387989
0.72407240724072	-27.191463691029	-43.110088354141
0.72607260726073	-27.154430545426	-43.074056045234
0.72807280728073	-27.117639111395	-43.038178122458
0.73007300730073	-27.081050588458	-43.002391182564
0.73207320732073	-27.044594633394	-42.966681461800
0.73407340734073	-27.008216717195	-42.931090635424
0.73607360736074	-26.971913498926	-42.895684754150
0.73807380738074	-26.935733098178	-42.860507693363
0.74007400740074	-26.899740746559	-42.825550318294
0.74207420742074	-26.863973183120	-42.790755663080
0.74407440744074	-26.828412271883	-42.756056301506
