#Parameters = {C_1=13.8; C_2=316.07196456835; Conductivity_W=18000000; Ip=316.37308163954; Pipe_lenght=40; Pipe_r=30; beta=1; cells_wave=30; conductivity_copper=59500000; d=-416.07196456835; half_gap_x=16.2; half_gap_y=30; half_gap_z=50; mu_copper=0.999994; offset=6.48; offset_x=1; offset_y=5; sigma_z=5; teta=2.5; thcoll=13.8; translate_z=-366.07196456835; wakelength=20000}
#"Frequency / GHz"	"X [Re / Ohm]"	"X [Im / Ohm]"
#-----------------------------------------------
0.0000000000000	6.1723639757381e-11	-377.00912964920
0.0020002000200020	-157.31820503002	-336.81326916853
0.0040004000400040	-273.50346354695	-228.34204436245
0.0060006000600060	-320.96807432394	-83.627975650825
0.0080008000800080	-294.12636102152	56.621076883050
0.010001000100010	-209.76337189408	156.78926049477
0.012001200120012	-99.578772941592	197.41751042536
0.014001400140014	1.8025122337050	179.66080187654
0.016001600160016	68.529660207434	122.06570173839
0.018001800180018	90.635616620257	51.666616529171
0.020002000200020	74.475721911402	-6.5945188843770
0.022002200220022	37.259356763375	-37.932006596815
0.024002400240024	-1.3424421920010	-40.608215930031
0.026002600260026	-26.806510760766	-23.430815117988
0.028002800280028	-33.778928975094	0.17505948666174
0.030003000300030	-25.636344965899	18.501860614144
0.032003200320032	-10.706137098745	25.670603235189
0.034003400340034	2.5594577096458	22.325914408102
0.036003600360036	9.1848731028433	13.417748329701
0.038003800380038	8.7921391452702	4.7273099539121
0.040004000400040	4.3595351489245	-0.014904045356871
0.042004200420042	-0.22122418797888	-0.25712002997706
0.044004400440044	-2.3390710367833	2.0808928654271
0.046004600460046	-1.6143809639771	4.3410650953570
0.048004800480048	0.55112156489556	4.7665546758647
0.050005000500050	2.2480560378833	3.2339337395730
0.052005200520052	2.2909600130366	0.91309426097861
0.054005400540054	0.75722625476602	-0.71420371024998
0.056005600560056	-1.3078867834093	-0.79868526170509
0.058005800580058	-2.6810044497554	0.48547380487822
0.060006000600060	-2.7031436867866	2.2117425859376
0.062006200620062	-1.5645223837974	3.3548020242284
0.064006400640064	-0.054298968260681	3.3854609963365
0.066006600660066	0.98658870031308	2.4790643689395
0.068006800680068	1.1452558571971	1.2866614158728
0.070007000700070	0.58668411043257	0.47611699001841
0.072007200720072	-0.15534958819439	0.34682505770612
0.074007400740074	-0.56343345830551	0.72833220084201
0.076007600760076	-0.44297846328997	1.1737808155469
0.078007800780078	0.017607278886079	1.2850412306452
0.080008000800080	0.42913306508062	0.95463850715316
0.082008200820082	0.47916897872393	0.39190560563254
0.084008400840084	0.12275564083665	-0.050703085383627
0.086008600860086	-0.41770539397611	-0.11749784941424
0.088008800880088	-0.81801331181274	0.19951589056747
0.090009000900090	-0.86117491727934	0.67944192272895
0.092009200920092	-0.55726702466397	1.0286755037904
0.094009400940094	-0.11221577602771	1.0629927291460
0.096009600960096	0.21729898018671	0.80218180873303
0.098009800980098	0.28120292812643	0.43071178404171
0.10001000100010	0.10900088707868	0.16479892643274
0.10201020102010	-0.13529868273537	0.11815088218015
0.10401040104010	-0.27402510168500	0.24830099268921
0.10601060106011	-0.22894173424257	0.40636065211826
0.10801080108011	-0.057717644556525	0.44682811088412
0.11001100110011	0.099869640701411	0.32206001890496
0.11201120112011	0.12217059687892	0.10398362866861
0.11401140114011	-0.015629910748615	-0.072881981876853
0.11601160116012	-0.23178230251907	-0.10331778468369
0.11801180118012	-0.39680316978030	0.022979273743867
0.12001200120012	-0.41765340977790	0.22087325426415
0.12201220122012	-0.29232954497796	0.36885155079822
0.12401240124012	-0.10352293531391	0.38553411273881
0.12601260126013	0.039146367520236	0.27455835556166
0.12801280128013	0.067723689450923	0.11302229929495
0.13001300130013	-0.0081661017056177	-0.0039019274574017
0.13201320132013	-0.11712983704809	-0.023490473224103
0.13401340134013	-0.17851891033326	0.037092064884869
0.13601360136014	-0.15508234052591	0.11033845273036
0.13801380138014	-0.072526670305687	0.12803050803994
0.14001400140014	0.0033531283780731	0.066632202649915
0.14201420142014	0.013635865229711	-0.040163520918243
0.14401440144014	-0.054734145374573	-0.12706665300444
0.14601460146015	-0.16230560141869	-0.14163231920260
0.14801480148015	-0.24472440557681	-0.077706904224850
0.15001500150015	-0.25457844241350	0.022671349692204
0.15201520152015	-0.18994138147832	0.097923843163707
0.15401540154015	-0.092537490436745	0.10587928393207
0.15601560156016	-0.018912843483536	0.047770236143549
0.15801580158016	-0.0047686369843463	-0.036628580794368
0.16001600160016	-0.045373920795235	-0.097363582173452
0.16201620162016	-0.10304238359667	-0.10640019535836
0.16401640164016	-0.13468582331939	-0.072881857365743
0.16601660166017	-0.12027780247987	-0.033266885524215
0.16801680168017	-0.073966823717413	-0.024683178016406
0.17001700170017	-0.032034678532994	-0.059924924121155
0.17201720172017	-0.027147921267604	-0.12012124139315
0.17401740174017	-0.066489261766760	-0.16864399874293
0.17601760176018	-0.12768843824662	-0.17593574094186
0.17801780178018	-0.17414392624284	-0.13858440817543
0.18001800180018	-0.17878615184970	-0.080700682342613
0.18201820182018	-0.14059927862682	-0.037717255235504
0.18401840184018	-0.083806026389533	-0.033949674723199
0.18601860186019	-0.041297214981976	-0.068529026290617
0.18801880188019	-0.033813095972716	-0.11806018579822
0.19001900190019	-0.058335788849370	-0.15317703770016
0.19201920192019	-0.092394292151539	-0.15750916580441
0.19401940194019	-0.11038579132298	-0.13681000164378
0.19601960196020	-0.10059570952009	-0.11311184732264
0.19801980198020	-0.071901557507694	-0.10871980481596
0.20002000200020	-0.046496543615422	-0.13108698138147
0.20202020202020	-0.044220722928217	-0.16836041933001
0.20402040204020	-0.069185684710085	-0.19790742369122
0.20602060206021	-0.10729349201830	-0.20160044840612
0.20802080208021	-0.13573968182283	-0.17760174401577
0.21002100210021	-0.13779319470084	-0.14118639679432
0.21202120212021	-0.11309304545942	-0.11459140649098
0.21402140214021	-0.077091504193278	-0.11293176509596
0.21602160216022	-0.050572191963555	-0.13537120411247
0.21802180218022	-0.046474541387439	-0.16686663015365
0.22002200220022	-0.062569787713966	-0.18873787632255
0.22202220222022	-0.084289647600314	-0.19076495663459
0.22402240224022	-0.095241689468983	-0.17696601529072
0.22602260226023	-0.088146315426349	-0.16173784521409
0.22802280228023	-0.069080590833784	-0.15945349875121
0.23002300230023	-0.052648290911335	-0.17467340259507
0.23202320232023	-0.051714113828831	-0.19934288900326
0.23402340234023	-0.068689081339028	-0.21848073915289
0.23602360236024	-0.094007017987098	-0.22026655620430
0.23802380238024	-0.11249665234692	-0.20376448891661
0.24002400240024	-0.11319908365432	-0.17935830141649
0.24202420242024	-0.096148853982191	-0.16190988216370
0.24402440244024	-0.071889925027945	-0.16134979199937
0.24602460246025	-0.054373566609760	-0.17684287207795
0.24802480248025	-0.052109297553305	-0.19807584797326
0.25002500250025	-0.063317885660583	-0.21245817817008
0.25202520252025	-0.077963309733862	-0.21328671060105
0.25402540254025	-0.084956005407262	-0.20356469281800
0.25602560256026	-0.079568268410490	-0.19325393538234
0.25802580258026	-0.066222206686381	-0.19211093367899
0.26002600260026	-0.055061672159638	-0.20302172960780
0.26202620262026	-0.054847284035292	-0.22019145761033
0.26402640264026	-0.067000345792045	-0.23317975020944
0.26602660266027	-0.084667111362485	-0.23391368108206
0.26802680268027	-0.097243518360055	-0.22198298991234
0.27002700270027	-0.097227949791544	-0.20482473598410
0.27202720272027	-0.084880099024682	-0.19285583162348
0.27402740274027	-0.067765065944632	-0.19288146871807
0.27602760276028	-0.055687417498308	-0.20408368718581
0.27802780278028	-0.054472172550690	-0.21904333256390
0.28002800280028	-0.062636735417852	-0.22889167425197
0.28202820282028	-0.072942433983983	-0.22906504853221
0.28402840284028	-0.077563930816199	-0.22191446639724
0.28602860286029	-0.073329140479845	-0.21464058068334
0.28802880288029	-0.063602528592522	-0.21413676716240
0.29002900290029	-0.055728855813091	-0.22226915195046
0.29202920292029	-0.055903991521136	-0.23468651617238
0.29402940294029	-0.064949962444608	-0.24381798270055
0.29602960296030	-0.077749029143656	-0.24394895338983
0.29802980298030	-0.086599779941159	-0.23498118731178
0.30003000300030	-0.086188710926590	-0.22245940545859
0.30203020302030	-0.076898832166312	-0.21396130312532
0.30403040304030	-0.064373215902875	-0.21430556375273
0.30603060306031	-0.055754844031163	-0.22270674070294
0.30803080308031	-0.055157382477484	-0.23362379483755
0.31003100310031	-0.061313375611415	-0.24058872028540
0.31203120312031	-0.068810899447311	-0.24040370751532
0.31403140314031	-0.071941072127225	-0.23497063035680
0.31603160316032	-0.068523914503532	-0.22967589059145
0.31803180318032	-0.061206707713204	-0.22954653376503
0.32003200320032	-0.055484959855068	-0.23580187170505
0.32203220322032	-0.055873910540090	-0.24506460242695
0.32403240324032	-0.062821511884610	-0.25166833632173
0.32603260326033	-0.072380382546381	-0.25145109705625
0.32803280328033	-0.078783312874067	-0.24450115011638
0.33003300330033	-0.078162918831457	-0.23508512368752
0.33203320332033	-0.070964180984053	-0.22888159662102
0.33403340334033	-0.061527682905026	-0.22939242467022
0.33603360336034	-0.055209367076106	-0.23587443563279
0.33803380338034	-0.054986241563996	-0.24406448446190
0.34003400340034	-0.059756544729613	-0.24911244621646
0.34203420342034	-0.065356428294566	-0.24872782984615
0.34403440344034	-0.067508368187373	-0.24448754049307
0.34603460346035	-0.064689240894783	-0.24053365741957
0.34803480348035	-0.059037698369218	-0.24062674428166
0.35003500350035	-0.054776474698747	-0.24556224026350
0.35203520352035	-0.055276549981258	-0.25264857638698
0.35403540354035	-0.060746951764027	-0.25753430879961
0.35603560356036	-0.068062700800996	-0.25711791313426
0.35803580358036	-0.072795936586317	-0.25159884815126
0.36003600360036	-0.072069677847142	-0.24434513287539
0.36203620362036	-0.066354794073949	-0.23971668922204
0.36403640364036	-0.059074322960508	-0.24031179202618
0.36603660366037	-0.054340142198620	-0.24543351808353
0.36803680368037	-0.054348872504782	-0.25172134244263
0.37003700370037	-0.058131308933739	-0.25545421307925
0.37203720372037	-0.062407740840559	-0.25496347688978
0.37403740374037	-0.063901916348533	-0.25158132524161
0.37603760376038	-0.061538235722189	-0.24856585410136
0.37803780378038	-0.057080713116966	-0.24878956537110
0.38003800380038	-0.053845640489602	-0.25276320591028
0.38203820382038	-0.054399718801389	-0.25829559939434
0.38403840384038	-0.058796957231585	-0.26197368061691
0.38603860386039	-0.064510290184353	-0.26144286076851
0.38803880388039	-0.068069321332583	-0.25696768520397
0.39003900390039	-0.067295708679424	-0.25126324782327
0.39203920392039	-0.062664900515408	-0.24774514672685
0.39403940394039	-0.056932419672437	-0.24837379539655
0.39603960396040	-0.053317533313098	-0.25249931008235
0.39803980398040	-0.053466156285579	-0.25741920883786
0.40004000400040	-0.056518154478949	-0.26022413960302
0.40204020402040	-0.059839714573199	-0.25968320400143
0.40404040404040	-0.060875661175165	-0.25693868094546
0.40604060406041	-0.058863225705509	-0.25460192350683
0.40804080408041	-0.055282472080189	-0.25490506270411
0.41004100410041	-0.052785839411856	-0.25816336932310
0.41204120412041	-0.053359545519080	-0.26256114932491
0.41404140414041	-0.056956062596574	-0.26537327421302
0.41604160416042	-0.061495297087536	-0.26478469752411
0.41804180418042	-0.064209667887457	-0.26109610063503
0.42004200420042	-0.063425915637952	-0.25653485400784
0.42204220422042	-0.059611548927166	-0.25382238949652
0.42404240424042	-0.055023183130517	-0.25445778234581
0.42604260426043	-0.052223053235981	-0.25783675953775
0.42804280428043	-0.052459166532901	-0.26174915943863
0.43004300430043	-0.054962547565493	-0.26388370921220
0.43204320432043	-0.057583106060786	-0.26332453838242
0.43404340434043	-0.058297322916701	-0.26106300633403
0.43604360436044	-0.056565315148110	-0.25922566751274
0.43804380438044	-0.053646381551861	-0.25957226331728
0.44004400440044	-0.051694947891981	-0.26228200349864
0.44204420442044	-0.052268795350615	-0.26582815225318
0.44404440444044	-0.055253976436254	-0.26800199887248
0.44604460446045	-0.058912767697634	-0.26738690914945
0.44804480448045	-0.061005510650315	-0.26430138891097
0.45004500450045	-0.060231992974866	-0.26059983561434
0.45204520452045	-0.057044695685344	-0.25848185689172
0.45404540454045	-0.053318693115265	-0.25910591305377
0.45604560456046	-0.051121881998680	-0.26191090694847
0.45804580458046	-0.051408961368328	-0.26506342328635
0.46004600460046	-0.053488236207452	-0.26670248721444
0.46204620462046	-0.055579936704585	-0.26614339468335
0.46404640464046	-0.056060902075128	-0.26425530004216
0.46604660466047	-0.054552960370175	-0.26279363453690
0.46804680468047	-0.052140416149302	-0.26316255961567
0.47004700470047	-0.050596510340675	-0.26544533391969
0.47204720472047	-0.051156717427475	-0.26834203906623
0.47404740474047	-0.053664051735075	-0.27003930867418
0.47604760476048	-0.056648379180219	-0.26942015586882
0.47804780478048	-0.058274398546644	-0.26680919067245
0.48004800480048	-0.057522466339099	-0.26376980830702
0.48204820482048	-0.054826261871433	-0.26210171317300
0.48404840484048	-0.051763343373524	-0.26270734597090
0.48604860486049	-0.050022652034409	-0.26506576444107
0.48804880488049	-0.050338972477450	-0.26763731279740
0.49004900490049	-0.052086809592466	-0.26890620604365
0.49204920492049	-0.053775176349869	-0.26835999785745
0.49404940494049	-0.054087741892228	-0.26676715511241
0.49604960496050	-0.052765210382721	-0.26559370209911
0.49804980498050	-0.050750593416337	-0.26597139932701
0.50005000500050	-0.049519987790500	-0.26791523305702
0.50205020502050	-0.050062121818716	-0.27030646256826
0.50405040504050	-0.052192545152531	-0.27163970061234
0.50605060506051	-0.054653722741189	-0.27102710503460
0.50805080508051	-0.055925176682379	-0.26879212076131
0.51005100510051	-0.055201487458853	-0.26626740651428
0.51205120512051	-0.052895726770348	-0.26494133863145
0.51405140514051	-0.050349553566718	-0.26552125514902
0.51605160516052	-0.048956766640102	-0.26752348704662
0.51805180518052	-0.049285038637274	-0.26964144013816
0.52005200520052	-0.050766327684475	-0.27062829876541
0.52205220522052	-0.052138746798519	-0.27010176013314
0.52405240524052	-0.052324985785113	-0.26874616558495
0.52605260526053	-0.051154287367871	-0.26779820827410
0.52805280528053	-0.049453993610103	-0.26817775529891
0.53005300530053	-0.048465091060902	-0.26985095984007
0.53205320532053	-0.048984789514513	-0.27184597126727
0.53405340534053	-0.050812018103433	-0.27290088993095
0.53605360536054	-0.052860920746673	-0.27230542725320
0.53805380538054	-0.053859951179837	-0.27037702977541
0.54005400540054	-0.053169571534485	-0.26826232203913
0.54205420542054	-0.051181644696856	-0.26720340370566
0.54405440544054	-0.049047840407039	-0.26775663959733
0.54605460546055	-0.047928515824829	-0.26947246708461
0.54805480548055	-0.048262422263729	-0.27123173885618
0.55005500550055	-0.049531379933147	-0.27200012425622
0.55205520552055	-0.050657517550551	-0.27149484189668
0.55405540554055	-0.050751984906407	-0.27032924896650
0.55605560556056	-0.049710336419054	-0.26955595458157
0.55805580558056	-0.048263783573314	-0.26992803345858
0.56005600560056	-0.047464595738564	-0.27137695568406
0.56205620562056	-0.047959339908678	-0.27305184513082
0.56405640564056	-0.049537779270442	-0.27388618874347
0.56605660566057	-0.051254592862061	-0.27330928072613
0.56805680568057	-0.052037774661768	-0.27162987765866
0.57005700570057	-0.051377953789331	-0.26984289139691
0.57205720572057	-0.049646189603448	-0.26899330542403
0.57405740574057	-0.047839431994579	-0.26951947578868
0.57605760576058	-0.046931391414415	-0.27100309237054
0.57805780578058	-0.047260634868554	-0.27247773250590
0.58005800580058	-0.048352961375693	-0.27307893954204
0.58205820582058	-0.049280540429014	-0.27260060736641
0.58405840584058	-0.049305226131713	-0.27159529353557
0.58605860586059	-0.048372797427287	-0.27096565044252
0.58805880588059	-0.047133791962754	-0.27133151586424
0.59005900590059	-0.046487179706578	-0.27259946237239
0.59205920592059	-0.046959610915997	-0.27401899505356
0.59405940594059	-0.048336672232506	-0.27468187028000
0.59605960596060	-0.049789179130822	-0.27412797505376
0.59805980598060	-0.050406602929027	-0.27265551122507
0.60006000600060	-0.049782375715825	-0.27113400925271
0.60206020602060	-0.048267043000908	-0.27044877712453
0.60406040604060	-0.046729584973615	-0.27094504289022
0.60606060606061	-0.045992310955079	-0.27223328253071
0.60806080608061	-0.046314794945530	-0.27347325572611
0.61006100610061	-0.047261524037154	-0.27393824102290
0.61206120612061	-0.048028214316728	-0.27348216483730
0.61406140614061	-0.047998503859063	-0.27260554605554
0.61606160616062	-0.047156495928442	-0.27208798977627
0.61806180618062	-0.046084512441385	-0.27244219068308
0.62006200620062	-0.045555883854097	-0.27355734892163
0.62206220622062	-0.046001135951838	-0.27476744905101
0.62406240624062	-0.047205502392196	-0.27529407205744
0.62606260626063	-0.048437208525767	-0.27476576367562
0.62806280628063	-0.048918256069224	-0.27346925498351
0.63006300630063	-0.048324551601584	-0.27216936183855
0.63206320632063	-0.046987345443930	-0.27162054694788
0.63406340634063	-0.045669210766706	-0.27209355821952
0.63606360636064	-0.045068824778136	-0.27322483354115
0.63806380638064	-0.045383209780594	-0.27427880988502
0.64006400640064	-0.046211132244529	-0.27464085417918
0.64206420642064	-0.046850889310770	-0.27421156684158
0.64406440644064	-0.046785111494616	-0.27344596692790
0.64606460646065	-0.046026739781398	-0.27302127016028
0.64806480648065	-0.045099307811944	-0.27336297845881
0.65006500650065	-0.044671601803646	-0.27434839146851
0.65206520652065	-0.045095897465872	-0.27538332243565
0.65406540654065	-0.046159269796193	-0.27579702005443
0.65606560656066	-0.047212024460163	-0.27528991873740
0.65806580658066	-0.047585608939495	-0.27413712162153
0.66006600660066	-0.047022311462793	-0.27301546225925
0.66206620662066	-0.045834999516037	-0.27257156669620
0.66406640664066	-0.044696674206749	-0.27301663430424
0.66606660666067	-0.044203992465609	-0.27401119546172
0.66806680668067	-0.044504133569120	-0.27490802086549
0.67006700670067	-0.045226653732506	-0.27518519642521
0.67206720672067	-0.045756291594737	-0.27478038606479
0.67406740674067	-0.045657513695064	-0.27410900336812
0.67606760676068	-0.044965705929682	-0.27376249809283
0.67806780678068	-0.044154151130556	-0.27409475831115
0.68006800680068	-0.043804597972064	-0.27497494824643
0.68206820682068	-0.044205677124725	-0.27586999778065
0.68406840684068	-0.045148214333028	-0.27619865179725
0.68606860686069	-0.046052507304904	-0.27571947434016
0.68806880688069	-0.046341238751881	-0.27469542971575
0.69006900690069	-0.045810461961564	-0.27372819693874
0.69206920692069	-0.044755487741784	-0.27337422055815
0.69406940694069	-0.043773010951261	-0.27379626131575
0.69606960696070	-0.043374429128955	-0.27467670955529
0.69806980698070	-0.043666487448274	-0.27544311346285
0.70007000700070	-0.044305919504691	-0.27565061311841
0.70207020702070	-0.044750258407479	-0.27526633252931
0.70407040704070	-0.044631491864954	-0.27467101354581
0.70607060706071	-0.044001854293837	-0.27438388722587
0.70807080708071	-0.043290745459963	-0.27469994664385
0.71007100710071	-0.043006378791571	-0.27548355972361
0.71207120712071	-0.043384903951344	-0.27625470363412
