#Parameters = {C_1=23.329215416694; C_2=534.32688033279; Conductivity_MoGr=1000000; Ip=534.83592562405; Pipe_lenght=40; Pipe_r=30; beta=1; cells_wave=30; d=-784.32688033279; half_gap_x=6.6707845833065; half_gap_y=30; half_gap_z=125; offset=2.6683138333226; offset_x=1; offset_y=5; sigma_z=5; teta=2.5; thcoll=23.329215416694; translate_z=-659.32688033279; wakelength=20000}
#"Frequency / GHz"	"X [Re / Ohm]"	"X [Im / Ohm]"
#-----------------------------------------------
0.0000000000000	-6.8488546402164e-12	31.178959894507
0.0020002000200020	17.550836686246	26.634246929940
0.0040004000400040	30.444510689624	14.371965290870
0.0060006000600060	35.557268676492	-1.9808816202096
0.0080008000800080	32.256317514561	-17.814490098635
0.010001000100010	22.441995571937	-29.094742394526
0.012001200120012	9.7042321632095	-33.616074263865
0.014001400140014	-2.0343526446146	-31.506714902677
0.016001600160016	-9.8429525321361	-24.864765326286
0.018001800180018	-12.588042190572	-16.751023625800
0.020002000200020	-10.984054886321	-9.9915756375857
0.022002200220022	-6.9754319181691	-6.2646395366219
0.024002400240024	-2.7873322701548	-5.7723257646748
0.026002600260026	-0.064357081629060	-7.5228147959709
0.028002800280028	0.58518012264733	-10.000400958970
0.030003000300030	-0.45947923776831	-11.882114856788
0.032003200320032	-2.2584426332711	-12.503185950909
0.034003400340034	-3.8567859314368	-11.936308327382
0.036003600360036	-4.6920749788142	-10.741305465036
0.038003800380038	-4.7215489370956	-9.5724968381819
0.040004000400040	-4.2821446320887	-8.8527287178053
0.042004200420042	-3.8144829952604	-8.6455565837356
0.044004400440044	-3.6147640544359	-8.7349196609402
0.046004600460046	-3.7270888230546	-8.8209391868352
0.048004800480048	-3.9941377672523	-8.7052737417133
0.050005000500050	-4.2010302413168	-8.3740054605884
0.052005200520052	-4.2145272199638	-7.9593325833431
0.054005400540054	-4.0440127821739	-7.6287161157441
0.056005600560056	-3.8082278553969	-7.4781500291257
0.058005800580058	-3.6460478512182	-7.4879336100844
0.060006000600060	-3.6325527371491	-7.5532691803387
0.062006200620062	-3.7467990064146	-7.5581157286155
0.064006400640064	-3.9000683333160	-7.4424486475841
0.066006600660066	-3.9976971545784	-7.2258556007670
0.068006800680068	-3.9933256840485	-6.9817111056337
0.070007000700070	-3.9058641411472	-6.7853283618908
0.072007200720072	-3.7958946550994	-6.6704053192619
0.074007400740074	-3.7221544475354	-6.6175445254709
0.076007600760076	-3.7068948357417	-6.5760952532854
0.078007800780078	-3.7290644132162	-6.5008919290387
0.080008000800080	-3.7448885172939	-6.3796030746821
0.082008200820082	-3.7192327482258	-6.2357010899220
0.084008400840084	-3.6471633482356	-6.1088441419477
0.086008600860086	-3.5539462116494	-6.0277678442161
0.088008800880088	-3.4763438866647	-5.9932223873596
0.090009000900090	-3.4389951725159	-5.9800899471879
0.092009200920092	-3.4408633130189	-5.9550316899071
0.094009400940094	-3.4587578755227	-5.8970693422016
0.096009600960096	-3.4637304144671	-5.8082875934100
0.098009800980098	-3.4388623894021	-5.7093969064797
0.10001000100010	-3.3875205977951	-5.6247135713763
0.10201020102010	-3.3282713300121	-5.5669844369963
0.10401040104010	-3.2812279863913	-5.5313155356986
0.10601060106011	-3.2552688939082	-5.5007883168179
0.10801080108011	-3.2439114567588	-5.4588662795615
0.11001100110011	-3.2313879249170	-5.4000723389889
0.11201120112011	-3.2039720474534	-5.3324457912538
0.11401140114011	-3.1588756483420	-5.2711057497505
0.11601160116012	-3.1053514909321	-5.2278665243129
0.11801180118012	-3.0580469360750	-5.2038200150185
0.12001200120012	-3.0274906067274	-5.1892735770055
0.12201220122012	-3.0139205384784	-5.1704230544420
0.12401240124012	-3.0079979101284	-5.1380000012592
0.12601260126013	-2.9973339286735	-5.0923470031247
0.12801280128013	-2.9742428518759	-5.0421147513384
0.13001300130013	-2.9398037311630	-4.9980043834720
0.13201320132013	-2.9020769239728	-4.9659270828046
0.13401340134013	-2.8701716013895	-4.9439005264609
0.13601360136014	-2.8482953621255	-4.9242548879799
0.13801380138014	-2.8335421439360	-4.8992399119715
0.14001400140014	-2.8184746979657	-4.8661546365885
0.14201420142014	-2.7964306397493	-4.8287663848635
0.14401440144014	-2.7659290081205	-4.7944153983762
0.14601460146015	-2.7314217846242	-4.7689930393408
0.14801480148015	-2.7001753411484	-4.7531617018907
0.15001500150015	-2.6775419135985	-4.7421391197952
0.15201520152015	-2.6637334437412	-4.7289355009493
0.15401540154015	-2.6540281843854	-4.7087548702082
0.15601560156016	-2.6420280853907	-4.6817074426609
0.15801580158016	-2.6236895404653	-4.6522609718102
0.16001600160016	-2.5995375548355	-4.6260359155636
0.16201620162016	-2.5738215724779	-4.6061780134731
0.16401640164016	-2.5514021842309	-4.5916333813793
0.16601660166017	-2.5345345422578	-4.5782625575987
0.16801680168017	-2.5216122512661	-4.5618513216850
0.17001700170017	-2.5085279817901	-4.5409362513882
0.17201720172017	-2.4915833094598	-4.5176333044248
0.17401740174017	-2.4699602781441	-4.4960660296543
0.17601760176018	-2.4461814141552	-4.4795594377728
0.17801780178018	-2.4243781067951	-4.4684838908509
0.18001800180018	-2.4076046668820	-4.4600990984492
0.18201820182018	-2.3959705634549	-4.4503849916708
0.18401840184018	-2.3867320542772	-4.4365780306456
0.18601860186019	-2.3761647308540	-4.4187616428524
0.18801880188019	-2.3619166190954	-4.3995664055325
0.19001900190019	-2.3443206122888	-4.3822993604144
0.19201920192019	-2.3259085944313	-4.3688003681752
0.19401940194019	-2.3095673185962	-4.3584100273281
0.19601960196020	-2.2966149629703	-4.3486296737202
0.19801980198020	-2.2860432720512	-4.3369298611260
0.20002000200020	-2.2753395454495	-4.3224594859960
0.20202020202020	-2.2622571421271	-4.3065491743242
0.20402040204020	-2.2463269031993	-4.2917477914304
0.20602060206021	-2.2291374634044	-4.2800951336771
0.20802080208021	-2.2132612199748	-4.2717901672907
0.21002100210021	-2.2005839230034	-4.2650980924973
0.21202120212021	-2.1911409505307	-4.2574976722716
0.21402140214021	-2.1831802523476	-4.2472730942192
0.21602160216022	-2.1743470774237	-4.2345119718403
0.21802180218022	-2.1631732096590	-4.2209082867693
0.22002200220022	-2.1499049191397	-4.2085678227754
0.22202220222022	-2.1361834630243	-4.1986408654183
0.22402240224022	-2.1238567915692	-4.1906690251428
0.22602260226023	-2.1137435278253	-4.1830212332733
0.22802280228023	-2.1051533245000	-4.1740692051209
0.23002300230023	-2.0964326617307	-4.1632935811744
0.23202320232023	-2.0861249314606	-4.1516005045296
0.23402340234023	-2.0739551473103	-4.1406786148890
0.23602360236024	-2.0610018901354	-4.1318589902910
0.23802380238024	-2.0489769184627	-4.1252423491077
0.24002400240024	-2.0391154814561	-4.1196501145724
0.24202420242024	-2.0314099532322	-4.1133979067598
0.24402440244024	-2.0246647143461	-4.1053592018658
0.24602460246025	-2.0172990915582	-4.0956247970055
0.24802480248025	-2.0083477175724	-4.0853571851809
0.25002500250025	-1.9980084657929	-4.0759765025882
0.25202520252025	-1.9874127738725	-4.0682375279408
0.25402540254025	-1.9778113871659	-4.0617979007687
0.25602560256026	-1.9697360780853	-4.0555286470196
0.25802580258026	-1.9626843936423	-4.0483239182825
0.26002600260026	-1.9555070197487	-4.0398544265179
0.26202620262026	-1.9472107992150	-4.0307722089401
0.26402640264026	-1.9376319720551	-4.0222546608135
0.26602660266027	-1.9275420613962	-4.0152119936600
0.26802680268027	-1.9181366409467	-4.0096887637362
0.27002700270027	-1.9102609848302	-4.0048429175774
0.27202720272027	-1.9038836235699	-3.9994957442590
0.27402740274027	-1.8981478676581	-3.9928766294831
0.27602760276028	-1.8919442163748	-3.9850762165681
0.27802780278028	-1.8846129649943	-3.9769308059950
0.28002800280028	-1.8763200460175	-3.9694402077048
0.28202820282028	-1.8678814822490	-3.9631176236063
0.28402840284028	-1.8601791651777	-3.9576950635149
0.28602860286029	-1.8535689000749	-3.9523570043243
0.28802880288029	-1.8476679464624	-3.9463232629058
0.29002900290029	-1.8416442606290	-3.9393822132257
0.29202920292029	-1.8347963010503	-3.9320248844308
0.29402940294029	-1.8270303454514	-3.9251057799645
0.29602960296030	-1.8189240621509	-3.9192690264160
0.29802980298030	-1.8113468077823	-3.9145235319856
0.30003000300030	-1.8048975285901	-3.9102403164016
0.30203020302030	-1.7995308804903	-3.9055608780500
0.30403040304030	-1.7946068177476	-3.8999389968152
0.30603060306031	-1.7893158594029	-3.8934622711584
0.30803080308031	-1.7831911470843	-3.8867560329095
0.31003100310031	-1.7763742246489	-3.8805504412175
0.31203120312031	-1.7694751390636	-3.8752060484109
0.31403140314031	-1.7631374966813	-3.8705071109865
0.31603160316032	-1.7576061100138	-3.8658442682424
0.31803180318032	-1.7525804383841	-3.8606490184779
0.32003200320032	-1.7474384498181	-3.8547833112447
0.32203220322032	-1.7416693606204	-3.8486284182623
0.32403240324032	-1.7352223425197	-3.8428238574634
0.32603260326033	-1.7285432394436	-3.8378385563054
0.32803280328033	-1.7222831289578	-3.8336606900882
0.33003300330033	-1.7168777642694	-3.8298061765715
0.33203320332033	-1.7122750254720	-3.8256317219276
0.33403340334033	-1.7079823502149	-3.8207406227019
0.33603360336034	-1.7033926203682	-3.8152164730649
0.33803380338034	-1.6981679994467	-3.8095409669200
0.34003400340034	-1.6924320390914	-3.8042621229050
0.34203420342034	-1.6866546035850	-3.7996384859439
0.34403440344034	-1.6813184542435	-3.7954913289398
0.34603460346035	-1.6765950194410	-3.7913519382107
0.34803480348035	-1.6722418882644	-3.7867947315501
0.35003500350035	-1.6677812043002	-3.7817292299129
0.35203520352035	-1.6628314758359	-3.7764589241301
0.35403540354035	-1.6573685439734	-3.7714746802657
0.35603560356036	-1.6517448299140	-3.7671259237609
0.35803580358036	-1.6464596548464	-3.7633890418627
0.36003600360036	-1.6418367826979	-3.7598826240894
0.36203620362036	-1.6378216005826	-3.7561136281522
0.36403640364036	-1.6340261751573	-3.7517885030442
0.36603660366037	-1.6299852509933	-3.7469861967247
0.36803680368037	-1.6254504850606	-3.7420863905286
0.37003700370037	-1.6205314493448	-3.7375089773779
0.37203720372037	-1.6155985503129	-3.7334414243652
0.37403740374037	-1.6110212531261	-3.7297319233086
0.37603760376038	-1.6069198129803	-3.7260113060346
0.37803780378038	-1.6030933959728	-3.7219545555510
0.38003800380038	-1.5991659943185	-3.7175041105862
0.38203820382038	-1.5948468502381	-3.7129079990640
0.38403840384038	-1.5901296970782	-3.7085521728609
0.38603860386039	-1.5853002143416	-3.7047025350123
0.38803880388039	-1.5807505931056	-3.7013285735212
0.39003900390039	-1.5767266978262	-3.6981226460169
0.39203920392039	-1.5731742023700	-3.6946980328096
0.39403940394039	-1.5697810295601	-3.6908326881573
0.39603960396040	-1.5661828211029	-3.6865996999776
0.39803980398040	-1.5621931911149	-3.6823040579624
0.40004000400040	-1.5579089718056	-3.6782739178247
0.40204020402040	-1.5536272118006	-3.6746475900196
0.40404040404040	-1.5496357228980	-3.6712952741599
0.40604060406041	-1.5460195232535	-3.6679215185755
0.40804080408041	-1.5426102541449	-3.6642742209359
0.41004100410041	-1.5391074913267	-3.6603182458462
0.41204120412041	-1.5352866681397	-3.6562592558267
0.41404140414041	-1.5311534626211	-3.6524052927726
0.41604160416042	-1.5269432873479	-3.6489609942999
0.41804180418042	-1.5229689043148	-3.6458914920685
0.42004200420042	-1.5194189042546	-3.6429441375961
0.42204220422042	-1.5162395907507	-3.6398107559104
0.42404240424042	-1.5131750587626	-3.6363217494381
0.42604260426043	-1.5099351508960	-3.6325455063689
0.42804280428043	-1.5063785997278	-3.6287318675768
0.43004300430043	-1.5025922669549	-3.6251418154401
0.43204320432043	-1.4988189802291	-3.6218783284610
0.43404340434043	-1.4952869397070	-3.6188287573890
0.43604360436044	-1.4920563902852	-3.6157523761080
0.43804380438044	-1.4889842204160	-3.6124502968701
0.44004400440044	-1.4858264370904	-3.6089025490420
0.44204420442044	-1.4824068960039	-3.6052819602842
0.44404440444044	-1.4787386754822	-3.6018381298223
0.44604460446045	-1.4750183458993	-3.5987307282474
0.44804480448045	-1.4714988951381	-3.5959230739606
0.45004500450045	-1.4683267561813	-3.5932049692304
0.45204520452045	-1.4654500869730	-3.5903275276835
0.45404540454045	-1.4626563977011	-3.5871598796766
0.45604560456046	-1.4597117610192	-3.5837656118991
0.45804580458046	-1.4565083796123	-3.5803518926423
0.46004600460046	-1.4531245617832	-3.5771286000583
0.46204620462046	-1.4497612726643	-3.5741723623337
0.46404640464046	-1.4466012911438	-3.5713842248823
0.46604660466047	-1.4436863448147	-3.5685654769492
0.46804680468047	-1.4408929192717	-3.5655576831310
0.47004700470047	-1.4380200882549	-3.5623521010785
0.47204720472047	-1.4349283240367	-3.5590963027008
0.47404740474047	-1.4316359175232	-3.5559954593345
0.47604760476048	-1.4283095955347	-3.5531754378851
0.47804780478048	-1.4251569730330	-3.5505987516550
0.48004800480048	-1.4222929432326	-3.5480878831088
0.48204820482048	-1.4196677868497	-3.5454389551088
0.48404840484048	-1.4171025217314	-3.5425499621929
0.48604860486049	-1.4144059167177	-3.5394800368371
0.48804880488049	-1.4114949783551	-3.5364033564599
0.49004900490049	-1.4084406222716	-3.5334910414511
0.49204920492049	-1.4054114026854	-3.5308004581326
0.49404940494049	-1.4025557305534	-3.5282441173580
0.49604960496050	-1.3999022074061	-3.5256559566221
0.49804980498050	-1.3973435172804	-3.5229081459745
0.50005000500050	-1.3947124180271	-3.5199994191439
0.50205020502050	-1.3918972348751	-3.5170566466260
0.50405040504050	-1.3889192253728	-3.5142500443143
0.50605060506051	-1.3859209032390	-3.5116795433750
0.50805080508051	-1.3830741279779	-3.5093078599073
0.51005100510051	-1.3804694628980	-3.5069837061672
0.51205120512051	-1.3780594763890	-3.5045385825886
0.51405140514051	-1.3756918805072	-3.5018927249959
0.51605160516052	-1.3732088897832	-3.4991012163162
0.51805180518052	-1.3705465193890	-3.4963120172858
0.52005200520052	-1.3677693279754	-3.4936659342349
0.52205220522052	-1.3650201173875	-3.4912056738744
0.52405240524052	-1.3624204220759	-3.4888532691340
0.52605260526053	-1.3599889612785	-3.4864685536725
0.52805280528053	-1.3576315855209	-3.4839475878085
0.53005300530053	-1.3552076667583	-3.4812945460995
0.53205320532053	-1.3526271536615	-3.4786196299122
0.53405340534053	-1.3499131057234	-3.4760655195384
0.53605360536054	-1.3471885396859	-3.4737121457666
0.53805380538054	-1.3445971266651	-3.4715230573350
0.54005400540054	-1.3422107225466	-3.4693682003346
0.54205420542054	-1.3399844539869	-3.4671071038572
0.54405440544054	-1.3377877663762	-3.4646771712912
0.54605460546055	-1.3354895508767	-3.4621295934213
0.54805480548055	-1.3330406287415	-3.4595909642215
0.55005500550055	-1.3305000242456	-3.4571778030311
0.55205520552055	-1.3279896775036	-3.4549212967412
0.55405540554055	-1.3256096217304	-3.4527513206113
0.55605560556056	-1.3233708179146	-3.4505484816075
0.55805580558056	-1.3211897457641	-3.4482278098715
0.56005600560056	-1.3189469692402	-3.4457976221703
0.56205620562056	-1.3165694521895	-3.4433547003332
0.56405640564056	-1.3140813890726	-3.4410198586334
0.56605660566057	-1.3115900774001	-3.4388573929092
0.56805680568057	-1.3092168167952	-3.4368318918663
0.57005700570057	-1.3070189135147	-3.4348304382345
0.57205720572057	-1.3049539707662	-3.4327347830748
0.57405740574057	-1.3029090019328	-3.4304955828064
0.57605760576058	-1.3007740251241	-3.4281603980955
0.57805780578058	-1.2985111609162	-3.4258384685883
0.58005800580058	-1.2961743840206	-3.4236270524762
0.58205820582058	-1.2938685591541	-3.4215486712892
0.58405840584058	-1.2916765686229	-3.4195401560714
0.58605860586059	-1.2896036294975	-3.4174992251653
0.58805880588059	-1.2875753669276	-3.4153561715264
0.59005900590059	-1.2854898090253	-3.4131223087595
0.59205920592059	-1.2832876953508	-3.4108831709608
0.59405940594059	-1.2809939378619	-3.4087416581112
0.59605960596060	-1.2787029018668	-3.4067494211984
0.59805980598060	-1.2765177201892	-3.4048720251465
0.60006000600060	-1.2744840338818	-3.4030105074599
0.60206020602060	-1.2725616126012	-3.4010645185959
0.60406040604060	-1.2706517303005	-3.3989952019642
0.60606060606061	-1.2686613262017	-3.3968469379215
0.60806080608061	-1.2665613196834	-3.3947148609374
0.61006100610061	-1.2644012688431	-3.3926808574616
0.61206120612061	-1.2622721153324	-3.3907608559049
0.61406140614061	-1.2602430856596	-3.3888977254217
0.61606160616062	-1.2583152191208	-3.3870031930751
0.61806180618062	-1.2564220251254	-3.3850196974734
0.62006200620062	-1.2544759005247	-3.3829604826554
0.62206220622062	-1.2524285834095	-3.3809014377898
0.62406240624062	-1.2503050977642	-3.3789306474432
0.62606260626063	-1.2481887904233	-3.3770895873770
0.62806280628063	-1.2461677248705	-3.3753449942389
0.63006300630063	-1.2442780724134	-3.3736096860377
0.63206320632063	-1.2424816214745	-3.3717981401856
0.63406340634063	-1.2406915485492	-3.3698800450400
0.63606360636064	-1.2388287228724	-3.3678970292197
0.63806380638064	-1.2368711891122	-3.3659325827023
0.64006400640064	-1.2348647724915	-3.3640560600277
0.64206420642064	-1.2328890084617	-3.3622781627794
0.64406440644064	-1.2310021154270	-3.3605468513340
0.64606460646065	-1.2292019945625	-3.3587852925470
0.64806480648065	-1.2274288273688	-3.3569456085019
0.65006500650065	-1.2256067531224	-3.3550422324902
0.65206520652065	-1.2236962008758	-3.3531428459986
0.65406540654065	-1.2217217989708	-3.3513233745765
0.65606560656066	-1.2197574518825	-3.3496172828568
0.65806580658066	-1.2178787613256	-3.3479928135441
0.66006600660066	-1.2161144073514	-3.3463729481620
0.66206620662066	-1.2144283682000	-3.3446845405899
0.66406640664066	-1.2127441221229	-3.3429041197702
0.66606660666067	-1.2109942581202	-3.3410706047915
0.66806680668067	-1.2091626004516	-3.3392574353509
0.67006700670067	-1.2072915656464	-3.3375233844389
0.67206720672067	-1.2054509177963	-3.3358748792953
0.67406740674067	-1.2036895852037	-3.3342643257202
0.67606760676068	-1.2020029000573	-3.3326246142778
0.67806780678068	-1.2003367388206	-3.3309160268540
0.68006800680068	-1.1986251534269	-3.3291539737761
0.68206820682068	-1.1968358824895	-3.3273992377895
0.68406840684068	-1.1949932472850	-3.3257175712648
0.68606860686069	-1.1931633173903	-3.3241357550588
0.68806880688069	-1.1914113926916	-3.3226232677593
0.69006900690069	-1.1897600208718	-3.3211114662271
0.69206920692069	-1.1881750652086	-3.3195373245092
0.69406940694069	-1.1865885166551	-3.3178828303211
0.69606960696070	-1.1849425038150	-3.3161844648192
0.69806980698070	-1.1832253552283	-3.3145072797033
0.70007000700070	-1.1814763852266	-3.3129014143847
0.70207020702070	-1.1797571315007	-3.3113700379781
0.70407040704070	-1.1781089158578	-3.3098695314269
0.70607060706071	-1.1765252043102	-3.3083409811312
0.70807080708071	-1.1749568700267	-3.3067513327636
0.71007100710071	-1.1733462954500	-3.3051165249446
0.71207120712071	-1.1716671398754	-3.3034913259309
0.71407140714071	-1.1699431343604	-3.3019329328348
0.71607160716072	-1.1682334958995	-3.3004627360518
0.71807180718072	-1.1665948031344	-3.2990516092989
0.72007200720072	-1.1650446241136	-3.2976382664912
0.72207220722072	-1.1635507308547	-3.2961683246922
0.72407240724072	-1.1620525892669	-3.2946282723739
0.72607260726073	-1.1605005260864	-3.2930522979371
0.72807280728073	-1.1588866461012	-3.2914981351245
0.73007300730073	-1.1572475064100	-3.2900084938931
0.73207320732073	-1.1556375461178	-3.2885837728447
0.73407340734073	-1.1540915688147	-3.2871837655141
0.73607360736074	-1.1526014377956	-3.2857565411926
0.73807380738074	-1.1511222475409	-3.2842746989972
0.74007400740074	-1.1496033975636	-3.2827546233054
0.74207420742074	-1.1480234953929	-3.2812460201378
0.74407440744074	-1.1464057205591	-3.2797989319024
0.74607460746075	-1.1448035024368	-3.2784303125576
