#Parameters = {C_1=25.815589753809; C_2=96.34509258857; Conductivity_MoGr=1000000; Ip=99.743779456351; Pipe_lenght=40; Pipe_r=30; beta=1; cells_wave=20; d=-346.34509258857; half_gap_x=4.1844102461909; half_gap_y=30; half_gap_z=125; offset=1.6737640984764; offset_x=1; offset_y=5; sigma_z=5; teta=15; thcoll=25.815589753809; translate_z=-221.34509258857; wakelength=20000}
#"Frequency / GHz"	"Z [Re / Ohm]"	"Z [Im / Ohm]"
#-----------------------------------------------
0.0000000000000	0.12863472913203	1.2084731190812e-12
0.0020478289222872	0.11249922012199	-0.020415381510246
0.0040956578445743	0.071057710153189	-0.021340056243414
0.0061434867668615	0.021734869613054	0.0076715372425465
0.0081913156891487	-0.016119267376166	0.063674270660309
0.010239144611436	-0.030263357682149	0.13278215413111
0.012286973533723	-0.020420191330354	0.19780437586741
0.014334802456010	0.0032615263807642	0.24676577904249
0.016382631378297	0.026787808665502	0.27781031306927
0.018430460300585	0.039979174952316	0.29828036269178
0.020478289222872	0.041010904856104	0.31912314474225
0.022526118145159	0.035760021232923	0.34822771800403
0.024573947067446	0.032993100036930	0.38650923058749
0.026621775989733	0.038660677038298	0.42858141971439
0.028669604912020	0.052700988005507	0.46701754684173
0.030717433834308	0.069899747258876	0.49722699061682
0.032765262756595	0.083776044219997	0.51995440824742
0.034813091678882	0.090766490793688	0.54017419351534
0.036860920601169	0.092099924902770	0.56347892833530
0.038908749523456	0.092452975937381	0.59248365460377
0.040956578445743	0.096568966993355	0.62549884715666
0.043004407368031	0.10618136240676	0.65808175509434
0.045052236290318	0.11916878012166	0.68620187245447
0.047100065212605	0.13127576897865	0.70884647047394
0.049147894134892	0.13906548155971	0.72844035834926
0.051195723057179	0.14209209206446	0.74899442688606
0.053243551979466	0.14294753819310	0.77336916781068
0.055291380901754	0.14531901144024	0.80150381851071
0.057339209824041	0.15147610012414	0.83069430486896
0.059387038746328	0.16087474065264	0.85758816355341
0.061434867668615	0.17071560218992	0.88046519144982
0.063482696590902	0.17795561367245	0.90028304727084
0.065530525513189	0.18134922632374	0.91987968761323
0.067578354435477	0.18216780148821	0.94197809178969
0.069626183357764	0.18320258643858	0.96738942471573
0.071674012280051	0.18681623584771	0.99459507442079
0.073721841202338	0.19339355065803	1.0209046965201
0.075769670124625	0.20119989812324	1.0443297725295
0.077817499046912	0.20766366160282	1.0648842343053
0.079865327969200	0.21114988677357	1.0844749924816
0.081913156891487	0.21201396005643	1.1055296684793
0.083960985813774	0.21226716631409	1.1293444012753
0.086008814736061	0.21414743776703	1.1552724085367
0.088056643658348	0.21860693030946	1.1812564354553
0.090104472580635	0.22473540698806	1.2052838345350
0.092152301502923	0.23046323734589	1.2267439795943
0.094200130425210	0.23401319498105	1.2467798813863
0.096247959347497	0.23509089081297	1.2674421727780
0.098295788269784	0.23502358945240	1.2902672973799
0.10034361719207	0.23579864997918	1.3152625881705
0.10239144611436	0.23869591696872	1.3409657088975
0.10443927503665	0.24345351958092	1.3654944724031
0.10648710395893	0.24850899427021	1.3878385298121
0.10853493288122	0.25211059808648	1.4085107459948
0.11058276180351	0.25351402788656	1.4291426012136
0.11263059072579	0.25345187150887	1.4513372156897
0.11467841964808	0.25358507909210	1.4755837684973
0.11672624857037	0.25534494800341	1.5009661227289
0.11877407749266	0.25897189377244	1.5258346328175
0.12082190641494	0.26339554800659	1.5489519792345
0.12286973533723	0.26700841667554	1.5703197506806
0.12491756425952	0.26877796389528	1.5911359399806
0.12696539318180	0.26893116424459	1.6129412357211
0.12901322210409	0.26876085772466	1.6365603245471
0.13106105102638	0.26971381306313	1.6615638243019
0.13310887994867	0.27240290308168	1.6865998364691
0.13515670887095	0.27621711168443	1.7103425587144
0.13720453779324	0.27977607475601	1.7323940239792
0.13925236671553	0.28189439068662	1.7535271506756
0.14130019563781	0.28238444912326	1.7751244721789
0.14334802456010	0.28215622479096	1.7982181993250
0.14539585348239	0.28256653662019	1.8227966231351
0.14744368240468	0.28448235113951	1.8478414940709
0.14949151132696	0.28770416938419	1.8720502822142
0.15153934024925	0.29113229743418	1.8947322040879
0.15358716917154	0.29354229933783	1.9162626599865
0.15563499809382	0.29442457603481	1.9377982978111
0.15768282701611	0.29431395403622	1.9604667305036
0.15973065593840	0.29439797960978	1.9845973280779
0.16177848486069	0.29568988011537	2.0095166889335
0.16382631378297	0.29834162832829	2.0340338179914
0.16587414270526	0.30156231894551	2.0572664274861
0.16792197162755	0.30418240296071	2.0792358298722
0.16996980054984	0.30546260647257	2.1008300285289
0.17201762947212	0.30558921086697	2.1231756538455
0.17406545839441	0.30552501927300	2.1468619578696
0.17611328731670	0.30633318765406	2.1715504709055
0.17816111623898	0.30844831443909	2.1962279102293
0.18020894516127	0.31139410365619	2.2199145294451
0.18225677408356	0.31413027671390	2.2423332968864
0.18430460300585	0.31577726607875	2.2640833694901
0.18635243192813	0.31621472816964	2.2862104251095
0.18840026085042	0.31614743062704	2.3094810858201
0.19044808977271	0.31660518495331	2.3338641678147
0.19249591869499	0.31823120021962	2.3585690781389
0.19454374761728	0.32085025774738	2.3826030853055
0.19659157653957	0.32360619879819	2.4054551151879
0.19863940546186	0.32556263384991	2.4274354801492
0.20068723438414	0.32634608059167	2.4494462132360
0.20273506330643	0.32639043179406	2.4723509743043
0.20478289222872	0.32662354609347	2.4963840675376
0.20683072115100	0.32782183609172	2.5210024090501
0.20887855007329	0.33008145938195	2.5452729367571
0.21092637899558	0.33276595344014	2.5685195248025
0.21297420791787	0.33495682357053	2.5907812138614
0.21502203684015	0.33608864362243	2.6127715334385
0.21706986576244	0.33633001273111	2.6353763940546
0.21911769468473	0.33645419627838	2.6590433824288
0.22116552360701	0.33729773816811	2.6834829964521
0.22321335252930	0.33918578403721	2.7078807312373
0.22526118145159	0.34171861544906	2.7314651785771
0.22730901037388	0.34405908255518	2.7540361825989
0.22935683929616	0.34551476844971	2.7760917063610
0.23140466821845	0.34601042957221	2.7984736687138
0.23345249714074	0.34612873209375	2.8217841950445
0.23550032606302	0.34669900075345	2.8459766543033
0.23754815498531	0.34822396113530	2.8703988832654
0.23959598390760	0.35054048037033	2.8942510773028
0.24164381282989	0.35294297825740	2.9171371041002
0.24369164175217	0.35467693039499	2.9393294394712
0.24573947067446	0.35545760964738	2.9615708223776
0.24778729959675	0.35565772165186	2.9845565130445
0.24983512851903	0.35604070734200	3.0084577477529
0.25188295744132	0.35723024852725	3.0328127321163
0.25393078636361	0.35928438156795	3.0568539519404
0.25597861528590	0.36166482414106	3.0800400495976
0.25802644420818	0.36361618896462	3.1024238800492
0.26007427313047	0.36468820536551	3.1246067141956
0.26212210205276	0.36504016502450	3.1473166041427
0.26416993097504	0.36532200245944	3.1709063133341
0.26621775989733	0.36622028231022	3.1951167983645
0.26826558881962	0.36798604738481	3.2192645315153
0.27031341774191	0.37026904069884	3.2427175019057
0.27236124666419	0.37236747150188	3.2653285849973
0.27440907558648	0.37371548351919	3.2875292836956
0.27645690450877	0.37426992751462	3.3100245641581
0.27850473343106	0.37453226612763	3.3333043617300
0.28055256235334	0.37519597144289	3.3573100452644
0.28260039127563	0.37666716112110	3.3814826974105
0.28464822019792	0.37878966602047	3.4051544645309
0.28669604912020	0.38096046692581	3.4280091131650
0.28874387804249	0.38255056283034	3.4502943372100
0.29079170696478	0.38333770000137	3.4726434725429
0.29283953588707	0.38365341882796	3.4956346794798
0.29488736480935	0.38414738513165	3.5193942424381
0.29693519373164	0.38533633178313	3.5435160173294
0.29898302265393	0.38725062773043	3.5673480013758
0.30103085157621	0.38942006484233	3.5904439825223
0.30307868049850	0.39120398603856	3.6128675404723
0.30512650942079	0.39223412552595	3.6351414242844
0.30717433834308	0.39266419380592	3.6578819000823
0.30922216726536	0.39305720688458	3.6813736892852
0.31126999618765	0.39399285607200	3.7053785422992
0.31331782510994	0.39566859412499	3.7293059766974
0.31536565403222	0.39776882363613	3.7526240120219
0.31741348295451	0.39968863815761	3.7752243191099
0.31946131187680	0.40095364774270	3.7974912645755
0.32150914079909	0.40154463400944	3.8200311856290
0.32355696972137	0.40190496898585	3.8432524434935
0.32560479864366	0.40262973412605	3.8670869922508
0.32765262756595	0.40405439853346	3.8910431852890
0.32970045648823	0.40602725035183	3.9145493321823
0.33174828541052	0.40801982833594	3.9373480446680
0.33379611433281	0.40949518978118	3.9596694621627
0.33584394325510	0.41027748349288	3.9820669136029
0.33789177217738	0.41066855207964	4.0050322157226
0.33993960109967	0.41123442200505	4.0286579722409
0.34198743002196	0.41241258278923	4.0525786570745
0.34403525894424	0.41421243220878	4.0762276649458
0.34608308786653	0.41621389648305	4.0992296727647
0.34813091678882	0.41786162904004	4.1216567077073
0.35017874571111	0.41884883906171	4.1439733182650
0.35222657463339	0.41932555187632	4.1667122340427
0.35427440355568	0.41979002494740	4.1901068773305
0.35632223247797	0.42074173077289	4.2139341472971
0.35837006140025	0.42233749940447	4.2376732553287
0.36041789032254	0.42428745865518	4.2608676586908
0.36246571924483	0.42605966165815	4.2834386493223
0.36451354816712	0.42724904518146	4.3057352894713
0.36656137708940	0.42785488535760	4.3282892945630
0.36860920601169	0.42827677854723	4.3514469103559
0.37065703493398	0.42903505413139	4.3751325790948
0.37270486385627	0.43041115597790	4.3989056350697
0.37475269277855	0.43225646105654	4.4222677640065
0.37680052170084	0.43409931413260	4.4450067921154
0.37884835062313	0.43547333000811	4.4673397043995
0.38089617954541	0.43623851364828	4.4897585968766
0.38294400846770	0.43667416446507	4.5126888397608
0.38499183738999	0.43728204143216	4.5361968508050
0.38703966631228	0.43843842381687	4.5599481789383
0.38908749523456	0.44013627341686	4.5834421056895
0.39113532415685	0.44199410764672	4.6063582854804
0.39318315307914	0.44352267149710	4.6287755254713
0.39523098200142	0.44446305890315	4.6511133677487
0.39727881092371	0.44496267062953	4.6738395879189
0.39932663984600	0.44546949587985	4.6971474871836
0.40137446876829	0.44642042885270	4.7208255569095
0.40342229769057	0.44794040884003	4.7444073202360
0.40547012661286	0.44975950632248	4.7674952881868
0.40751795553515	0.45140286111934	4.7900341195095
0.40956578445743	0.45251988673759	4.8123453322525
0.41161361337972	0.45312456909848	4.8349020455746
0.41366144230201	0.45358220916043	4.8580015202516
0.41570927122430	0.45435425829228	4.8815620987351
0.41775710014658	0.45567942243978	4.9051832084838
0.41980492906887	0.45741136061376	4.9284245057809
0.42185275799116	0.45912326574170	4.9511096999341
0.42390058691344	0.46040467831766	4.9734454904310
0.42594841583573	0.46114416942647	4.9958754597010
0.42799624475802	0.46160325728872	5.0187721441415
0.43004407368031	0.46223262780491	5.0421810069571
0.43209190260259	0.46335975034305	5.0657922327712
0.43413973152488	0.46496436315243	5.0891576165501
0.43618756044717	0.46669570769379	5.1120007764848
0.43823538936945	0.46811736265923	5.1344060450759
0.44028321829174	0.46900882810260	5.1567570052159
0.44233104721403	0.46951549862414	5.1794693598340
0.44437887613632	0.47004507643808	5.2027041351465
0.44642670505860	0.47098415257942	5.2262590505787
0.44847453398089	0.47243193595620	5.2497112856657
0.45052236290318	0.47413448822938	5.2727109507993
0.45257019182546	0.47566296701417	5.2952216250709
0.45461802074775	0.47671081630263	5.3175426532841
0.45666584967004	0.47730399304141	5.3400998009470
0.45871367859233	0.47778010783317	5.3631506401260
0.46076150751461	0.47855292155106	5.3866085000295
0.46280933643690	0.47982643808911	5.4101052785505
0.46485716535919	0.48145611876215	5.4332477037657
0.46690499428147	0.48305159057099	5.4558886926269
0.46895282320376	0.48424792844126	5.4782266153613
0.47100065212605	0.48495702854876	5.5006655401117
0.47304848104834	0.48542595594214	5.5235348798641
0.47509630997062	0.48606371342608	5.5468629308464
0.47714413889291	0.48715785364151	5.5703599611012
0.47919196781520	0.48867725201735	5.5936207101257
0.48123979673749	0.49029627892687	5.6164048155138
0.48328762565977	0.49162182235080	5.6388011650244
0.48533545458206	0.49246492016322	5.6611638432689
0.48738328350435	0.49296934283676	5.6838657623801
0.48943111242663	0.49350967190789	5.7070413760489
0.49147894134892	0.49443107669007	5.7304959669275
0.49352677027121	0.49581153497442	5.7538426679866
0.49557459919350	0.49741026702909	5.7767708496019
0.49762242811578	0.49883640238649	5.7992597238934
0.49967025703807	0.49981976394512	5.8215903249357
0.50171808596036	0.50039620956821	5.8441492543233
0.50376591488264	0.50088041992446	5.8671612229091
0.50581374380493	0.50164662361602	5.8905354040908
0.50786157272722	0.50287002571035	5.9139306340201
0.50990940164951	0.50440757169209	5.9369927332575
0.51195723057179	0.50589915832904	5.9595989052696
0.51400505949408	0.50701773151944	5.9819406074952
0.51605288841637	0.50769460559933	6.0043890272669
0.51810071733865	0.50816480506791	6.0272376615729
0.52014854626094	0.50880257754890	6.0505005076642
0.52219637518323	0.50986217224183	6.0739046135627
0.52424420410552	0.51130341130222	6.0970806049349
0.52629203302780	0.51282169906244	6.1198182354434
0.52833986195009	0.51406018325266	6.1422101955204
0.53038769087238	0.51485632331432	6.1645858532527
0.53243551979466	0.51535252986878	6.1872822479857
0.53448334871695	0.51589560325007	6.2104115455035
0.53653117763924	0.51679594983032	6.2337853852703
0.53857900656153	0.51811373252729	6.2570471095839
0.54062683548381	0.51961926374133	6.2799190872072
0.54267466440610	0.52095364573831	6.3023936566254
0.54472249332839	0.52187733907443	6.3247363972217
0.54677032225067	0.52243453039089	6.3473008787025
0.54881815117296	0.52292054102630	6.3702840897314
0.55086598009525	0.52367622486110	6.3935917046421
0.55291380901754	0.52485247442418	6.4169053214159
0.55496163793982	0.52630751638265	6.4399037942139
0.55700946686211	0.52770687361724	6.4624848338207
0.55905729578440	0.52875554568149	6.4848339937102
0.56110512470668	0.52940126046514	6.5072945623429
0.56315295362897	0.52986878153260	6.5301295729004
0.56520078255126	0.53050282598252	6.5533409073745
0.56724861147355	0.53152935088185	6.5766698891400
0.56929644039583	0.53290049452794	6.5997776499313
0.57134426931812	0.53432955666587	6.6224795381682
0.57339209824041	0.53549052607478	6.6448714495454
0.57543992716269	0.53624331655672	6.6672616837992
0.57748775608498	0.53672912027232	6.6899567234280
0.57953558500727	0.53727100258438	6.7130497768050
0.58158341392956	0.53814969854911	6.7363579717419
0.58363124285184	0.53941018900143	6.7595504943388
0.58567907177413	0.54083230775892	6.7823779205798
0.58772690069642	0.54208452003940	6.8048437903655
0.58977472961871	0.54295348832611	6.8272004315342
0.59182255854099	0.54349049005944	6.8497731300406
0.59387038746328	0.54397422289630	6.8727351611818
0.59591821638557	0.54471692429816	6.8959892626877
0.59796604530785	0.54584866911594	6.9192366144641
0.60001387423014	0.54722884692741	6.9421844453837
0.60206170315243	0.54854504451163	6.9647480575007
0.60410953207472	0.54952982620433	6.9871078878318
0.60615736099700	0.55014501431245	7.0095832060958
0.60820518991929	0.55060651209467	7.0324108443250
0.61025301884158	0.55123360588286	7.0555822995099
0.61230084776386	0.55222791985078	7.0788512414350
0.61434867668615	0.55353504476780	7.1019051109822
0.61639650560844	0.55488379027504	7.1245812919765
0.61844433453073	0.55597479682580	7.1469783683268
0.62049216345301	0.55668734928549	7.1693863706898
0.62253999237530	0.55716153399541	7.1920853427410
0.62458782129759	0.55769985044664	7.2151521155509
0.62663565021987	0.55855736140831	7.2384086005445
0.62868347914216	0.55976594496853	7.2615463706530
0.63073130806445	0.56111373149887	7.2843404011903
0.63277913698674	0.56229291767255	7.3068038668655
0.63482696590902	0.56311284954680	7.3291775284912
0.63687479483131	0.56363087869608	7.3517620950690
0.63892262375360	0.56411119388115	7.3747102754229
0.64097045267588	0.56484114001921	7.3979223129800
0.64301828159817	0.56593271662858	7.4211164553394
0.64506611052046	0.56724636896561	7.4440246093491
0.64711393944275	0.56848890624507	7.4665773364997
0.64916176836503	0.56941686162638	7.4889505562377
0.65120959728732	0.57000425607385	7.5114425843447
0.65325742620961	0.57045918120421	7.5342674457395
0.65530525513189	0.57107869473388	7.5574076600825
0.65735308405418	0.57204319920992	7.5806277553121
0.65940091297647	0.57329262303591	7.6036381864982
0.66144874189876	0.57456937549298	7.6262955749378
0.66349657082104	0.57559739778541	7.6487008118229
0.66554439974333	0.57627286985153	7.6711279264500
0.66759222866562	0.57673484700388	7.6938338577225
0.66964005758790	0.57726779219466	7.7168811792828
0.67168788651019	0.57810431164192	7.7400960840820
0.67373571543248	0.57926488287644	7.7631898168950
0.67578354435477	0.58054500052961	7.7859587352284
0.67783137327705	0.58165772839429	7.8084244069922
0.67987920219934	0.58243230992036	7.8308173817255
0.68192703112163	0.58293138173630	7.8534167732195
0.68397486004391	0.58340634971633	7.8763572650908
0.68602268896620	0.58412269693260	7.8995369785638
0.68807051788849	0.58517660384436	7.9226892156548
0.69011834681078	0.58642954220216	7.9455675777744
0.69216617573306	0.58760530739459	7.9681159810230
0.69421400465535	0.58848154181174	7.9905062714122
0.69626183357764	0.58904296015775	8.0130182426377
0.69830966249993	0.58949070485431	8.0358458169949
0.70035749142221	0.59010220773133	8.0589636428687
0.70240532034450	0.59103918464672	8.0821458690336
0.70445314926679	0.59223663711486	8.1051232540737
0.70650097818907	0.59344903676854	8.1277693338576
0.70854880711136	0.59442090085480	8.1501869343856
0.71059663603365	0.59506326598072	8.1726358639251
0.71264446495594	0.59551417167136	8.1953526191455
0.71469229387822	0.59604204946015	8.2183872134118
0.71674012280051	0.59685961951707	8.2415697021142
0.71878795172280	0.59797730865822	8.2646287865710
0.72083578064508	0.59919718544936	8.2873797403492
0.72288360956737	0.60025081075329	8.3098514996233
0.72493143848966	0.60098500664650	8.3322654980260
0.72697926741195	0.60146699496302	8.3548816897560
0.72902709633423	0.60193675176035	8.3778188291207
0.73107492525652	0.60264032844246	8.4009732558590
0.73312275417881	0.60365990062936	8.4240917238083
0.73517058310109	0.60485792509052	8.4469471288046
0.73721841202338	0.60597333967983	8.4694952162739
0.73926624094567	0.60680253760271	8.4919041542778
0.74131406986796	0.60733967394760	8.5144372456401
0.74336189879024	0.60777963248176	8.5372705788125
0.74540972771253	0.60838235177632	8.5603719009667
0.74745755663482	0.60929295986914	8.5835240309474
0.74950538555710	0.61044217270157	8.6064758601192
0.75155321447939	0.61159530872691	8.6291159691092
0.75360104340168	0.61251526889351	8.6515488358806
0.75564887232397	0.61312631213639	8.6740215271338
0.75769670124625	0.61356551384849	8.6967523026783
0.75974453016854	0.61408696786516	8.7197800283006
0.76179235909083	0.61488567778052	8.7429382879754
0.76384018801311	0.61596319256598	8.7659714128166
0.76588801693540	0.61712756434927	8.7887115400666
0.76793584585769	0.61812694837208	8.8111940931361
0.76998367477998	0.61882386918276	8.8336322493348
0.77203150370226	0.61928957966984	8.8562687699948
0.77407933262455	0.61975376012803	8.8792081719431
0.77612716154684	0.62044505436516	8.9023452584110
