#Parameters = {C_1=13.5; C_2=50.38268590218; Conductivity_W=18000000; Ip=52.15999461961; Pipe_lenght=40; Pipe_r=30; beta=1; cells_wave=20; conductivity_copper=59500000; d=-150.38268590218; half_gap_x=16.5; half_gap_y=30; half_gap_z=50; mu_copper=0.999994; offset=6.6; offset_x=1; offset_y=5; sigma_z=5; teta=15; thcoll=13.5; translate_z=-100.38268590218; wakelength=20000}
#"Frequency / GHz"	"Z [Re / Ohm]"	"Z [Im / Ohm]"
#-----------------------------------------------
0.0000000000000	-0.084253941821092	-6.4898946191280e-13
0.0020478289222872	-0.075769439733622	0.036818775111129
0.0040956578445743	-0.053876602346717	0.063630153496275
0.0061434867668615	-0.027484967694779	0.075047145331637
0.0081913156891487	-0.0064942180094338	0.072523261915660
0.010239144611436	0.0028195730150511	0.063102093820535
0.012286973533723	0.00028341600544082	0.055518610016026
0.014334802456010	-0.0089581721774036	0.055849476593478
0.016382631378297	-0.017802970524311	0.065011143552482
0.018430460300585	-0.021100559885773	0.079232043771051
0.020478289222872	-0.017967573037276	0.092909899977125
0.022526118145159	-0.011450768825599	0.10201317994355
0.024573947067446	-0.0060674268307168	0.10607794165569
0.026621775989733	-0.0048916471429235	0.10786120542576
0.028669604912020	-0.0079238920956065	0.11116301121018
0.030717433834308	-0.012532211549022	0.11833614400001
0.032765262756595	-0.015437570520316	0.12901156647816
0.034813091678882	-0.014849454464879	0.14066476879734
0.036860920601169	-0.011420695798853	0.15046034191946
0.038908749523456	-0.0075586158566141	0.15708632231021
0.040956578445743	-0.0056979360783702	0.16142865499849
0.043004407368031	-0.0067315064910238	0.16577621354767
0.045052236290318	-0.0095818959638784	0.17220354794073
0.047100065212605	-0.012082639285167	0.18124188286359
0.049147894134892	-0.012486491868979	0.19166742861432
0.051195723057179	-0.010573050347745	0.20144872640588
0.053243551979466	-0.0076700382219609	0.20914379415052
0.055291380901754	-0.0056598400002942	0.21480213184786
0.057339209824041	-0.0056970458718453	0.21981997054815
0.059387038746328	-0.0074982092455056	0.22592010922374
0.061434867668615	-0.0096298867047264	0.23398820856660
0.063482696590902	-0.010537117862833	0.24354153257825
0.065530525513189	-0.0095846973920139	0.25313887910045
0.067578354435477	-0.0074218709762671	0.26140031886220
0.069626183357764	-0.0054708735847241	0.26792324964735
0.071674012280051	-0.0049315956382203	0.27349303563760
0.073721841202338	-0.0059923920312391	0.27948951591508
0.075769670124625	-0.0077607287510192	0.28693029887759
0.077817499046912	-0.0089200372153729	0.29580881569660
0.079865327969200	-0.0086351011612253	0.30515315371067
0.081913156891487	-0.0070877372073789	0.31372847940727
0.083960985813774	-0.0053032242574287	0.32088003191688
0.086008814736061	-0.0044191876348788	0.32694492041323
0.088056643658348	-0.0049144130700145	0.33297758784466
0.090104472580635	-0.0063171640842884	0.34000589679307
0.092152301502923	-0.0075666741598907	0.34833948120254
0.094200130425210	-0.0077550323224755	0.35739308453761
0.096247959347497	-0.0067332619228831	0.36612087677995
0.098295788269784	-0.0051792985941226	0.37374264692963
0.10034361719207	-0.0041049695192514	0.38025997829116
0.10239144611436	-0.0041579080319668	0.38642301751606
0.10443927503665	-0.0051979412927772	0.39319271971273
0.10648710395893	-0.0064230445531219	0.40108195447756
0.10853493288122	-0.0069381616349879	0.40982548559404
0.11058276180351	-0.0063652219272734	0.41858929714395
0.11263059072579	-0.0050801072459597	0.42655726330100
0.11467841964808	-0.0039300141712166	0.43348405665428
0.11672624857037	-0.0036415512567156	0.43984108636401
0.11877407749266	-0.0043316791024970	0.44647115169574
0.12082190641494	-0.0054493894402352	0.45400318178104
0.12286973533723	-0.0061727875685039	0.46243225169832
0.12491756425952	-0.0059767057370968	0.47114419602954
0.12696539318180	-0.0049798963154849	0.47935325890821
0.12901322210409	-0.0038433077120843	0.48664204429581
0.13106105102638	-0.0033030564771185	0.49323369688544
0.13310887994867	-0.0036670669727988	0.49981988929719
0.13515670887095	-0.0046186704123430	0.50707545634603
0.13720453779324	-0.0054512403439812	0.51519937755569
0.13925236671553	-0.0055611706296568	0.52379352816453
0.14130019563781	-0.0048560366464258	0.53215158797071
0.14334802456010	-0.0038026391656520	0.53974937543478
0.14539585348239	-0.0030926882662863	0.54659692362773
0.14744368240468	-0.0031647560473288	0.55321649014212
0.14949151132696	-0.0039122057965632	0.56027204688647
0.15153934024925	-0.0047709306106431	0.56811241866737
0.15358716917154	-0.0051166672692521	0.57654182363794
0.15563499809382	-0.0046926316669033	0.58496808368388
0.15768282701611	-0.0037750586780039	0.59281734047590
0.15973065593840	-0.0029706536479999	0.59992538092251
0.16177848486069	-0.0027937258049111	0.60663921013126
0.16382631378297	-0.0033172220378179	0.61356701107930
0.16587414270526	-0.0041339625927673	0.62115607559758
0.16792197162755	-0.0046467653255070	0.62939115212907
0.16996980054984	-0.0044812162815619	0.63781619933800
0.17201762947212	-0.0037361877027211	0.64585677945950
0.17406545839441	-0.0029049007775284	0.65321560781148
0.17611328731670	-0.0025283290550650	0.66006927015419
0.17816111623898	-0.0028240978401589	0.66693637586428
0.18020894516127	-0.0035450810593960	0.67431491991822
0.18225677408356	-0.0041590601765698	0.68234206318930
0.18430460300585	-0.0042192975567357	0.69070842469684
0.18635243192813	-0.0036683233199012	0.69887975804583
0.18840026085042	-0.0028686599531953	0.70646755520976
0.19044808977271	-0.0023454860417306	0.71349179465830
0.19249591869499	-0.0024235689671583	0.72035843172430
0.19454374761728	-0.0030091681001470	0.72757318403131
0.19659157653957	-0.0036630661862815	0.73539310314859
0.19863940546186	-0.0039085989373326	0.74365572022394
0.20068723438414	-0.0035589202645118	0.75189901057624
0.20273506330643	-0.0028390536226912	0.75968403545612
0.20478289222872	-0.0022233584922318	0.76689519798040
0.20683072115100	-0.0021054788113270	0.77381295152315
0.20887855007329	-0.0025301803335836	0.78091372612688
0.21092637899558	-0.0031695323784225	0.78853953329908
0.21297420791787	-0.0035549476194356	0.79666615048449
0.21502203684015	-0.0034011197988010	0.80492679212988
0.21706986576244	-0.0027981192470750	0.81287012209424
0.21911769468473	-0.0021425208830523	0.82027131739548
0.22116552360701	-0.0018597036411311	0.82728198451346
0.22321335252930	-0.0021115839854688	0.83431918733383
0.22526118145159	-0.0026904096493557	0.84177450348263
0.22730901037388	-0.0031680062470204	0.84974588903341
0.22935683929616	-0.0031934877259223	0.85797578755467
0.23140466821845	-0.0027325983301932	0.86603419964153
0.23345249714074	-0.0020855888036936	0.87361677848169
0.23550032606302	-0.0016752947751760	0.88075145548225
0.23754815498531	-0.0017548230682759	0.88777347202184
0.23959598390760	-0.0022367750193167	0.89508998241400
0.24164381282989	-0.0027590705830608	0.90289936202940
0.24369164175217	-0.0029381560352329	0.91105858693364
0.24573947067446	-0.0026326640922486	0.91918717233761
0.24778729959675	-0.0020364141152086	0.92693235779307
0.24983512851903	-0.0015397761801049	0.93421084740790
0.25188295744132	-0.0014583906851336	0.94126157143035
0.25393078636361	-0.0018176352514489	0.94847635698498
0.25597861528590	-0.0023398891648372	0.95612836725939
0.25802644420818	-0.0026400612335726	0.96418639645883
0.26007427313047	-0.0024917957449448	0.97234114645272
0.26212210205276	-0.0019804454465547	0.98022207122182
0.26416993097504	-0.0014395533498606	0.98765287750372
0.26621775989733	-0.0012178530860023	0.99476961404963
0.26826558881962	-0.0014394422724260	1.0019223816303
0.27031341774191	-0.0019219563106122	1.0094315086455
0.27236124666419	-0.0023065309556303	1.0173678984895
0.27440907558648	-0.0023070624963779	1.0255080688017
0.27645690450877	-0.0019057306855543	1.0334921376987
0.27850473343106	-0.0013612580904104	1.0410731808819
0.28055256235334	-0.0010270106362306	1.0482852763567
0.28260039127563	-0.0011067277467756	1.0554159678237
0.28464822019792	-0.0015166478002607	1.0628049292177
0.28669604912020	-0.0019472327646977	1.0706097128708
0.28874387804249	-0.0020791950296840	1.0787000453910
0.29079170696478	-0.0018031450027230	1.0867514815111
0.29283953588707	-0.0012918369665384	1.0944712122638
0.29488736480935	-0.00087743265941943	1.1017989487095
0.29693519373164	-0.00082088450810563	1.1089451402699
0.29898302265393	-0.0011334772138671	1.1162425172170
0.30103085157621	-0.0015724956522837	1.1239155994582
0.30307868049850	-0.0018116083981949	1.1319277666171
0.30512650942079	-0.0016664358560858	1.1400099820434
0.30717433834308	-0.0012194543820928	1.1478489612821
0.30922216726536	-0.00075970045601896	1.1553032489753
0.31126999618765	-0.00058121216843954	1.1624982401774
0.31331782510994	-0.00078069646195099	1.1697364044207
0.31536565403222	-0.0011935865165023	1.1772868909870
0.31741348295451	-0.0015106563517720	1.1852008004909
0.31946131187680	-0.0014926347996823	1.1932788485427
0.32150914079909	-0.0011339299649414	1.2012116950502
0.32355696972137	-0.00066349384343683	1.2087941920744
0.32560479864366	-0.00038430968385434	1.2160652224181
0.32765262756595	-0.00046397218055849	1.2232778700528
0.32970045648823	-0.00082105353076074	1.2307225814850
0.33174828541052	-0.0011842382263461	1.2385268253235
0.33379611433281	-0.0012813903744794	1.2465693854760
0.33584394325510	-0.0010268549803615	1.2545668437304
0.33789177217738	-0.00057813188655506	1.2622706272876
0.33993960109967	-0.00022451796609894	1.2696376759421
0.34198743002196	-0.00018638924630691	1.2768576019174
0.34403525894424	-0.00046433366919605	1.2842193821529
0.34608308786653	-0.00084136705803204	1.2919112524192
0.34813091678882	-0.0010348826793413	1.2998923225026
0.35017874571111	-0.00089197669821216	1.3079234273872
0.35222657463339	-0.00049319475875189	1.3157341039718
0.35427440355568	-9.4359529568243e-05	1.3232091637034
0.35632223247797	5.1592425915430e-05	1.3304662035739
0.35837006140025	-0.00013126951297981	1.3377719598577
0.36041789032254	-0.00049161363599965	1.3453569420371
0.36246571924483	-0.00075763465422517	1.3532571240633
0.36451354816712	-0.00072558093928604	1.3612913754859
0.36656137708940	-0.00039929638805238	1.3691886358609
0.36860920601169	1.4749184467719e-05	1.3767755868076
0.37065703493398	0.00025190340735115	1.3840949251916
0.37270486385627	0.00017223875455701	1.3913735702143
0.37475269277855	-0.00014444961435974	1.3988643561437
0.37680052170084	-0.00045600568322893	1.4066716146135
0.37884835062313	-0.00052646621304934	1.4146809333221
0.38089617954541	-0.00028852035542945	1.4226403304475
0.38294400846770	0.00011194224571816	1.4303353031739
0.38499183738999	0.00041860678756142	1.4377361830470
0.38703966631228	0.00044247098801586	1.4450166064399
0.38908749523456	0.00019132989723335	1.4524317504452
0.39113532415685	-0.00013766713384494	1.4601416869723
0.39318315307914	-0.00029581854216721	1.4681021060963
0.39523098200142	-0.00015474552146803	1.4760969745969
0.39727881092371	0.00020640938061130	1.4838891540604
0.39932663984600	0.00055764977198155	1.4913840008716
0.40137446876829	0.00067813806436031	1.4986931133639
0.40342229769057	0.00050825994168122	1.5060553352608
0.40547012661286	0.00018906131351560	1.5136708950960
0.40751795553515	-3.6968043411501e-05	1.5215638321873
0.40956578445743	5.9933351498679e-06	1.5295672065896
0.41161361337972	0.00030660959584512	1.5374400485562
0.41366144230201	0.00067606246084398	1.5450341511816
0.41570927122430	0.00087992816240440	1.5523952863982
0.41775710014658	0.00080017751888031	1.5597297518848
0.41980492906887	0.00051537455079415	1.5672606272784
0.42185275799116	0.00024461270590456	1.5750738720544
0.42390058691344	0.00019515183629050	1.5830604177534
0.42594841583573	0.00041968689305958	1.5909932275207
0.42799624475802	0.00078151632484008	1.5986849142957
0.43004407368031	0.0010505768509373	1.6061165199372
0.43209190260259	0.0010629078677657	1.6134489804536
0.43413973152488	0.00083304037144403	1.6209104928902
0.43618756044717	0.00054229747243650	1.6286385874697
0.43823538936945	0.00041224055997795	1.6365861797356
0.44028321829174	0.00055156533193729	1.6445557546176
0.44233104721403	0.00088222365754799	1.6523369235103
0.44437887613632	0.0011949565680740	1.6598515785223
0.44642670505860	0.0012947619624164	1.6672065202969
0.44847453398089	0.0011351964974730	1.6746181354341
0.45052236290318	0.00084903682572183	1.6822622187676
0.45257019182546	0.00065511058884507	1.6901531472910
0.45461802074775	0.00070664920571987	1.6981354309369
0.45666584967004	0.00098623267937492	1.7059924480311
0.45871367859233	0.0013193303349747	1.7135963491904
0.46076150751461	0.0014960390471059	1.7209954165208
0.46280933643690	0.0014161246800421	1.7283792095196
0.46485716535919	0.0011571633698247	1.7359466133542
0.46690499428147	0.00091948317742119	1.7437686224221
0.46895282320376	0.00088695199978140	1.7517405112365
0.47100065212605	0.0011003334158308	1.7596555858986
0.47304848104834	0.0014304210197861	1.7673486035571
0.47509630997062	0.0016686080540910	1.7748093654513
0.47714413889291	0.0016714262784269	1.7821884167135
0.47919196781520	0.0014589242337518	1.7896918523463
0.48123979673749	0.0011994441290359	1.7974387173380
0.48328762565977	0.0010922650868717	1.8053796522596
0.48533545458206	0.0012299081637904	1.8133323636273
0.48738328350435	0.0015352287782552	1.8211084694590
0.48943111242663	0.0018160472288552	1.8286434759280
0.49147894134892	0.0018986559115070	1.8360402243657
0.49352677027121	0.0017474725993835	1.8434965697463
0.49557459919350	0.0014884366885421	1.8511681310050
0.49762242811578	0.0013208111913363	1.8590613071872
0.49967025703807	0.0013791398020851	1.8670300933109
0.50171808596036	0.0016409751606965	1.8748780383090
0.50376591488264	0.0019436430422717	1.8824941636615
0.50581374380493	0.0020975905526925	1.8899288211345
0.50786157272722	0.0020173546896824	1.8973576567280
0.50990940164951	0.0017796748811435	1.9049594416352
0.51195723057179	0.0015692535346396	1.9127927303881
0.51400505949408	0.0015504786511572	1.9207564321936
0.51605288841637	0.0017541828463770	1.9286608216779
0.51810071733865	0.0020574313176860	1.9363591276009
0.52014854626094	0.0022695435162621	1.9438484494579
0.52219637518323	0.0022641710163944	1.9512706307342
0.52424420410552	0.0020659590752840	1.9588132732038
0.52629203302780	0.0018323655779131	1.9665799582239
0.52833986195009	0.0017439976025842	1.9745194425300
0.53038769087238	0.0018798287745020	1.9824622148639
0.53243551979466	0.0021634980695942	1.9902383628574
0.53448334871695	0.0024171891892963	1.9977948090107
0.53653117763924	0.0024850930341372	2.0052310405000
0.53857900656153	0.0023407436289365	2.0127293064743
0.54062683548381	0.0021042978722396	2.0204282452086
0.54267466440610	0.0019585212518614	2.0283275584589
0.54472249332839	0.0020222102405063	2.0362892666828
0.54677032225067	0.0022687038409042	2.0441339511973
0.54881815117296	0.0025453691917925	2.0517648671678
0.55086598009525	0.0026798614356658	2.0592340850751
0.55291380901754	0.0025991941607545	2.0667054565901
0.55496163793982	0.0023793680364870	2.0743407241052
0.55700946686211	0.0021918276048825	2.0821879268460
0.55905729578440	0.0021844519331427	2.0901490875769
0.56110512470668	0.0023796787130254	2.0980488946824
0.56315295362897	0.0026599340270247	2.1057562481306
0.56520078255126	0.0028497856285232	2.1132744123695
0.56724861147355	0.0028374275174521	2.1207377939946
0.56929644039583	0.0026513795483529	2.1283182432860
0.57134426931812	0.0024397967443759	2.1361061903247
0.57339209824041	0.0023673660313921	2.1440488220715
0.57543992716269	0.0025015307328744	2.1519875556063
0.57748775608498	0.0027666354411475	2.1597682392059
0.57953558500727	0.0029971538121569	2.1673475136687
0.58158341392956	0.0030525643350755	2.1748219589832
0.58363124285184	0.0029141601021930	2.1823604559658
0.58567907177413	0.0026971073503595	2.1900871229017
0.58772690069642	0.0025700240693816	2.1979959643339
0.58977472961871	0.0026382273589794	2.2059559164483
0.59182255854099	0.0028714808315103	2.2138021783483
0.59387038746328	0.0031258006116881	2.2214501968057
0.59591821638557	0.0032436202863431	2.2289534776943
0.59796604530785	0.0031626425143710	2.2364657096800
0.60001387423014	0.0029581882520233	2.2441339986733
0.60206170315243	0.0027902682796557	2.2519973744916
0.60410953207472	0.0027925582219904	2.2599605863846
0.60615736099700	0.0029803038894281	2.2678607633679
0.60820518991929	0.0032405958932551	2.2755802997460
0.61025301884158	0.0034111710352537	2.2831277355419
0.61230084776386	0.0033927526617781	2.2906310189454
0.61434867668615	0.0032171610995953	2.2982483882806
0.61639650560844	0.0030244747785026	2.3060589389409
0.61844433453073	0.0029656122864736	2.3140085498285
0.62049216345301	0.0030980762609593	2.3219481286096
0.62253999237530	0.0033468719590808	2.3297371652378
0.62458782129759	0.0035571494689844	2.3373406801690
0.62663565021987	0.0036016280206362	2.3448526859624
0.62868347914216	0.0034682868166391	2.3524304468473
0.63073130806445	0.0032679155024980	2.3601855002564
0.63277913698674	0.0031568326245760	2.3681069530788
0.63482696590902	0.0032286723625353	2.3760697955675
0.63687479483131	0.0034501444565513	2.3839219444939
0.63892262375360	0.0036848330908026	2.3915894177827
0.64097045267588	0.0037880399679175	2.3991269151175
0.64301828159817	0.0037067398955554	2.4066792339604
0.64506611052046	0.0035156085029409	2.4143807270303
0.64711393944275	0.0033646548787175	2.4222626086354
0.64916176836503	0.0033751732014296	2.4302320559419
0.65120959728732	0.0035561753097100	2.4381370808350
0.65325742620961	0.0037988716542381	2.4458718444203
0.65530525513189	0.0039525218395304	2.4534494491492
0.65735308405418	0.0039287768492142	2.4609921539910
0.65940091297647	0.0037622938410990	2.4686462828729
0.66144874189876	0.0035860440372900	2.4764810449287
0.66349657082104	0.0035388905493517	2.4844412256933
0.66554439974333	0.0036696677242084	2.4923860813984
0.66759222866562	0.0039040132795793	2.5001870507909
0.66964005758790	0.0040964696893453	2.5078164564605
0.67168788651019	0.0041313584367377	2.5153660044714
0.67373571543248	0.0040024775714126	2.5229827366342
0.67578354435477	0.0038167207679756	2.5307671616791
0.67783137327705	0.0037195800035416	2.5387041348960
0.67987920219934	0.0037944447237904	2.5466740164302
0.68192703112163	0.0040053906436014	2.5545359197162
0.68397486004391	0.0042227025685548	2.5622251323639
0.68602268896620	0.0043130117513468	2.5697973527952
0.68807051788849	0.0042314191961397	2.5773895130469
0.69011834681078	0.0040519781000863	2.5851247374457
0.69216617573306	0.0039158514016642	2.5930273990629
0.69421400465535	0.0039334312089172	2.6010068723778
0.69626183357764	0.0041082839405288	2.6089207969360
0.69830966249993	0.0043353137987351	2.6166736968909
0.70035749142221	0.0044739778119581	2.6242826452693
0.70240532034450	0.0044455530504779	2.6318648192352
0.70445314926679	0.0042871445372077	2.6395559957151
0.70650097818907	0.0041253877978298	2.6474166749602
0.70854880711136	0.0040884723118405	2.6553907346957
0.71059663603365	0.0042175992597046	2.6633448651041
0.71264446495594	0.0044390252079172	2.6711610851422
0.71469229387822	0.0046156510361353	2.6788181419092
0.71674012280051	0.0046420721625754	2.6864056402601
0.71878795172280	0.0045171973892895	2.6940615282487
0.72083578064508	0.0043444107763631	2.7018765494112
0.72288360956737	0.0042595759033442	2.7098318386414
0.72493143848966	0.0043370145337364	2.7178125734067
0.72697926741195	0.0045385201610717	2.7256878228966
0.72902709633423	0.0047403785771513	2.7334010740351
0.73107492525652	0.0048192955918684	2.7410088512477
0.73312275417881	0.0047375544709507	2.7486410468321
0.73517058310109	0.0045685910575662	2.7564107976635
