#Parameters = {cells_wave=15; C_1=23.333; C_2=132.32801869714; Ip=134.36939168319; Pipe_lenght=40; Pipe_r=30; beta=1; d=-382.32801869714; half_gap_x=30; half_gap_y=6.667; half_gap_z=125; sigma_z=5; teta=10; translate_z=-257.32801869714; wakelength=100}
#"Frequency / GHz"	"Z (5) [Re / Ohm]"	"Z (5) [Im / Ohm]"
#-------------------------------------------------------
0.0000000000000	0.50127278586399	-1.7659161209451e-12
0.020478289222872	0.50085400628854	0.10876279962372
0.040956578445743	0.49959831401016	0.21755925582256
0.061434867668615	0.49750764738897	0.32642297488200
0.081913156891487	0.49458523371690	0.43538746259326
0.10239144611436	0.49083558425777	0.54448607419930
0.12286973533723	0.48626448732911	0.65375196457979
0.14334802456010	0.48087899940722	0.76321803875118
0.16382631378297	0.47468743429478	0.87291690274987
0.18430460300585	0.46769935036022	0.98288081499344
0.20478289222872	0.45992553585831	1.0931416381781
0.22526118145159	0.45137799237777	1.2037307917977
0.24573947067446	0.44206991641551	1.3146792053588
0.26621775989733	0.43201567912600	1.4260172723582
0.28669604912020	0.42123080427255	1.5377748050988
0.30717433834308	0.40973194441091	1.6499809904185
0.32765262756595	0.39753685534309	1.7626643463979
0.34813091678882	0.38466436888871	1.8758526801046
0.36860920601169	0.37113436400635	1.9895730464636
0.38908749523456	0.35696773632209	2.1038517082958
0.40956578445743	0.34218636610243	2.2187140975936
0.43004407368031	0.32681308472654	2.3341847781044
0.45052236290318	0.31087163970861	2.4502874092667
0.47100065212605	0.29438665833383	2.5670447115562
0.49147894134892	0.27738360994907	2.6844784333117
0.51195723057179	0.25988876698666	2.8026093190735
0.53243551979466	0.24192916476152	2.9214570794896
0.55291380901754	0.22353256012541	3.0410403628482
0.57339209824041	0.20472738903130	3.1613767282598
0.59387038746328	0.18554272307309	3.2824826205524
0.61434867668615	0.16600822507966	3.4043733469025
0.63482696590902	0.14615410382354	3.5270630552458
0.65530525513189	0.12601106791724	3.6505647145034
0.67578354435477	0.10561027897466	3.7748900966487
0.69626183357764	0.084983304105057	3.9000497606399
0.71674012280051	0.064162067819745	4.0260530382594
0.73721841202338	0.043178803421845	4.1529080218641
0.75769670124625	0.022066003960099	4.2806215540679
0.77817499046912	0.00085637282139583	4.4091992193867
0.79865327969200	-0.020417225953873	4.5386453378422
0.81913156891487	-0.041721817572199	4.6689629605405
0.83960985813774	-0.063024366499699	4.8001538672354
0.86008814736061	-0.084291826530756	4.9322185658738
0.88056643658348	-0.10549119082154	5.0651562941269
0.90104472580636	-0.12658954181198	5.1989650229060
0.92152301502923	-0.14755410095737	5.3336414618501
0.94200130425210	-0.16835227819471	5.4691810667872
0.96247959347497	-0.18895172106114	5.6055780491431
0.98295788269784	-0.20932036338497	5.7428253872977
1.0034361719207	-0.22942647348704	5.8809148398585
1.0239144611436	-0.24923870178984	6.0198369608328
1.0443927503665	-0.26872612779127	6.1595811166813
1.0648710395893	-0.28785830629857	6.3001355052141
1.0853493288122	-0.30660531287481	6.4414871763093
1.1058276180351	-0.32493778840520	6.5836220544131
1.1263059072579	-0.34282698273004	6.7265249627908
1.1467841964808	-0.36024479726326	6.8701796494878
1.1672624857037	-0.37716382653441	7.0145688149580
1.1877407749266	-0.39355739858944	7.1596741413168
1.2082190641494	-0.40939961418356	7.3054763231738
1.2286973533723	-0.42466538470476	7.4519550999900
1.2491756425952	-0.43933046876935	7.5990892899162
1.2696539318180	-0.45337150743172	7.7468568250489
1.2901322210409	-0.46676605795217	7.8952347880570
1.3106105102638	-0.47949262606363	8.0441994501143
1.3310887994867	-0.49153069670159	8.1937263100779
1.3515670887095	-0.50286076313070	8.3437901348525
1.3720453779324	-0.51346435443213	8.4943650008754
1.3925236671553	-0.52332406130736	8.6454243366529
1.4130019563781	-0.53242356015583	8.7969409662837
1.4334802456010	-0.54074763538686	8.9488871538976
1.4539585348239	-0.54828219993577	9.1012346489402
1.4744368240468	-0.55501431394510	9.2539547322291
1.4949151132696	-0.56093220158742	9.4070182627074
1.5153934024925	-0.56602526599766	9.5603957248240
1.5358716917154	-0.57028410229753	9.7140572764597
1.5563499809382	-0.57370050868540	9.8679727973250
1.5768282701611	-0.57626749557764	10.022111937751
1.5973065593840	-0.57797929278668	10.176444167796
1.6177848486069	-0.57883135472274	10.330938826588
1.6382631378297	-0.57882036361456	10.485565171827
1.6587414270526	-0.57794423074064	10.640292429360
1.6792197162755	-0.57620209567088	10.795089842759
1.6996980054984	-0.57359432352016	10.949926722818
1.7201762947212	-0.57012250021724	11.104772496880
1.7406545839441	-0.56578942580015	11.259596757939
1.7611328731670	-0.56059910574348	11.414369313406
1.7816111623898	-0.55455674033576	11.569060233490
1.8020894516127	-0.54766871212506	11.723639899095
1.8225677408356	-0.53994257144752	11.878079049168
1.8430460300585	-0.53138702006960	12.032348827416
1.8635243192813	-0.52201189296422	12.186420828316
1.8840026085042	-0.51182813825399	12.340267142350
1.9044808977271	-0.50084779535354	12.493860400383
1.9249591869499	-0.48908397134306	12.647173817121
1.9454374761728	-0.47655081561682	12.800181233571
1.9659157653957	-0.46326349284274	12.952857158437
1.9863940546186	-0.44923815427939	13.105176808389
2.0068723438414	-0.43449190749585	13.257116147135
2.0273506330643	-0.41904278454342	13.408651923230
2.0478289222872	-0.40290970863245	13.559761706567
2.0683072115100	-0.38611245936490	13.710423923488
2.0887855007329	-0.36867163658194	13.860617890456
2.1092637899558	-0.35060862288532	14.010323846234
2.1297420791787	-0.33194554488969	14.159522982523
2.1502203684015	-0.31270523327395	14.308197472997
2.1706986576244	-0.29291118169266	14.456330500700
2.1911769468473	-0.27258750461520	14.603906283756
2.2116552360701	-0.25175889416337	14.750910099347
2.2321335252930	-0.23045057601430	14.897328305922
2.2526118145159	-0.20868826444266	15.043148363595
2.2730901037388	-0.18649811657570	15.188358852710
2.2935683929616	-0.16390668593401	15.332949490533
2.3140466821845	-0.14094087533618	15.476911146037
2.3345249714074	-0.11762788924142	15.620235852779
2.3550032606302	-0.093995185611312	15.762916819812
2.3754815498531	-0.070070427366615	15.904948440651
2.3959598390760	-0.045881433520480	16.046326300248
2.4164381282989	-0.021456130067996	16.187047179980
2.4369164175217	0.0031774992887217	16.327109060635
2.4573947067446	0.027991462497285	16.466511123391
2.4778729959675	0.052957808513024	16.605253748788
2.4983512851903	0.078048676577275	16.743338513692
2.5188295744132	0.10323634533459	16.880768186253
2.5393078636361	0.12849328170769	17.017546718866
2.5597861528590	0.15379218944936	17.153679239151
2.5802644420818	0.17910605729128	17.289172038953
2.6007427313047	0.20440820661012	17.424032561392
2.6212210205276	0.22967233853117	17.558269385979
2.6416993097505	0.25487258039223	17.691892211817
2.6621775989733	0.27998353148969	17.824911838919
2.6826558881962	0.30498030803176	17.957340147671
2.7031341774191	0.32983858722164	18.089190076470
2.7236124666419	0.35453465040008	18.220475597583
2.7440907558648	0.37904542517226	18.351211691250
2.7645690450877	0.40334852645044	18.481414318083
2.7850473343106	0.42742229634192	18.611100389810
2.8055256235334	0.45124584281603	18.740287738393
2.8260039127563	0.47479907708481	18.868995083597
2.8464822019792	0.49806274963396	18.997241999033
2.8669604912020	0.52101848484308	19.125048876754
2.8874387804249	0.54364881413581	19.252436890450
2.9079170696478	0.56593720760463	19.379427957305
2.9283953588707	0.58786810405488	19.506044698579
2.9488736480935	0.60942693941699	19.632310398973
2.9693519373164	0.63060017347786	19.758248964860
2.9898302265393	0.65137531488501	19.883884881428
3.0103085157621	0.67174094438048	20.009243168827
3.0307868049850	0.69168673622291	20.134349337379
3.0512650942079	0.71120347776092	20.259229341925
3.0717433834308	0.73028308712194	20.383909535395
3.0922216726536	0.74891862898675	20.508416621667
3.1126999618765	0.76710432841852	20.632777607799
3.1331782510994	0.78483558272314	20.757019755709
3.1536565403222	0.80210897131730	20.881170533389
3.1741348295451	0.81892226358585	21.005257565732
3.1946131187680	0.83527442471296	21.129308585046
3.2150914079909	0.85116561947380	21.253351381360
3.2355696972137	0.86659721397919	21.377413752573
3.2560479864366	0.88157177536622	21.501523454561
3.2765262756595	0.89609306943334	21.625708151306
3.2970045648823	0.91016605622091	21.749995365136
3.3174828541052	0.92379688354190	21.874412427166
3.3379611433281	0.93699287847062	21.998986428016
3.3584394325510	0.94976253680091	22.123744168891
3.3789177217738	0.96211551048828	22.248712113111
3.3993960109967	0.97406259309515	22.373916338168
3.4198743002196	0.98561570325948	22.499382488397
3.4403525894424	0.99678786621234	22.625135728332
3.4608308786653	1.0075931933728	22.751200696844
3.4813091678882	1.0180468600510	22.877601462120
3.5017874571111	1.0281650812943	23.004361477577
3.5222657463339	1.0379650859141	23.131503538779
3.5427440355568	1.0474650887356	23.259049741433
3.5632223247797	1.0566842611118	23.387021440534
3.5837006140025	1.0656426997516	23.515439210742
3.6041789032254	1.0743613939102	23.644322808045
3.6246571924483	1.0828621909947	23.773691132784
3.6451354816712	1.0911677606414	23.903562194111
3.6656137708940	1.0993015573219	24.033953075922
3.6860920601169	1.1072877815394	24.164879904357
3.7065703493398	1.1151513396785	24.296357816894
3.7270486385627	1.1229178025741	24.428400933114
3.7475269277855	1.1306133628676	24.561022327186
3.7680052170084	1.1382647912203	24.694234002107
3.7884835062313	1.1458993914573	24.828046865775
3.8089617954541	1.1535449547144	24.962470708904
3.8294400846770	1.1612297126664	25.097514184854
3.8499183738999	1.1689822899134	25.233184791392
3.8703966631228	1.1768316556040	25.369488854432
3.8908749523456	1.1848070743790	25.506431513779
3.9113532415685	1.1929380567148	25.644016710915
3.9318315307914	1.2012543087524	25.782247178843
3.9523098200142	1.2097856816964	25.921124434009
3.9727881092371	1.2185621208684	26.060648770337
3.9932663984600	1.2276136145030	26.200819255375
4.0137446876829	1.2369701423724	26.341633728571
4.0342229769057	1.2466616243281	26.483088801684
4.0547012661286	1.2567178688474	26.625179861342
4.0751795553515	1.2671685216730	26.767901073739
4.0956578445743	1.2780430146347	26.911245391470
4.1161361337972	1.2893705147407	27.055204562503
4.1366144230201	1.3011798736286	27.199769141272
4.1570927122430	1.3134995774611	27.344928501881
4.1775710014658	1.3263576973570	27.490670853402
4.1980492906887	1.3397818404418	27.636983257239
4.2185275799116	1.3537991016054	27.783851646546
4.2390058691344	1.3684360160516	27.931260847661
4.2594841583573	1.3837185127228	28.079194603530
4.2799624475802	1.3996718686837	28.227635599082
4.3004407368031	1.4163206645449	28.376565488517
4.3209190260259	1.4336887410064	28.525964924473
4.3413973152488	1.4517991565993	28.675813589017
4.3618756044717	1.4706741467025	28.826090226416
4.3823538936945	1.4903350839087	28.976772677634
4.4028321829174	1.5108024398124	29.127837916509
4.4233104721403	1.5320957482907	29.279262087540
4.4437887613632	1.5542335703444	29.431020545229
4.4642670505860	1.5772334605657	29.583087894923
4.4847453398089	1.6011119352951	29.735438035071
4.5052236290318	1.6258844425287	29.888044200844
4.5257019182546	1.6515653336333	30.040879009043
4.5461802074775	1.6781678369239	30.193914504207
4.5666584967004	1.7057040331562	30.347122205872
4.5871367859233	1.7341848329825	30.500473156876
4.6076150751461	1.7636199564167	30.653937972641
4.6280933643690	1.7940179143507	30.807486891354
4.6485716535919	1.8253859921617	30.961089824952
4.6690499428147	1.8577302354459	31.114716410835
4.6895282320376	1.8910554379102	31.268336064211
4.7100065212605	1.9253651314509	31.421918030988
4.7304848104834	1.9606615784451	31.575431441124
4.7509630997062	1.9969457662740	31.728845362342
4.7714413889291	2.0342174040986	31.882128854112
4.7919196781520	2.0724749218979	32.035251021823
4.8123979673749	2.1117154717831	32.188181071023
4.8328762565977	2.1519349315910	32.340888361669
4.8533545458206	2.1931279107609	32.493342462255
4.8738328350435	2.2352877584913	32.645513203751
4.8943111242663	2.2784065741724	32.797370733242
4.9147894134892	2.3224752200836	32.948885567178
4.9352677027121	2.3674833363430	33.100028644143
4.9557459919350	2.4134193580917	33.250771377033
4.9762242811578	2.4602705348901	33.401085704578
4.9967025703807	2.5080229523030	33.550944142080
5.0171808596036	2.5566615556422	33.700319831306
5.0376591488264	2.6061701758352	33.849186589421
5.0581374380493	2.6565315573821	33.997518956892
5.0786157272722	2.7077273883604	34.145292244250
5.0990940164951	2.7597383324337	34.292482577652
5.1195723057179	2.8125440628154	34.439066943132
5.1400505949408	2.8661232981369	34.585023229472
5.1605288841637	2.9204538401641	34.730330269604
5.1810071733865	2.9755126133048	34.874967880477
5.2014854626094	3.0312757058433	35.018916901288
5.2219637518323	3.0877184128389	35.162159230030
5.2424420410552	3.1448152806183	35.304677858264
5.2629203302780	3.2025401527912	35.446456904055
5.2833986195009	3.2608662177143	35.587481643006
5.3038769087238	3.3197660573262	35.727738537320
5.3243551979466	3.3792116972729	35.867215262842
5.3448334871695	3.4391746582415	36.005900734007
5.3653117763924	3.4996260084165	36.143785126653
5.3857900656153	3.5605364169709	36.280859898646
5.4062683548381	3.6218762085020	36.417117808267
5.4267466440610	3.6836154183204	36.552552930317
5.4472249332839	3.7457238484969	36.687160669909
5.4677032225067	3.8081711245737	36.820937773898
5.4881815117296	3.8709267528391	36.953882339930
5.5086598009525	3.9339601780698	37.085993823070
5.5291380901754	3.9972408416385	37.217273040002
5.5496163793982	4.0607382398856	37.347722170760
5.5700946686211	4.1244219826530	37.477344757991
5.5905729578440	4.1882618518759	37.606145703731
5.6110512470668	4.2522278601280	37.734131263696
5.6315295362897	4.3162903090176	37.861309039066
5.6520078255126	4.3804198473262	37.987687965787
5.6724861147355	4.4445875287881	38.113278301378
5.6929644039583	4.5087648694029	38.238091609271
5.7134426931812	4.5729239041780	38.362140740677
5.7339209824041	4.6370372431953	38.485439814020
5.7543992716269	4.7010781268992	38.608004191942
5.7748775608498	4.7650204805016	38.729850455927
5.7953558500727	4.8288389674019	38.850996378553
5.8158341392956	4.8925090415221	38.971460893435
5.8363124285184	4.9560069984542	39.091264062873
5.8567907177413	5.0193100253251	39.210427043271
5.8772690069642	5.0823962492786	39.328972048365
5.8977472961871	5.1452447844821	39.446922310318
5.9182255854099	5.2078357775641	39.564302038734
5.9387038746328	5.2701504513906	39.681136377665
5.9591821638557	5.3321711470936	39.797451360655
5.9796604530785	5.3938813642650	39.913273863911
6.0001387423014	5.4552657992315	40.028631557669
6.0206170315243	5.5163103813316	40.143552855815
6.0410953207472	5.5770023071159	40.258066863868
6.0615736099700	5.6373300723965	40.372203325389
6.0820518991929	5.6972835020751	40.485992566904
6.1025301884158	5.7568537776802	40.599465441444
6.1230084776386	5.8160334625513	40.712653270784
6.1434867668615	5.8748165246082	40.825587786473
6.1639650560844	5.9331983566493	40.938301069768
6.1844433453073	5.9911757941255	41.050825490567
6.2049216345301	6.0487471303418	41.163193645431
6.2253999237530	6.1059121290417	41.275438294829
6.2458782129759	6.1626720343343	41.387592299687
6.2663565021987	6.2190295779274	41.499688557370
6.2868347914216	6.2749889836370	41.611759937198
6.3073130806445	6.3305559691449	41.723839215613
6.3277913698674	6.3857377449822	41.835959011119
6.3482696590902	6.4405430107225	41.948151719092
6.3687479483131	6.4949819483705	42.060449446608
6.3892262375360	6.5490662129398	42.172883947371
6.4097045267588	6.6028089202154	42.285486556893
6.4301828159817	6.6562246317037	42.398288128021
6.4506611052046	6.7093293367771	42.511318966946
6.4711393944275	6.7621404320243	42.624608769805
6.4916176836503	6.8146766978237	42.738186560002
6.5120959728732	6.8669582721622	42.852080626357
6.5325742620961	6.9190066217255	42.966318462220
6.5530525513189	6.9708445102925	43.080926705642
6.5735308405418	7.0224959644701	43.195931080751
6.5940091297647	7.0739862368113	43.311356340417
6.6144874189876	7.1253417663624	43.427226210347
6.6349657082104	7.1765901366914	43.543563334703
6.6554439974333	7.2277600314547	43.660389223372
6.6759222866562	7.2788811875626	43.777724200982
6.6964005758790	7.3299843460106	43.895587357777
6.7168788651019	7.3811012004461	44.013996502456
6.7373571543248	7.4322643435471	44.132968117079
6.7578354435477	7.4835072112919	44.252517314139
6.7783137327705	7.5348640252043	44.372657795885
6.7987920219934	7.5863697326620	44.493401816015
6.8192703112163	7.6380599453622	44.614760143795
6.8397486004392	7.6899708760397	44.736742030721
6.8602268896620	7.7421392735387	44.859355179785
6.8807051788849	7.7946023563422	44.982605717436
6.9011834681078	7.8473977446678	45.106498168303
6.9216617573306	7.9005633912393	45.231035432755
6.9421400465535	7.9541375108517	45.356218767362
6.9626183357764	8.0081585088444	45.482047768319
6.9830966249993	8.0626649086051	45.608520357889
7.0035749142221	8.1176952782284	45.735632773917
7.0240532034450	8.1732881564533	45.863379562466
7.0445314926679	8.2294819780098	45.991753573606
7.0650097818907	8.2863149985051	46.120745960411
7.0854880711136	8.3438252189818	46.250346181175
7.1059663603365	8.4020503102824	46.380542004889
7.1264446495594	8.4610275373576	46.511319519995
7.1469229387822	8.5207936836539	46.642663146427
7.1674012280051	8.5813849757215	46.774555650951
7.1878795172280	8.6428370081800	46.906978165822
7.2083578064508	8.7051846691834	47.039910210728
7.2288360956737	8.7684620665250	47.173329718038
7.2493143848966	8.8327024545231	47.307213061334
7.2697926741195	8.8979381618280	47.441535087196
7.2902709633423	8.9642005202919	47.576269150234
7.3107492525652	9.0315197950415	47.711387151318
7.3312275417881	9.0999251158925	47.846859578983
7.3517058310109	9.1694444102455	47.982655553956
7.3721841202338	9.2401043375990	48.118742876764
7.3926624094567	9.3119302258176	48.255088078355
7.4131406986796	9.3849460092876	48.391656473695
7.4336189879024	9.4591741690927	48.528412218250
7.4540972771253	9.5346356753410	48.665318367293
7.4745755663482	9.6113499317692	48.802336937963
7.4950538555710	9.6893347227501	48.939428973979
7.5155321447939	9.7686061628246	49.076554612931
7.5360104340168	9.8491786488785	49.213673156056
7.5564887232397	9.9310648150774	49.350743140384
7.5769670124625	10.014275490674	49.487722413173
7.5974453016854	10.098819660794	49.624568208496
7.6179235909083	10.184704430306	49.761237225898
7.6384018801311	10.271934990874	49.897685710964
7.6588801693540	10.360514591290	50.033869537720
7.6793584585769	10.450444511174	50.169744292693
7.6998367477998	10.541724038128	50.305265360536
7.7203150370226	10.634350448433	50.440388011054
7.7407933262455	10.728318991347	50.575067487506
7.7612716154684	10.823622877092	50.709259096034
7.7817499046912	10.920253268584	50.842918296068
7.8022281939141	11.018199276969	50.976000791563
7.8227064831370	11.117447961013	51.108462622907
7.8431847723599	11.217984330403	51.240260259351
7.8636630615827	11.319791352984	51.371350691786
7.8841413508056	11.422849965983	51.501691525732
7.9046196400285	11.527139091231	51.631241074339
7.9250979292514	11.632635654423	51.759958451274
7.9455762184742	11.739314608413	51.887803663290
7.9660545076971	11.847148960559	52.014737702331
7.9865327969200	11.956109804122	52.140722637000
8.0070110861428	12.066166353707	52.265721703207
8.0274893753657	12.177285984740	52.389699393841
