#Parameters = {offset=1.5024408476923; Conductivity_Mo=17900000; C_1=26.243897880769; C_2=97.94356027968; Conductivity=10000000; Conductivity_MoGr=1000000; Ip=101.39863498211; Pipe_lenght=40; Pipe_r=30; beta=1; cells_wave=20; conductivity_copper=59500000; d=-397.94356027968; half_gap_x=3.7561021192308; half_gap_y=30; half_gap_z=150; mu_copper=0.999994; offset_x=1; offset_y=5; sigma_z=5; teta=15; thcoll=26.243897880769; translate_z=-247.94356027968; wakelength=20000}
#"Frequency / GHz"	"X [Re / Ohm]"	"X [Im / Ohm]"
#-----------------------------------------------
0.0000000000000	7.5485417440151e-13	6.7948526800132
0.0020478289222872	22.359080593854	-0.72348824484122
0.0040956578445743	35.287908431554	-19.764733187911
0.0061434867668615	34.035358328517	-41.626453778111
0.0081913156891487	20.681807131545	-56.909692877772
0.010239144611436	2.6730212158305	-60.184543293311
0.012286973533723	-11.328878999147	-52.322331208626
0.014334802456010	-15.900849217909	-39.375863574460
0.016382631378297	-11.200690678936	-28.853611687936
0.018430460300585	-2.1007414362096	-25.623101090558
0.020478289222872	5.1128507239390	-29.720071258891
0.022526118145159	6.3988607688754	-37.082250091457
0.024573947067446	1.8845824357552	-42.478068230726
0.026621775989733	-4.8458723824969	-42.713016860197
0.028669604912020	-9.3825829764409	-38.225575378343
0.030717433834308	-9.2712462806990	-32.320843273250
0.032765262756595	-5.2681889353987	-28.769519253903
0.034813091678882	-0.48060835021929	-29.407530420936
0.036860920601169	1.8520315309250	-33.206159077558
0.038908749523456	0.42000133074254	-37.234408002131
0.040956578445743	-3.5238061306809	-38.722008204005
0.043004407368031	-7.2205866428798	-36.817471773236
0.045052236290318	-8.3249436608771	-32.954623998471
0.047100065212605	-6.3852638767440	-29.717996858294
0.049147894134892	-2.9733035801406	-29.063846320887
0.051195723057179	-0.49127434084844	-31.096695978016
0.053243551979466	-0.53410536546715	-34.148991989051
0.055291380901754	-2.9052979949551	-36.011783875252
0.057339209824041	-5.8794884216280	-35.428397710697
0.059387038746328	-7.4503920618656	-32.855188942763
0.061434867668615	-6.6770092643193	-30.041288353949
0.063482696590902	-4.2360927391296	-28.783234064923
0.065530525513189	-1.8684361975666	-29.729342278722
0.067578354435477	-1.1548248498080	-32.020636165455
0.069626183357764	-2.4732070685202	-33.954668021153
0.071674012280051	-4.8179673765493	-34.170884835121
0.073721841202338	-6.5513596127639	-32.539676302177
0.075769670124625	-6.5343917835101	-30.180170713543
0.077817499046912	-4.8625701741918	-28.642813161489
0.079865327969200	-2.7366108648785	-28.847034578368
0.081913156891487	-1.5996978701810	-30.496759168314
0.083960985813774	-2.1559350262458	-32.340500798853
0.086008814736061	-3.9334306054777	-33.059806909082
0.088056643658348	-5.6585613419791	-32.159721502293
0.090104472580635	-6.1516643385155	-30.263400904804
0.092152301502923	-5.1180937438216	-28.640569395498
0.094200130425210	-3.3073532210555	-28.321743515455
0.096247959347497	-1.9612585799975	-29.412889843517
0.098295788269784	-1.9538296533747	-31.063517628610
0.10034361719207	-3.2159549287406	-32.081884094680
0.10239144611436	-4.8211388587763	-31.755205887969
0.10443927503665	-5.6473882906250	-30.312680047502
0.10648710395893	-5.1449172046896	-28.732803305379
0.10853493288122	-3.6864724847092	-28.051065518384
0.11058276180351	-2.2794090450162	-28.655657060374
0.11263059072579	-1.8586093491013	-30.048371314877
0.11467841964808	-2.6547360454889	-31.215310928953
0.11672624857037	-4.0631491079577	-31.333890672832
0.11877407749266	-5.0843601623817	-30.324721573903
0.12082190641494	-5.0170685770640	-28.879513850801
0.12286973533723	-3.9246967766128	-27.964267275503
0.12491756425952	-2.5664218896022	-28.152973914331
0.12696539318180	-1.8575488263608	-29.250091307318
0.12901322210409	-2.2414691576674	-30.448763509992
0.13106105102638	-3.4030078404456	-30.899793188882
0.13310887994867	-4.5071472267004	-30.291279962842
0.13515670887095	-4.7841434757923	-29.044271957301
0.13720453779324	-4.0520791101568	-28.003227019867
0.13925236671553	-2.8230392226846	-27.847483587879
0.14130019563781	-1.9331821973044	-28.632942698110
0.14334802456010	-1.9628734999157	-29.772289486394
0.14539585348239	-2.8481701304185	-30.454359035651
0.14744368240468	-3.9429334978887	-30.204090100416
0.14949151132696	-4.4763552528301	-29.197271289032
0.15153934024925	-4.0827256549025	-28.122330195235
0.15358716917154	-3.0400372994761	-27.696040936394
0.15563499809382	-2.0625979039838	-28.173106949539
0.15768282701611	-1.8012792050872	-29.184511501103
0.15973065593840	-2.4004006211272	-30.006203359894
0.16177848486069	-3.4123407544483	-30.063278222430
0.16382631378297	-4.1188689828994	-29.319146228204
0.16587414270526	-4.0291914460194	-28.286778568458
0.16792197162755	-3.2098844164753	-27.663968840839
0.16996980054984	-2.2254434560183	-27.851356707582
0.17201762947212	-1.7397709633064	-28.685615377283
0.17406545839441	-2.0594194779071	-29.564949492916
0.17611328731670	-2.9323770661850	-29.871545561082
0.17816111623898	-3.7338915859260	-29.394876795861
0.18020894516127	-3.9030090251415	-28.466238409853
0.18225677408356	-3.3252246889792	-27.719237981146
0.18430460300585	-2.4006149756334	-27.648851214118
0.18635243192813	-1.7580423332945	-28.275505085742
0.18840026085042	-1.8191455885929	-29.141777568208
0.19044808977271	-2.5140488869257	-29.636488492152
0.19249591869499	-3.3401064007188	-29.416937181033
0.19454374761728	-3.7158835822672	-28.637909935673
0.19659157653957	-3.3814349033137	-27.834790578833
0.19863940546186	-2.5696240419951	-27.548334700156
0.20068723438414	-1.8359858042336	-27.953760221056
0.20273506330643	-1.6709680962010	-28.748267358523
0.20478289222872	-2.1649082703391	-29.368665459149
0.20683072115100	-2.9543210006162	-29.383054308080
0.20887855007329	-3.4805336560410	-28.784426932089
0.21092637899558	-3.3769469679929	-27.986863736294
0.21297420791787	-2.7167343963867	-27.532937320294
0.21502203684015	-1.9538780385292	-27.718799907464
0.21706986576244	-1.6040733692586	-28.395769514365
0.21911769468473	-1.8895370714404	-29.081069168117
0.22116552360701	-2.5921345449277	-29.295711658625
0.22321335252930	-3.2115907329914	-28.893277929034
0.22526118145159	-3.3143626229079	-28.154122460345
0.22730901037388	-2.8300963226393	-27.584797747309
0.22935683929616	-2.0931517553380	-27.565930646665
0.23140466821845	-1.6054441234137	-28.093119729943
0.23345249714074	-1.6885903860305	-28.787031151603
0.23550032606302	-2.2662505882750	-29.160821171428
0.23754815498531	-2.9237681838850	-28.956554901569
0.23959598390760	-3.1991435200487	-28.318323906077
0.24164381282989	-2.9013397400421	-27.686078067271
0.24369164175217	-2.2367827970171	-27.488061727077
0.24573947067446	-1.6605313142084	-27.846695670414
0.24778729959675	-1.5591837190279	-28.499743223065
0.24983512851903	-1.9863189146872	-28.987192586786
0.25188295744132	-2.6313618434342	-28.970860932829
0.25393078636361	-3.0392807063823	-28.464812964888
0.25597861528590	-2.9258673119031	-27.819745479991
0.25802644420818	-2.3702880961686	-27.476214760466
0.26007427313047	-1.7546008299758	-27.660200586188
0.26212210205276	-1.4960168201948	-28.231246343401
0.26416993097504	-1.7593939749001	-28.785063009680
0.26621775989733	-2.3479596341763	-28.935886147384
0.26826558881962	-2.8445052268517	-28.581514459256
0.27031341774191	-2.9019162229641	-27.969054255735
0.27236124666419	-2.4808437917601	-27.519351690445
0.27440907558648	-1.8718988741866	-27.534702753726
0.27645690450877	-1.4905102042111	-27.992726280960
0.27850473343106	-1.5891247425950	-28.566833295703
0.28055256235334	-2.0860190613688	-28.855677758010
0.28260039127563	-2.6266853318413	-28.660499798703
0.28464822019792	-2.8319797200113	-28.118812169023
0.28669604912020	-2.5594410806904	-27.604643326472
0.28874387804249	-1.9977693187472	-27.467523723543
0.29079170696478	-1.5319669886366	-27.792260162913
0.29283953588707	-1.4753882479586	-28.344503607565
0.29488736480935	-1.8550858092700	-28.736803642150
0.29693519373164	-2.3974028625723	-28.697597349653
0.29898302265393	-2.7207803347393	-28.256474236777
0.30103085157621	-2.6000327962135	-27.719417628999
0.30307868049850	-2.1191334491658	-27.454119363506
0.30512650942079	-1.6089406906067	-27.635904908506
0.30717433834308	-1.4158287456411	-28.129752896001
0.30922216726536	-1.6629333775440	-28.587693023048
0.31126999618765	-2.1685063976880	-28.691462001284
0.31331782510994	-2.5753784936216	-28.371281706911
0.31536565403222	-2.5994176058566	-27.850443485637
0.31741348295451	-2.2242229955270	-27.487428014815
0.31946131187680	-1.7087199007323	-27.527099824651
0.32150914079909	-1.4050068102700	-27.933587390054
0.32355696972137	-1.5145174155732	-28.418831463154
0.32560479864366	-1.9512912110959	-28.644467386338
0.32765262756595	-2.4050809143764	-28.455628246671
0.32970045648823	-2.5581275727974	-27.985181855789
0.33174828541052	-2.3042070142812	-27.558333386198
0.33379611433281	-1.8190120268370	-27.465980155506
0.33584394325510	-1.4353547043904	-27.764708966188
0.33789177217738	-1.4117506505973	-28.240882247197
0.33993960109967	-1.7552344979094	-28.561401699641
0.34198743002196	-2.2197852936514	-28.504826260461
0.34403525894424	-2.4791623970452	-28.112542261772
0.34608308786653	-2.3527930256593	-27.656849095035
0.34813091678882	-1.9283622784271	-27.450311624258
0.35017874571111	-1.4979456459973	-27.629800377201
0.35222657463339	-1.3540791279378	-28.064379255516
0.35427440355568	-1.5880969464920	-28.448953850670
0.35632223247797	-2.0297030942381	-28.516786605929
0.35837006140025	-2.3676525060993	-28.222902689398
0.36041789032254	-2.3660891070606	-27.772328489578
0.36246571924483	-2.0262201685010	-27.475629893879
0.36451354816712	-1.5825525284586	-27.533477959316
0.36656137708940	-1.3383268838821	-27.899636237421
0.36860920601169	-1.4555799182832	-28.315865781968
0.37065703493398	-1.8451300887215	-28.492581071621
0.37270486385627	-2.2311233832372	-28.308925624993
0.37475269277855	-2.3435205455061	-27.894079402195
0.37680052170084	-2.1042578293249	-27.535165785543
0.37884835062313	-1.6787888861426	-27.477342042712
0.38089617954541	-1.3590732933181	-27.755215037480
0.38294400846770	-1.3607077263505	-28.171466683172
0.38499183738999	-1.6751208154139	-28.435687275095
0.38703966631228	-2.0781174985123	-28.365781594547
0.38908749523456	-2.2870456286427	-28.012308018268
0.39113532415685	-2.1564504363404	-27.620893967312
0.39318315307914	-1.7768213766271	-27.460534311277
0.39523098200142	-1.4094436233625	-27.637757068965
0.39727881092371	-1.3041824994396	-28.025002206594
0.39932663984600	-1.5272366532874	-28.351304807907
0.40137446876829	-1.9175639247191	-28.390870638337
0.40342229769057	-2.2005719384636	-28.118342192897
0.40547012661286	-2.1788573484038	-27.724022235428
0.40751795553515	-1.8675352702195	-27.480136658087
0.40956578445743	-1.4814194988333	-27.552080625948
0.41161361337972	-1.2845613269043	-27.885491191575
0.41366144230201	-1.4074962200671	-28.246212052071
0.41570927122430	-1.7586519519830	-28.383872690468
0.41775710014658	-2.0900006149602	-28.204842002419
0.41980492906887	-2.1699484288875	-27.835112652234
0.42185275799116	-1.9429822801037	-27.530936135174
0.42390058691344	-1.5660531961545	-27.500545941167
0.42594841583573	-1.2979366956223	-27.760965622833
0.42799624475802	-1.3195233788169	-28.128336345212
0.43004407368031	-1.6098101516224	-28.346990527663
0.43209190260259	-1.9625734894618	-28.266692971016
0.43413973152488	-2.1307024633102	-27.945205948091
0.43618756044717	-1.9972059047568	-27.606191220909
0.43823538936945	-1.6545794895651	-27.483051826173
0.44028321829174	-1.3387286137289	-27.657712264796
0.44233104721403	-1.2646004602047	-28.005670771224
0.44437887613632	-1.4780215170955	-28.284126964774
0.44642670505860	-1.8258425485331	-28.300843356512
0.44847453398089	-2.0637560216322	-28.046327719732
0.45052236290318	-2.0259154999481	-27.698473262262
0.45257019182546	-1.7386175200758	-27.497785326979
0.45461802074775	-1.4001474754140	-27.580679405865
0.45666584967004	-1.2420918277054	-27.886372110594
0.45871367859233	-1.3690913719188	-28.200886035439
0.46076150751461	-1.6878941347547	-28.306374021743
0.46280933643690	-1.9737748999756	-28.131582854646
0.46485716535919	-2.0270557743572	-27.799556917791
0.46690499428147	-1.8107358355365	-27.540692329494
0.46895282320376	-1.4743904120570	-27.532545928824
0.47100065212605	-1.2489902909092	-27.777754338422
0.47304848104834	-1.2865749182509	-28.103977672113
0.47509630997062	-1.5560471622515	-28.284677556520
0.47714413889291	-1.8664856925196	-28.196111876421
0.47919196781520	-2.0005993257975	-27.901767152384
0.48123979673749	-1.8650615167098	-27.606644657951
0.48328762565977	-1.5537348198570	-27.514265953911
0.48533545458206	-1.2809853920729	-27.686118716949
0.48738328350435	-1.2324287262906	-28.000591264706
0.48943111242663	-1.4370049467740	-28.238776425201
0.49147894134892	-1.7485282234775	-28.236634047610
0.49352677027121	-1.9483800383044	-27.997763823343
0.49557459919350	-1.8972301665062	-27.689280655781
0.49762242811578	-1.6305097167837	-27.524781934080
0.49967025703807	-1.3322363345113	-27.616344419925
0.50171808596036	-1.2064522627048	-27.898085426280
0.50376591488264	-1.3360731715718	-28.173397721199
0.50581374380493	-1.6267750726919	-28.252035242076
0.50786157272722	-1.8738641366960	-28.081485093679
0.50990940164951	-1.9047536372913	-27.781925826697
0.51195723057179	-1.6978953877992	-27.561544454421
0.51400505949408	-1.3962258936401	-27.571858398941
0.51605288841637	-1.2068421683330	-27.803567930929
0.51810071733865	-1.2573007625659	-28.094508659137
0.52014854626094	-1.5082348289908	-28.243147735326
0.52219637518323	-1.7821319719756	-28.148209490781
0.52424420410552	-1.8872945006796	-27.877711516535
0.52629203302780	-1.7504365249540	-27.620373889496
0.52833986195009	-1.4662162631908	-27.554079136492
0.53038769087238	-1.2302542540152	-27.723050982508
0.53243551979466	-1.2030089087729	-28.008540199089
0.53448334871695	-1.3992171071511	-28.212403956202
0.53653117763924	-1.6790625938949	-28.194774643159
0.53857900656153	-1.8462331206297	-27.970181576437
0.54062683548381	-1.7841151706497	-27.696083363245
0.54267466440610	-1.5356536333287	-27.562727659973
0.54472249332839	-1.2722040896843	-27.661362838319
0.54677032225067	-1.1739226667289	-27.922080083162
0.54881815117296	-1.3051685739141	-28.163607185787
0.55086598009525	-1.5710788580087	-28.219617048595
0.55291380901754	-1.7845890134206	-28.053555051933
0.55496163793982	-1.7965725025502	-27.782724697874
0.55700946686211	-1.5985761321254	-27.595807377435
0.55905729578440	-1.3273888447068	-27.621791437141
0.56110512470668	-1.1691728457675	-27.841347685837
0.56315295362897	-1.2303299832959	-28.101528586826
0.56520078255126	-1.4646656629120	-28.222700925332
0.56724861147355	-1.7066937268769	-28.122965668548
0.56929644039583	-1.7871087667600	-27.873899857728
0.57134426931812	-1.6498664544641	-27.649700386671
0.57339209824041	-1.3899190724129	-27.605837553100
0.57543992716269	-1.1862248847661	-27.771735158153
0.57748775608498	-1.1772744032566	-28.031546853047
0.57953558500727	-1.3656980801860	-28.205538426304
0.58158341392956	-1.6176493387510	-28.174921411495
0.58363124285184	-1.7565531586288	-27.963446974678
0.58567907177413	-1.6855718188566	-27.719727236608
0.58772690069642	-1.4538613999484	-27.613379773343
0.58977472961871	-1.2213008143948	-27.717559409733
0.59182255854099	-1.1469699779412	-27.959218423856
0.59387038746328	-1.2791554393498	-28.170895900658
0.59591821638557	-1.5229274243520	-28.207339978170
0.59796604530785	-1.7070325594925	-28.045756538866
0.60001387423014	-1.7029830042794	-27.800505400010
0.60206170315243	-1.5135379529906	-27.642823970209
0.60410953207472	-1.2696557728351	-27.681914102274
0.60615736099700	-1.1388161691549	-27.889959184569
0.60820518991929	-1.2088776853820	-28.122546745603
0.61025301884158	-1.4280018056616	-28.219550581158
0.61230084776386	-1.6417086828560	-28.116011698680
0.61434867668615	-1.7006024638655	-27.886247103923
0.61639650560844	-1.5636559049788	-27.691252738938
0.61844433453073	-1.3256576228870	-27.666606022120
0.62049216345301	-1.1504862535424	-27.828908023187
0.62253999237530	-1.1571664067441	-28.065317337994
0.62458782129759	-1.3379207679319	-28.212707284306
0.62663565021987	-1.5646289463075	-28.170932295648
0.62868347914216	-1.6784752289062	-27.971567061084
0.63073130806445	-1.6000692864891	-27.754947345193
0.63277913698674	-1.3836922568610	-27.672169711493
0.63482696590902	-1.1786152187587	-27.780475519589
0.63687479483131	-1.1250319607448	-28.004444721813
0.63892262375360	-1.2571480260580	-28.189290977040
0.64097045267588	-1.4804084637630	-28.208614870612
0.64301828159817	-1.6379963892876	-28.051613577646
0.64506611052046	-1.6198492147583	-27.829585201718
0.64711393944275	-1.4384151529550	-27.697902798156
0.64916176836503	-1.2190152149867	-27.748146639656
0.65120959728732	-1.1121909795237	-27.945274012258
0.65325742620961	-1.1893329386096	-28.152922868001
0.65530525513189	-1.3939432082068	-28.228609055413
0.65735308405418	-1.5817928969897	-28.122368505539
0.65940091297647	-1.6214512284866	-27.910562245267
0.66144874189876	-1.4851260607194	-27.741989584160
0.66349657082104	-1.2670377756050	-27.734321718994
0.66554439974333	-1.1172102486795	-27.892931157434
0.66759222866562	-1.1371919382817	-28.108101688333
0.66964005758790	-1.3101819627061	-28.231904596375
0.67168788651019	-1.5136325923367	-28.180886487168
0.67373571543248	-1.6049298512143	-27.993293261759
0.67578354435477	-1.5202578976476	-27.801601029146
0.67783137327705	-1.3181185963862	-27.740057724806
0.67987920219934	-1.1378397205111	-27.851755522625
0.68192703112163	-1.1024823408587	-28.059552768530
0.68397486004391	-1.2337999159015	-28.220449988106
0.68602268896620	-1.4380101886873	-28.225104976006
0.68807051788849	-1.5716517312311	-28.073240850085
0.69011834681078	-1.5412910947324	-27.872948348337
0.69216617573306	-1.3677907577361	-27.764982804275
0.69421400465535	-1.1709390519292	-27.825064825220
0.69626183357764	-1.0857258088520	-28.011991303343
0.69830966249993	-1.1687724459167	-28.197105643464
0.70035749142221	-1.3597692526886	-28.254070093447
0.70240532034450	-1.5241721126398	-28.146308346569
0.70445314926679	-1.5469467898472	-27.951602614450
0.70650097818907	-1.4120519987046	-27.807321816156
0.70854880711136	-1.2127488553225	-27.814836901892
0.71059663603365	-1.0861536896218	-27.969626086913
0.71264446495594	-1.1179524345362	-28.165255284593
0.71469229387822	-1.2834867288346	-28.267887123858
0.71674012280051	-1.4657115056164	-28.209167314082
0.71878795172280	-1.5369771463896	-28.033028436046
0.72083578064508	-1.4475013500629	-27.864371364592
0.72288360956737	-1.2592178996618	-27.821931844796
0.72493143848966	-1.1019986894748	-27.936110301092
0.72697926741195	-1.0831798169301	-28.128624239065
0.72902709633423	-1.2134125161255	-28.267582604093
0.73107492525652	-1.4000564555398	-28.259246028703
0.73312275417881	-1.5121555106032	-28.112638453437
0.73517058310109	-1.4714327469641	-27.932480382800
0.73721841202338	-1.3060818481431	-27.845904447661
0.73926624094567	-1.1303955599031	-27.914229498627
0.74131406986796	-1.0649250619081	-28.091013612730
0.74336189879024	-1.1529355904233	-28.255073127735
0.74540972771253	-1.3310507050815	-28.295008252804
0.74745755663482	-1.4739914173916	-28.186285736033
0.74950538555710	-1.4818398489990	-28.007546435629
0.75155321447939	-1.3490496828002	-27.885319179709
0.75360104340168	-1.1675445155221	-27.905997634634
0.75564887232397	-1.0622740381468	-28.056309759026
0.75769670124625	-1.1043974629913	-28.233294564748
0.75974453016854	-1.2624095424640	-28.316331841642
