#Parameters = {C_1=13.5; C_2=50.38268590218; Conductivity_W=18000000; Ip=52.15999461961; Pipe_lenght=40; Pipe_r=30; beta=1; cells_wave=20; conductivity_copper=59500000; d=-150.38268590218; half_gap_x=16.5; half_gap_y=30; half_gap_z=50; mu_copper=0.999994; offset=6.6; offset_x=1; offset_y=5; sigma_z=5; teta=15; thcoll=13.5; translate_z=-100.38268590218; wakelength=20000}
#"Frequency / GHz"	"X [Re / Ohm]"	"X [Im / Ohm]"
#-----------------------------------------------
0.0000000000000	2.1978783646515e-12	59.243561812066
0.0020478289222872	31.954972889932	48.615435467671
0.0040956578445743	50.596237627122	21.688347224253
0.0061434867668615	49.208386216824	-9.2572309532574
0.0081913156891487	30.713661279029	-30.949753554195
0.010239144611436	5.6121003236770	-35.708121043836
0.012286973533723	-13.864344514570	-24.740157536213
0.014334802456010	-20.039126590547	-6.5765293338448
0.016382631378297	-13.108100152655	8.1762922323506
0.018430460300585	0.064621075740395	12.619442921195
0.020478289222872	10.592868185384	6.6702010985986
0.022526118145159	12.736515027508	-3.9516749488360
0.024573947067446	6.6369134087288	-11.844956423356
0.026621775989733	-2.6630784374443	-12.459438555022
0.028669604912020	-8.9205542688497	-6.3724587218948
0.030717433834308	-8.6283451539424	1.7666467033021
0.032765262756595	-2.8133547529703	6.6148254599260
0.034813091678882	4.1501762720660	5.5364815266986
0.036860920601169	7.6637076975223	-0.054651940983701
0.038908749523456	5.8313601430987	-6.0273472867200
0.040956578445743	0.38454732519955	-8.4392100215129
0.043004407368031	-4.7840889856851	-6.0380720625747
0.045052236290318	-6.3276222777254	-0.81208158431829
0.047100065212605	-3.5576578731349	3.5880844827667
0.049147894134892	1.3392116132140	4.3618808859974
0.051195723057179	4.9639393733619	1.3122037418236
0.053243551979466	5.0223809871799	-3.2333451398816
0.055291380901754	1.7436256722340	-6.1413691078770
0.057339209824041	-2.4574347130766	-5.5909086391719
0.059387038746328	-4.7269963058228	-2.1788590183818
0.061434867668615	-3.6866772517660	1.6412250196130
0.063482696590902	-0.24685190548882	3.3064319940127
0.065530525513189	3.1447587563029	1.8504319315456
0.067578354435477	4.2246884136733	-1.5548422001303
0.069626183357764	2.4078994184907	-4.5085151087088
0.071674012280051	-0.92159110312217	-5.0524129141606
0.073721841202338	-3.4468040082504	-2.9517663412473
0.075769670124625	-3.5173448451282	0.24414257047644
0.077817499046912	-1.2168942900987	2.3348838122593
0.079865327969200	1.7844511816990	1.9765080713212
0.081913156891487	3.4312028094541	-0.46178401802684
0.083960985813774	2.6808561098872	-3.2313339352539
0.086008814736061	0.15434114602079	-4.4458814640248
0.088056643658348	-2.3609041763129	-3.3559664381314
0.090104472580635	-3.1678869248210	-0.79996694320914
0.092152301502923	-1.7984538070001	1.4328798395766
0.094200130425210	0.72614772925705	1.8505039916014
0.096247959347497	2.6489261186851	0.25109158778583
0.098295788269784	2.6941020975605	-2.1958972244682
0.10034361719207	0.90833597108127	-3.7967166511289
0.10239144611436	-1.4250335718102	-3.4991162088531
0.10443927503665	-2.7032324439059	-1.5778678646346
0.10648710395893	-2.1007300772001	0.60338610487047
0.10853493288122	-0.097880793571360	1.5570706785147
0.11058276180351	1.8938416813759	0.68362730923919
0.11263059072579	2.5226850969582	-1.3553614098235
0.11467841964808	1.4106049408896	-3.1316410407118
0.11672624857037	-0.62533408799254	-3.4462524178538
0.11877407749266	-2.1693623103394	-2.1347824684563
0.12082190641494	-2.1885680156735	-0.14309933552588
0.12286973533723	-0.72113522755510	1.1526414804996
0.12491756425952	1.1854573408115	0.89508702113252
0.12696539318180	2.2193862995770	-0.68887013752054
0.12901322210409	1.7046862829431	-2.4774407792239
0.13106105102638	0.040580187003764	-3.2452114161808
0.13310887994867	-1.6038075107923	-2.4998677446710
0.13515670887095	-2.1086932484098	-0.79449246142065
0.13720453779324	-1.1642467210085	0.68068125851022
0.13925236671553	0.54276309639421	0.92768303153918
0.14130019563781	1.8260958421030	-0.18525866398725
0.14334802456010	1.8226337012050	-1.8591702108685
0.14539585348239	0.57121619123187	-2.9354394142657
0.14744368240468	-1.0393472400199	-2.6956464202952
0.14949151132696	-1.8999161181422	-1.3390515314921
0.15153934024925	-1.4434038198073	0.17852911489251
0.15358716917154	-0.016856584198063	0.81718536433924
0.15563499809382	1.3797864024672	0.16461770992511
0.15768282701611	1.7932812353136	-1.2991001443276
0.15973065593840	0.96647803891129	-2.5524560970956
0.16177848486069	-0.50404913311338	-2.7437977787028
0.16382631378297	-1.5970521739605	-1.7685369726496
0.16587414270526	-1.5747342754797	-0.32182771391405
0.16792197162755	-0.47970531533814	0.59611081874759
0.16996980054984	0.91323779811395	0.37083479570188
0.17201762947212	1.6442774533709	-0.81577584732690
0.17406545839441	1.2290056829092	-2.1288583737435
0.17611328731670	-0.021666133533130	-2.6666946775210
0.17816111623898	-1.2326452915811	-2.0787854690056
0.18020894516127	-1.5760860265058	-0.79281171331858
0.18225677408356	-0.83650683906651	0.29562337174198
0.18430460300585	0.45562033191341	0.44618256767351
0.18635243192813	1.4034298442356	-0.42316280289425
0.18840026085042	1.3654303245129	-1.6945222982358
0.19044808977271	0.38894452109134	-2.4882127638889
0.19249591869499	-0.83714457212673	-2.2705132062385
0.19454374761728	-1.4676678312837	-1.2116399972045
0.19659157653957	-1.0831154668540	-0.054338990909879
0.19863940546186	0.032004354114429	0.40667072278681
0.20068723438414	1.0985689601703	-0.12997880860481
0.20273506330643	1.3866048144967	-1.2759919665018
0.20478289222872	0.71432820657860	-2.2333714047548
0.20683072115100	-0.43831464095250	-2.3493386425238
0.20887855007329	-1.2716385663706	-1.5607160872240
0.21092637899558	-1.2204963273803	-0.42562322838228
0.21297420791787	-0.33702534012427	0.27112259084718
0.21502203684015	0.75699442986746	0.060302049766498
0.21706986576244	1.3072455638957	-0.89609113818557
0.21911769468473	0.94651274313730	-1.9278515054307
0.22116552360701	-0.060798084097292	-2.3256050335947
0.22321335252930	-1.0116949298436	-1.8279590464728
0.22526118145159	-1.2547657669249	-0.79251609224227
0.22730901037388	-0.63600637863170	0.060672190024586
0.22935683929616	0.40453290288726	0.14954666522374
0.23140466821845	1.1452492846828	-0.57314944038570
0.23345249714074	1.0830352394478	-1.5969408693321
0.23550032606302	0.27462102908915	-2.2136715897659
0.23754815498531	-0.71211348301872	-2.0068668852976
0.23959598390760	-1.1966712171619	-1.1324893313081
0.24164381282989	-0.85488712072526	-0.20209300880077
0.24369164175217	0.064635465320969	0.14465802286628
0.24573947067446	0.92081798950691	-0.32046585847490
0.24778729959675	1.1267416594345	-1.2644617958221
0.24983512851903	0.55168202073586	-2.0310063750576
0.25188295744132	-0.39663512538923	-2.0963840047628
0.25393078636361	-1.0607661728445	-1.4269241214708
0.25597861528590	-0.98904198649304	-0.49419973968843
0.25802644420818	-0.24244503948640	0.056920861705977
0.26007427313047	0.65542818669039	-0.14608189203601
0.26212210205276	1.0852941273143	-0.95181683135410
0.26416993097504	0.75905833303816	-1.7971743186443
0.26621775989733	-0.087427622067722	-2.1005430482920
0.26826558881962	-0.86446964218650	-1.6616527992434
0.27031341774191	-1.0390823037752	-0.79333255605840
0.27236124666419	-0.50033025172247	-0.098783253722134
0.27440907558648	0.37080425120741	-0.052729610008492
0.27645690450877	0.97057575937271	-0.67712561615510
0.27850473343106	0.89068279624221	-1.5327873435027
0.28055256235334	0.19599569185786	-2.0280177888164
0.28260039127563	-0.62694859042560	-1.8275090306412
0.28464822019792	-1.0104844589910	-1.0790900328583
0.28669604912020	-0.69718951066466	-0.30514773449109
0.28874387804249	0.087597627218392	-0.038166417186807
0.29079170696478	0.79754885851909	-0.45452117563759
0.29283953588707	0.94547734276098	-1.2582437052043
0.29488736480935	0.43747045598933	-1.8911300017319
0.29693519373164	-0.36800846796557	-1.9201985900719
0.29898302265393	-0.91285540956215	-1.3336868021287
0.30103085157621	-0.82584805571405	-0.54336072630997
0.30307868049850	-0.17538631429053	-0.095575998295033
0.30512650942079	0.58349765794047	-0.29371187288506
0.30717433834308	0.92729153220103	-0.99278372095756
0.30922216726536	0.62498897395619	-1.7051499176575
0.31126999618765	-0.10689554817873	-1.9404734454821
0.31331782510994	-0.75915652016062	-1.5430452926621
0.31536565403222	-0.88401237915989	-0.79451753525769
0.31741348295451	-0.40235220334520	-0.21445768203691
0.31946131187680	0.34660102357563	-0.19982861501986
0.32150914079909	0.84404589794522	-0.75345109032956
0.32355696972137	0.75084574968424	-1.4870896293020
0.32560479864366	0.13860012822730	-1.8935396436513
0.32765262756595	-0.56479474229179	-1.6971315517377
0.32970045648823	-0.87405172809460	-1.0405296641432
0.33174828541052	-0.58116104969107	-0.38135484785942
0.33379611433281	0.10488587865691	-0.17336320598701
0.33584394325510	0.70704889002478	-0.55421037997834
0.33789177217738	0.81183190808190	-1.2545684510944
0.33993960109967	0.35311114709654	-1.7884347346306
0.34198743002196	-0.34654033703872	-1.7902617098207
0.34403525894424	-0.80254879196801	-1.2651310618608
0.34608308786653	-0.70383090360720	-0.58083970109179
0.34813091678882	-0.12488482650275	-0.21041707886309
0.35017874571111	0.53003508857477	-0.40524573074758
0.35222657463339	0.80908332636738	-1.0245931475065
0.35427440355568	0.52445824483654	-1.6370639709328
0.35632223247797	-0.12135188930852	-1.8209754698694
0.35837006140025	-0.67947473945392	-1.4545828312607
0.36041789032254	-0.76654028535900	-0.79647628922331
0.36246571924483	-0.32791354916900	-0.30319922295401
0.36451354816712	0.32840018718768	-0.31263639353162
0.36656137708940	0.74793044856274	-0.81267319876278
0.36860920601169	0.64434749861203	-1.4534501903898
0.37065703493398	0.094780057961928	-1.7920541604401
0.37270486385627	-0.51731969211511	-1.5985775986187
0.37475269277855	-0.76963253583307	-1.0121183682791
0.37680052170084	-0.49226464983847	-0.44094392814081
0.37884835062313	0.11798039032812	-0.27836602840472
0.38089617954541	0.63712189420433	-0.63199541903407
0.38294400846770	0.70848609202984	-1.2526913102074
0.38499183738999	0.28767361293414	-1.7099927633043
0.38703966631228	-0.33017811911473	-1.6905713279484
0.38908749523456	-0.71730001358205	-1.2128350702343
0.39113532415685	-0.60937502449266	-0.61075554416375
0.39318315307914	-0.085918727748759	-0.30048554284475
0.39523098200142	0.48808324012688	-0.49280038891783
0.39727881092371	0.71659266616783	-1.0500109174550
0.39932663984600	0.44570044869381	-1.5844203324471
0.40137446876829	-0.13281321165720	-1.7280105276383
0.40342229769057	-0.61714558130702	-1.3858127906954
0.40547012661286	-0.67446059692598	-0.79857376989054
0.40751795553515	-0.26953593736135	-0.37347726059143
0.40956578445743	0.31395593260421	-0.40189106083991
0.41161361337972	0.67211300822278	-0.85974423954514
0.41366144230201	0.56033451962273	-1.4272522546773
0.41570927122430	0.060306984077853	-1.7122180894081
0.41775710014658	-0.47950366585727	-1.5210291336679
0.41980492906887	-0.68661929156593	-0.99014354468572
0.42185275799116	-0.42149207684302	-0.48882613232285
0.42390058691344	0.12857796009840	-0.36238903297911
0.42594841583573	0.58169085258512	-0.69442479698954
0.42799624475802	0.62643862072089	-1.2517055525798
0.43004407368031	0.23587245396008	-1.6479675536188
0.43209190260259	-0.31662945611787	-1.6116108526017
0.43413973152488	-0.64864518550179	-1.1718257787564
0.43618756044717	-0.53334558418204	-0.63563593289342
0.43823538936945	-0.054394725429398	-0.37365061565628
0.44028321829174	0.45462300465978	-0.56399237570994
0.44233104721403	0.64248665662536	-1.0712944845176
0.44437887613632	0.38262669271307	-1.5429197344064
0.44642670505860	-0.14168676777094	-1.6540675141982
0.44847453398089	-0.56653210970104	-1.3314400628335
0.45052236290318	-0.59988192638182	-0.80148147960507
0.45257019182546	-0.22228652825619	-0.43153512295092
0.45461802074775	0.30218044617214	-0.47530139420574
0.45666584967004	0.61054574592273	-0.89894011816248
0.45871367859233	0.49208929598087	-1.4069786817998
0.46076150751461	0.032279446563361	-1.6483751741882
0.46280933643690	-0.44878839283336	-1.4590624311151
0.46485716535919	-0.61918235107934	-0.97342580338098
0.46690499428147	-0.36412181331555	-0.52901176864673
0.46895282320376	0.13677627667638	-0.43198809378052
0.47100065212605	0.53592534190233	-0.74629055365750
0.47304848104834	0.55892152291916	-1.2516366883816
0.47509630997062	0.19314238671406	-1.5978917885257
0.47714413889291	-0.30580154957674	-1.5476476985315
0.47919196781520	-0.59264400960478	-1.1389823792574
0.48123979673749	-0.47134116123061	-0.65684887285224
0.48328762565977	-0.029008269769900	-0.43445592804061
0.48533545458206	0.42655730563960	-0.62305312339822
0.48738328350435	0.58102038280662	-1.0891482891493
0.48943111242663	0.33036131358624	-1.5089664127737
0.49147894134892	-0.14913658301659	-1.5933527986978
0.49352677027121	-0.52480679594551	-1.2869243737928
0.49557459919350	-0.53834998893220	-0.80433367262825
0.49762242811578	-0.18338461790223	-0.47998337707519
0.49967025703807	0.29222046844631	-0.53638172579123
0.50171808596036	0.55940149139946	-0.93157557475831
0.50376591488264	0.43554782800411	-1.3902441515626
0.50581374380493	0.0092798652685092	-1.5955111581010
0.50786157272722	-0.42287510749979	-1.4078685171549
0.50990940164951	-0.56271072707749	-0.95998636236000
0.51195723057179	-0.31607170840475	-0.56300965232998
0.51400505949408	0.14382084663239	-0.49048762829835
0.51605288841637	0.49799482626201	-0.78995911157164
0.51810071733865	0.50293400351802	-1.2519456498465
0.52014854626094	0.15798307552080	-1.5564960376611
0.52219637518323	-0.29610805770277	-1.4947898415137
0.52424420410552	-0.54517056968598	-1.1123363737485
0.52629203302780	-0.41894294968637	-0.67559418222321
0.52833986195009	-0.0074241451703856	-0.48641519548511
0.53038769087238	0.40323375930848	-0.67350757029131
0.53243551979466	0.52967068889915	-1.1049650906277
0.53448334871695	0.28680840216195	-1.4812781643391
0.53653117763924	-0.15496188927375	-1.5432716018522
0.53857900656153	-0.48929337077915	-1.2506272552067
0.54062683548381	-0.48629585616331	-0.80804400467885
0.54267466440610	-0.15058631810631	-0.52214081373046
0.54472249332839	0.28366197589192	-0.58911375914482
0.54677032225067	0.51602943994557	-0.96018076228540
0.54881815117296	0.38764972584685	-1.3770732113262
0.55086598009525	-0.010215779760853	-1.5518155348958
0.55291380901754	-0.40100847687806	-1.3656689942407
0.55496163793982	-0.51508846279130	-0.94982142956325
0.55700946686211	-0.27575954278394	-0.59301711249883
0.55905729578440	0.14921704923959	-0.54113922212233
0.56110512470668	0.46518200379648	-0.82783619239792
0.56315295362897	0.45485217590872	-1.2528445636082
0.56520078255126	0.12771385122261	-1.5218930044596
0.56724861147355	-0.28816179857733	-1.4504704616047
0.56929644039583	-0.50509520792731	-1.0903772435413
0.57134426931812	-0.37477106223575	-0.69228052248200
0.57339209824041	0.010394308332385	-0.53129084219500
0.57543992716269	0.38275026834951	-0.71691251609263
0.57748775608498	0.48538433631506	-1.1186396528661
0.57953558500727	0.24936698343005	-1.4577276324649
0.58158341392956	-0.15999650590880	-1.5006292005036
0.58363124285184	-0.45890652381851	-1.2198761300992
0.58567907177413	-0.44178420253579	-0.81159789693369
0.58772690069642	-0.12262487671379	-0.55858824524300
0.58977472961871	0.27618615353760	-0.63450635989238
0.59182255854099	0.47881748897085	-0.98476271041501
0.59387038746328	0.34675627728860	-1.3657736488374
0.59591821638557	-0.026523679586672	-1.5143988560551
0.59796604530785	-0.38167353862656	-1.3297161377954
0.60001387423014	-0.47362734466940	-0.94158035646270
0.60206170315243	-0.24067409502247	-0.61941567983698
0.60410953207472	0.15418459071380	-0.58528414878513
0.60615736099700	0.43727414966890	-0.86091207490139
0.60820518991929	0.41391601604706	-1.2540395212464
0.61025301884158	0.10229093134161	-1.4925784661498
0.61230084776386	-0.28053464942108	-1.4129798433350
0.61434867668615	-0.46978529684715	-1.0724165103368
0.61639650560844	-0.33608349836569	-0.70784793334639
0.61844433453073	0.026128040723094	-0.57124125436279
0.62049216345301	0.36526317728454	-0.75551985681364
0.62253999237530	0.44731625106511	-1.1314552077009
0.62458782129759	0.21730299212700	-1.4383397998160
0.62663565021987	-0.16394644897806	-1.4648376960315
0.62868347914216	-0.43222961396315	-1.1945713429942
0.63073130806445	-0.40305139472539	-0.81616474621495
0.63277913698674	-0.098488554116215	-0.59168799424869
0.63482696590902	0.26938363934140	-0.67524249920149
0.63687479483131	0.44613677025370	-1.0072563496936
0.63892262375360	0.31093014909284	-1.3569829172589
0.64097045267588	-0.040905799387203	-1.4829129573011
0.64301828159817	-0.36506565857161	-1.2995963287047
0.64506611052046	-0.43789845422426	-0.93565398081742
0.64711393944275	-0.21070295332427	-0.64361596430858
0.64916176836503	0.15774673231310	-0.62477312592080
0.65120959728732	0.41213606455337	-0.89050910013734
0.65325742620961	0.37750913059607	-1.2556284456633
0.65530525513189	0.079576072092578	-1.4674619952675
0.65735308405418	-0.27428761579017	-1.3807587257580
0.65940091297647	-0.43936441718061	-1.0573196540132
0.66144874189876	-0.30281038605089	-0.72204372606771
0.66349657082104	0.039233810542878	-0.60662272118016
0.66554439974333	0.34931496924402	-0.78950640455751
0.66759222866562	0.41350554415644	-1.1426669539762
0.66964005758790	0.18898938686488	-1.4212695032058
0.67168788651019	-0.16741175618521	-1.4334572502822
0.67373571543248	-0.40874564644925	-1.1725215244567
0.67578354435477	-0.36901476636282	-0.82041583522272
0.67783137327705	-0.077324544586088	-0.62096467056945
0.67987920219934	0.26338817626328	-0.71110840396333
0.68192703112163	0.41754385814445	-1.0269723430042
0.68397486004391	0.27980754168973	-1.3491778432059
0.68602268896620	-0.052941025850745	-1.4552735743273
0.68807051788849	-0.34971479649286	-1.2733829382979
0.69011834681078	-0.40573899026041	-0.93095294379182
0.69216617573306	-0.18372111419499	-0.66555912291973
0.69421400465535	0.16137793648095	-0.66017843517146
0.69626183357764	0.39049399732821	-0.91713658647935
0.69830966249993	0.34606147199482	-1.2575573160659
0.70035749142221	0.060362460574701	-1.4459605801061
0.70240532034450	-0.26787252761015	-1.3532290821489
0.70445314926679	-0.41168651118229	-1.0451694312225
0.70650097818907	-0.27281339558623	-0.73593461157999
0.70854880711136	0.051192315931245	-0.63925695734422
0.71059663603365	0.33546013091852	-0.82082703942861
0.71264446495594	0.38385022506109	-1.1537684504966
0.71469229387822	0.16426431253374	-1.4073706444959
0.71674012280051	-0.17011697343039	-1.4070336592238
0.71878795172280	-0.38768937820852	-1.1545484510920
0.72083578064508	-0.33884246467643	-0.82586159009087
0.72288360956737	-0.058836627043336	-0.64856134551427
0.72493143848966	0.25759302159724	-0.74438418927799
0.72697926741195	0.39164308365659	-1.0457204186032
0.72902709633423	0.25171453747116	-1.3433745738958
0.73107492525652	-0.064024142237692	-1.4318575318576
0.73312275417881	-0.33650268442159	-1.2513093651589
0.73517058310109	-0.37774497676481	-0.92804104424654
0.73721841202338	-0.16054495671232	-0.68625342627748
0.73926624094567	0.16362698806370	-0.69262537897710
0.74131406986796	0.37023971450894	-0.94149190432081
0.74336189879024	0.31720533667756	-1.2597029877042
0.74540972771253	0.042581810306756	-1.4271507281124
0.74745755663482	-0.26269971205946	-1.3290761462706
0.74950538555710	-0.38756223421097	-1.0347728993901
0.75155321447939	-0.24670639212745	-0.74872111262283
0.75360104340168	0.061143245171417	-0.66859889178886
