#Parameters = {offset=1.6737640984764; C_1=25.815589753809; C_2=96.34509258857; Conductivity_MoGr=1000000; Ip=99.743779456351; Pipe_lenght=40; Pipe_r=30; beta=1; cells_wave=20; d=-346.34509258857; half_gap_x=4.1844102461909; half_gap_y=30; half_gap_z=125; offset_x=1; offset_y=5; sigma_z=5; teta=15; thcoll=25.815589753809; translate_z=-221.34509258857; wakelength=20000}
#"Frequency / GHz"	"X [Re / Ohm]"	"X [Im / Ohm]"
#-----------------------------------------------
0.0000000000000	2.8696634319366e-12	55.872102922020
0.0020478289222872	54.565262527288	37.468880149687
0.0040956578445743	86.043848901214	-9.1430216078931
0.0061434867668615	82.792728430018	-62.664248947284
0.0081913156891487	49.884761312245	-100.07529453990
0.010239144611436	5.5380450362572	-108.05170946666
0.012286973533723	-29.021661219602	-88.687316530510
0.014334802456010	-40.466550712689	-56.781541881899
0.016382631378297	-29.123663044794	-30.741267853549
0.018430460300585	-6.8916489743171	-22.548825868813
0.020478289222872	10.814284269094	-32.365384700485
0.022526118145159	14.027213636280	-50.282366786530
0.024573947067446	2.9788483802867	-63.464697121752
0.026621775989733	-13.592445595541	-64.013209606388
0.028669604912020	-24.856681168710	-52.919640699224
0.030717433834308	-24.719878922678	-38.244235134905
0.032765262756595	-14.950299705812	-29.261421842128
0.034813091678882	-3.1290279116373	-30.559025507670
0.036860920601169	2.7616328408749	-39.703047022903
0.038908749523456	-0.58302874985419	-49.538279346119
0.040956578445743	-10.177928550185	-53.224125649743
0.043004407368031	-19.281294731339	-48.575832337424
0.045052236290318	-22.084919145976	-39.027630695611
0.047100065212605	-17.382060474549	-30.905961407787
0.049147894134892	-8.9524291731896	-29.075702060528
0.051195723057179	-2.6883676188649	-33.895012231630
0.053243551979466	-2.5791293724322	-41.341800911494
0.055291380901754	-8.2458001229340	-45.985473944959
0.057339209824041	-15.515908495271	-44.658087308087
0.059387038746328	-19.443929124617	-38.377662855643
0.061434867668615	-17.629676424262	-31.385952154136
0.063482696590902	-11.635989666398	-28.126852788964
0.065530525513189	-5.6969551302883	-30.288454448072
0.067578354435477	-3.7403665083021	-35.855527421936
0.069626183357764	-6.7959204888904	-40.674907261729
0.071674012280051	-12.482130502655	-41.347063597420
0.073721841202338	-16.791396978087	-37.448890822771
0.075769670124625	-16.857328276550	-31.648904378220
0.077817499046912	-12.809021184803	-27.754329803173
0.079865327969200	-7.5258904412763	-28.102272024740
0.081913156891487	-4.5665167233773	-32.069749376115
0.083960985813774	-5.7482141665645	-36.640685749238
0.086008814736061	-10.013347692639	-38.548149747701
0.088056643658348	-14.278697273661	-36.481005125981
0.090104472580635	-15.604317339363	-31.873144945325
0.092152301502923	-13.165665223194	-27.811849322062
0.094200130425210	-8.7138761599890	-26.883794977003
0.096247959347497	-5.2822373189097	-29.453463160283
0.098295788269784	-5.0852796084575	-33.512896628142
0.10034361719207	-8.0589856494888	-36.136791686266
0.10239144611436	-11.998498322910	-35.495651699286
0.10443927503665	-14.134940641734	-32.047211508824
0.10648710395893	-13.029913931298	-28.135649972692
0.10853493288122	-9.4965598965153	-26.331968665657
0.11058276180351	-5.9629421654280	-27.685071679852
0.11263059072579	-4.7671971708188	-31.068659884672
0.11467841964808	-6.5769683434404	-34.024502250797
0.11672624857037	-9.9976721819008	-34.476713299959
0.11877407749266	-12.591779978299	-32.125444228311
0.12082190641494	-12.568891598576	-28.587725814170
0.12286973533723	-9.9783368709970	-26.233793940709
0.12491756425952	-6.6131680588806	-26.552316262677
0.12696539318180	-4.7341831513491	-29.168793731112
0.12901322210409	-5.5186802656986	-32.161193478234
0.13106105102638	-8.2955297120139	-33.416161474232
0.13310887994867	-11.060429765310	-32.071668484003
0.13515670887095	-11.880795216839	-29.063728947703
0.13720453779324	-10.208118142252	-26.433863197748
0.13925236671553	-7.2088920974172	-25.906121906806
0.14130019563781	-4.9190065469982	-27.723131851579
0.14334802456010	-4.8318603075993	-30.524826924503
0.14539585348239	-6.8972473781789	-32.321512518767
0.14744368240468	-9.6001522158185	-31.867307056339
0.14949151132696	-11.034751720244	-29.487734113544
0.15153934024925	-10.214240012352	-26.813587019093
0.15358716917154	-7.7179698517378	-25.632940882653
0.15563499809382	-5.2534755265460	-26.667612782009
0.15768282701611	-4.4614058909173	-29.109703196295
0.15973065593840	-5.7981631527344	-31.213532884089
0.16177848486069	-8.2557748098121	-31.511384867265
0.16382631378297	-10.087939167654	-29.807785337353
0.16587414270526	-10.020974717931	-27.280071706526
0.16792197162755	-8.1112707662525	-25.639626286623
0.16996980054984	-5.6732659695427	-25.949847507641
0.17201762947212	-4.3504413540302	-27.916025442007
0.17406545839441	-4.9846319824099	-30.120046057579
0.17611328731670	-7.0604246654825	-31.016513805334
0.17816111623898	-9.0900048493492	-29.991714975290
0.18020894516127	-9.6530664684703	-27.760790181389
0.18225677408356	-8.3659812719958	-25.847581673365
0.18430460300585	-6.1198541204554	-25.524038443690
0.18635243192813	-4.4418326680799	-26.946364269667
0.18840026085042	-4.4362922719219	-29.073668570279
0.19044808977271	-6.0391003721941	-30.406881350339
0.19249591869499	-8.0876351339798	-30.024347199278
0.19454374761728	-9.1404668662716	-28.199494953633
0.19659157653957	-8.4696675230168	-26.187500513325
0.19863940546186	-6.5433840112320	-25.345036326873
0.20068723438414	-4.6796850553088	-26.199614417635
0.20273506330643	-4.1262726481181	-28.106205311775
0.20478289222872	-5.2078735729616	-29.713543924570
0.20683072115100	-7.1232494490610	-29.903989235557
0.20887855007329	-8.5171528606496	-28.553892268978
0.21092637899558	-8.4197382080610	-26.597804631513
0.21297420791787	-6.9028849050813	-25.366870376590
0.21502203684015	-5.0099059506799	-25.669075436342
0.21706986576244	-4.0214221753845	-27.246252013055
0.21911769468473	-4.5733401040357	-28.972098154461
0.22116552360701	-6.2338621103523	-29.640919217246
0.22321335252930	-7.8201930471126	-28.795299529385
0.22526118145159	-8.2235984934250	-27.025045343161
0.22730901037388	-7.1678159343470	-25.542845764390
0.22935683929616	-5.3825290197648	-25.341228000354
0.23140466821845	-4.0841791985260	-26.516379281467
0.23345249714074	-4.1329416042182	-28.219009789767
0.23550032606302	-5.4496333321933	-29.254186723855
0.23754815498531	-7.0873403118412	-28.906990757206
0.23959598390760	-7.8965976902678	-27.423923827614
0.24164381282989	-7.3173052955521	-25.826379341261
0.24369164175217	-5.7521987599235	-25.196175677490
0.24573947067446	-4.2733730225489	-25.932496257242
0.24778729959675	-3.8750117349434	-27.490221153107
0.24983512851903	-4.7927861296649	-28.770525286920
0.25188295744132	-6.3554734715806	-28.884385877656
0.25393078636361	-7.4612379985685	-27.758848709495
0.25597861528590	-7.3410503529099	-26.172970793528
0.25802644420818	-6.0806462249155	-25.208631924078
0.26007427313047	-4.5471169779050	-25.502973023972
0.26212210205276	-3.7806303080862	-26.818680578907
0.26416993097504	-4.2776484244455	-28.221555842770
0.26621775989733	-5.6592629703015	-28.733333278042
0.26826558881962	-6.9457966050062	-28.003875716422
0.27031341774191	-7.2391847323295	-26.541156576725
0.27236124666419	-6.3381303461421	-25.348486214786
0.27440907558648	-4.8649494688211	-25.227656670709
0.27645690450877	-3.8249885341097	-26.231723056982
0.27850473343106	-3.9101961473189	-27.640609441506
0.28055256235334	-5.0290105933522	-28.467887151663
0.28260039127563	-6.3816717770543	-28.142355389732
0.28464822019792	-7.0206013586376	-26.893733554302
0.28669604912020	-6.5034679126522	-25.582330901248
0.28874387804249	-5.1890905857015	-25.098358109995
0.29079170696478	-3.9785683187122	-25.750042479078
0.29283953588707	-3.6879897572843	-27.060886979830
0.29488736480935	-4.4891674692859	-28.108996226594
0.29693519373164	-5.8014310788804	-28.167135114281
0.29898302265393	-6.7019254512180	-27.199356055012
0.30103085157621	-6.5647594591527	-25.875271641396
0.30307868049850	-5.4865538861871	-25.099433693809
0.30512650942079	-4.2092815851653	-25.386347799954
0.30717433834308	-3.6008917993757	-26.512742795365
0.30922216726536	-4.0570620471709	-27.681864679716
0.31126999618765	-5.2362334113940	-28.079379588994
0.31331782510994	-6.3050811642307	-27.433223869079
0.31536565403222	-6.5183233837807	-26.192693167144
0.31741348295451	-5.7296350390759	-25.209244404369
0.31946131187680	-4.4836013484071	-25.145531556816
0.32150914079909	-3.6315413908574	-26.022661349238
0.32355696972137	-3.7420054634690	-27.214812115952
0.32560479864366	-4.7139796219300	-27.888552754525
0.32765262756595	-5.8557513719626	-27.578651122553
0.32970045648823	-6.3686776631304	-26.502713818463
0.33174828541052	-5.8976881823032	-25.402065573336
0.33379611433281	-4.7692178195297	-25.024843291661
0.33584394325510	-3.7573633449186	-25.611568237431
0.33789177217738	-3.5455217854716	-26.736769655256
0.33993960109967	-4.2577717945318	-27.610632122140
0.34198743002196	-5.3811869227586	-27.627006677917
0.34403525894424	-6.1271594159449	-26.777693556449
0.34608308786653	-5.9773742580167	-25.649998497064
0.34813091678882	-5.0365778844891	-25.014871670394
0.35017874571111	-3.9522001387220	-25.294303000677
0.35222657463339	-3.4618939639874	-26.275786180979
0.35427440355568	-3.8850563328709	-27.266885751196
0.35632223247797	-4.9087056544345	-27.577783223274
0.35837006140025	-5.8110598799808	-26.995654915358
0.36041789032254	-5.9633091199343	-25.924784222431
0.36246571924483	-5.2608808841306	-25.100440647303
0.36451354816712	-4.1885413421745	-25.078855260354
0.36656137708940	-3.4793247099074	-25.856955616230
0.36860920601169	-3.6071192880086	-26.881700132445
0.37065703493398	-4.4640334601847	-27.437563974934
0.37270486385627	-5.4420658991930	-27.140811552298
0.37475269277855	-5.8577296923822	-26.199229367996
0.37680052170084	-5.4231915980947	-25.261663059752
0.37884835062313	-4.4392686651273	-24.966066079948
0.38089617954541	-3.5810504177781	-25.500754878412
0.38294400846770	-3.4287510426571	-26.480505480750
0.38499183738999	-4.0697177471008	-27.218766412551
0.38703966631228	-5.0444874343164	-27.203768373805
0.38908749523456	-5.6697074812161	-26.448455849428
0.39113532415685	-5.5110814753180	-25.475074824394
0.39318315307914	-4.6791103294564	-24.949546905875
0.39523098200142	-3.7463521123702	-25.221498965415
0.39727881092371	-3.3477835994165	-26.087568979314
0.39932663984600	-3.7431081790183	-26.938099116882
0.40137446876829	-4.6426218394252	-27.181599834297
0.40342229769057	-5.4132387417613	-26.651548574070
0.40547012661286	-5.5183005835991	-25.715833841915
0.40751795553515	-4.8857155307794	-25.017138117909
0.40956578445743	-3.9519769078598	-25.027354673972
0.41161361337972	-3.3556711433476	-25.724886014306
0.41366144230201	-3.4955837139790	-26.615409418970
0.41570927122430	-4.2591071981105	-27.077713315298
0.41775710014658	-5.1058187453196	-26.792740450681
0.41980492906887	-5.4444903836412	-25.959594562021
0.42185275799116	-5.0406027531695	-25.152382714269
0.42390058691344	-4.1735519163416	-24.920657643037
0.42594841583573	-3.4383066484649	-25.411460852978
0.42799624475802	-3.3321974170915	-26.272832004882
0.43004407368031	-3.9137416695099	-26.901895854565
0.43209190260259	-4.7674777726240	-26.862755297530
0.43413973152488	-5.2954461774904	-26.184591595300
0.43618756044717	-5.1309030938767	-25.336188187207
0.43823538936945	-4.3880958340886	-24.898162413723
0.44028321829174	-3.5780738046163	-25.162001865969
0.44233104721403	-3.2523330315230	-25.932737500543
0.44437887613632	-3.6227116161394	-26.668737212482
0.44642670505860	-4.4194481916494	-26.858528726850
0.44847453398089	-5.0823840099176	-26.372555143517
0.45052236290318	-5.1498913471313	-25.548015131536
0.45257019182546	-4.5755507229399	-24.951424814643
0.45461802074775	-3.7554028890045	-24.986009130132
0.45666584967004	-3.2502945815872	-25.615949174449
0.45871367859233	-3.3979021910707	-26.395993449088
0.46076150751461	-4.0827652356804	-26.782604682039
0.46280933643690	-4.8208660289481	-26.509274021854
0.46485716535919	-5.0969970245935	-25.766903643718
0.46690499428147	-4.7198262565008	-25.067258132037
0.46895282320376	-3.9500174480698	-24.887034070584
0.47100065212605	-3.3157300269076	-25.340038965259
0.47304848104834	-3.2460010527899	-26.102861930556
0.47509630997062	-3.7764407843239	-26.642395123746
0.47714413889291	-4.5290656645990	-26.585214526600
0.47919196781520	-4.9771214141278	-25.972933305831
0.48123979673749	-4.8094179217230	-25.228974258678
0.48328762565977	-4.1422297783608	-24.862818511014
0.48533545458206	-3.4345404350230	-25.118248785554
0.48738328350435	-3.1682430448303	-25.808397239359
0.48943111242663	-3.5160670557067	-26.449127270104
0.49147894134892	-4.2260126995818	-26.595647331913
0.49352677027121	-4.7995030975037	-26.148361580273
0.49557459919350	-4.8373848238756	-25.417695671407
0.49762242811578	-4.3137060428890	-24.905882548345
0.49967025703807	-3.5895396016919	-24.959038829374
0.50171808596036	-3.1601510232874	-25.530512114567
0.50376591488264	-3.3124949979857	-26.217251335730
0.50581374380493	-3.9298558978601	-26.541205278061
0.50786157272722	-4.5765697072501	-26.279333874653
0.50990940164951	-4.8014698288645	-25.614459945542
0.51195723057179	-4.4487467402985	-25.005009812248
0.51400505949408	-3.7620774341402	-24.866361513473
0.51605288841637	-3.2125356112045	-25.285253374944
0.51810071733865	-3.1717476998992	-25.963566411862
0.52014854626094	-3.6570271826543	-26.427740863489
0.52219637518323	-4.3232301166604	-26.356776171625
0.52424420410552	-4.7043087819725	-25.801672511494
0.52629203302780	-4.5355563627038	-25.146350939525
0.52833986195009	-3.9337672068615	-24.839715463438
0.53038769087238	-3.3127525383817	-25.085808417556
0.53243551979466	-3.0952023108211	-25.705884503753
0.53448334871695	-3.4214856300917	-26.265566958476
0.53653117763924	-4.0559652561416	-26.376708943639
0.53857900656153	-4.5532566446909	-25.964225099602
0.54062683548381	-4.5671842543554	-25.314499542928
0.54267466440610	-4.0881529410135	-24.874337418067
0.54472249332839	-3.4462121161457	-24.941551664278
0.54677032225067	-3.0801702153735	-25.461419736400
0.54881815117296	-3.2342332331325	-26.068077720906
0.55086598009525	-3.7918570709649	-26.339768631121
0.55291380901754	-4.3598007923841	-26.089906194043
0.55496163793982	-4.5418667895380	-25.493117863109
0.55700946686211	-4.2118090933515	-24.961188558224
0.55905729578440	-3.5974602391363	-24.856964997866
0.56110512470668	-3.1201118793068	-25.244957932550
0.56315295362897	-3.1023315679243	-25.850026017870
0.56520078255126	-3.5468261798621	-26.250422880148
0.56724861147355	-4.1379144359456	-26.169802281144
0.56929644039583	-4.4622716429211	-25.666034289097
0.57134426931812	-4.2946248257803	-25.087863453922
0.57339209824041	-3.7509515398686	-24.831679529892
0.57543992716269	-3.2050476652202	-25.068004904080
0.57748775608498	-3.0283906763564	-25.626394299899
0.57953558500727	-3.3343049306694	-26.116373741071
0.58158341392956	-3.9025899650840	-26.198668016037
0.58363124285184	-4.3346485477329	-25.818346865741
0.58567907177413	-4.3298753795639	-25.239705751658
0.58772690069642	-3.8916838373376	-24.860915736684
0.58977472961871	-3.3219993517334	-24.938389070239
0.59182255854099	-3.0102069975130	-25.411641932131
0.59387038746328	-3.1640490053900	-25.948238869809
0.59591821638557	-3.6684204843804	-26.175581096114
0.59796604530785	-4.1679932221805	-25.937955716818
0.60001387423014	-4.3144401355252	-25.401539110548
0.60206170315243	-4.0062767918727	-24.936607651532
0.60410953207472	-3.4562032226411	-24.860392111892
0.60615736099700	-3.0413501817919	-25.219130702118
0.60820518991929	-3.0418223822768	-25.759028112502
0.61025301884158	-3.4487764145757	-26.104166912820
0.61230084776386	-3.9735018508500	-26.016690378782
0.61434867668615	-4.2491700199852	-25.559201396976
0.61639650560844	-4.0842994920351	-25.048535772777
0.61844433453073	-3.5928261119538	-24.834908630663
0.62049216345301	-3.1124680446162	-25.060356535803
0.62253999237530	-2.9698042568931	-25.563064667438
0.62458782129759	-3.2554574209098	-25.991964007658
0.62663565021987	-3.7641208558151	-26.050491723288
0.62868347914216	-4.1390291578820	-25.700285818689
0.63073130806445	-4.1192501845899	-25.184933467690
0.63277913698674	-3.7184101047316	-24.859280465640
0.63482696590902	-3.2124648615864	-24.943879929602
0.63687479483131	-2.9469196181586	-25.374479545690
0.63892262375360	-3.0981453049984	-25.849227366073
0.64097045267588	-3.5536606031605	-26.039032765926
0.64301828159817	-3.9926001566215	-25.814504976352
0.64506611052046	-4.1088694338166	-25.332995037937
0.64711393944275	-3.8218090200318	-24.927244492716
0.64916176836503	-3.3294056384873	-24.874393518710
0.65120959728732	-2.9690379048134	-25.205684141428
0.65325742620961	-2.9836669372522	-25.687499061076
0.65530525513189	-3.3554870518350	-25.985012868163
0.65735308405418	-3.8209037154490	-25.893843860212
0.65940091297647	-4.0546346494071	-25.479453992672
0.66144874189876	-3.8943773089906	-25.029250561514
0.66349657082104	-3.4508871252179	-24.852331091334
0.66554439974333	-3.0288496071157	-25.066379865856
0.66759222866562	-2.9150181707343	-25.518617103398
0.66964005758790	-3.1809157928915	-25.893843035241
0.67168788651019	-3.6358284215006	-25.933210089720
0.67373571543248	-3.9608908216144	-25.611895945938
0.67578354435477	-3.9300237651344	-25.153745120379
0.67783137327705	-3.5646544204328	-24.874504489045
0.67987920219934	-3.1163605521083	-24.963412891992
0.68192703112163	-2.8911981378957	-25.354207896035
0.68397486004391	-3.0383583714297	-25.773444924343
0.68602268896620	-3.4490759819384	-25.930987205085
0.68807051788849	-3.8342467301972	-25.719984643861
0.69011834681078	-3.9254178401242	-25.288523073909
0.69216617573306	-3.6594354420111	-24.934956025691
0.69421400465535	-3.2197633184241	-24.900861804071
0.69626183357764	-2.9075345614513	-25.205288482257
0.69830966249993	-2.9329383123636	-25.633995842096
0.70035749142221	-3.2714450952459	-25.889459722266
0.70240532034450	-3.6831905590771	-25.796634784179
0.70445314926679	-3.8804358088664	-25.422189479275
0.70650097818907	-3.7262122863418	-25.026026102669
0.70854880711136	-3.3270292334075	-24.880256533083
0.71059663603365	-2.9569346064344	-25.081702275441
0.71264446495594	-2.8670225667011	-25.487100799766
0.71469229387822	-3.1127850509375	-25.814322349779
0.71674012280051	-3.5180000680818	-25.838122358246
0.71878795172280	-3.7985580927547	-25.544623880901
0.72083578064508	-3.7592447985928	-25.138600598433
0.72288360956737	-3.4271970322355	-24.900129036070
0.72493143848966	-3.0308217853012	-24.990936474649
0.72697926741195	-2.8403610979683	-25.344327054404
0.72902709633423	-2.9813764256125	-25.713573611507
0.73107492525652	-3.3498685514332	-25.843740223354
0.73312275417881	-3.6863733786090	-25.647292244641
0.73517058310109	-3.7562903565182	-25.262541508573
0.73721841202338	-3.5111292970066	-24.955961206968
0.73926624094567	-3.1198644331850	-24.937328741531
0.74131406986796	-2.8502267941102	-25.215921637206
0.74336189879024	-2.8833048647580	-25.596324663322
0.74540972771253	-3.1898275883303	-25.815204989296
0.74745755663482	-3.5526276931061	-25.723342410235
0.74950538555710	-3.7182122985686	-25.387096612086
0.75155321447939	-3.5716692549345	-25.040344401053
0.75360104340168	-3.2142391771455	-24.921626509216
0.75564887232397	-2.8912274057032	-25.109887077887
0.75769670124625	-2.8215421361190	-25.471901471437
0.75974453016854	-3.0472991867595	-25.756342567782
0.76179235909083	-3.4068017399811	-25.768097704868
0.76384018801311	-3.6481187499305	-25.501943249741
