#Parameters = {C_1=27.02612532093; C_2=100.86287282944; Conductivity_Mo=17900000; Ip=104.42092972805; Pipe_lenght=40; Pipe_r=30; beta=1; cells_wave=20; d=-400.86287282944; half_gap_x=30; half_gap_y=2.9738746790698; half_gap_z=150; mu_copper=0.999994; offset=1.1895498716279; offset_x=5; offset_y=1; sigma_z=5; teta=15; thcoll=27.02612532093; translate_z=-250.86287282944; wakelength=20000}
#"Frequency / GHz"	"Y [Re / Ohm]"	"Y [Im / Ohm]"
#-----------------------------------------------
0.0000000000000	2.1580878702040e-12	18.622144653788
0.0020478289222872	40.796481294384	4.9326835681249
0.0040956578445743	64.464084086600	-29.774736944854
0.0061434867668615	62.323542311190	-69.726633734687
0.0081913156891487	38.058698969126	-97.832174090711
0.010239144611436	5.1187891920157	-104.12141107109
0.012286973533723	-20.738645774816	-90.017717941677
0.014334802456010	-29.515811736725	-66.400789673156
0.016382631378297	-21.292932231917	-46.931185439757
0.018430460300585	-4.7780174378753	-40.623273300172
0.020478289222872	8.5876815392264	-47.776894355884
0.022526118145159	11.272789111506	-61.166741949448
0.024573947067446	3.2593267023139	-71.257882918467
0.026621775989733	-9.0927732551736	-72.040461289619
0.028669604912020	-17.722977682255	-64.055940851888
0.030717433834308	-17.948666326469	-53.170441287503
0.032765262756595	-10.887963754510	-46.307244614827
0.034813091678882	-2.0666658612153	-47.042604043559
0.036860920601169	2.5304009471633	-53.759563599881
0.038908749523456	0.26829592205611	-61.228474456076
0.040956578445743	-6.8194733730601	-64.289175610269
0.043004407368031	-13.787834902688	-61.127863434018
0.045052236290318	-16.220411129575	-54.121202294072
0.047100065212605	-13.021995632053	-47.929258590015
0.049147894134892	-6.8388005593545	-46.288833992407
0.051195723057179	-2.0333171415865	-49.668426947233
0.053243551979466	-1.7112801413635	-55.224643763160
0.055291380901754	-5.7934480628203	-58.911304526377
0.057339209824041	-11.304163888244	-58.214717721894
0.059387038746328	-14.530071033012	-53.692076921388
0.061434867668615	-13.511824454653	-48.393104318098
0.063482696590902	-9.2176981718411	-45.685245863791
0.065530525513189	-4.7159599661745	-47.011390781877
0.067578354435477	-3.0159216339648	-51.056832254223
0.069626183357764	-5.0799282464280	-54.787203753143
0.071674012280051	-9.3067096649234	-55.561670130469
0.073721841202338	-12.742081576034	-52.863540771808
0.075769670124625	-13.118828796393	-48.525102240503
0.077817499046912	-10.328925593527	-45.380313897020
0.079865327969200	-6.3817455168418	-45.323173457838
0.081913156891487	-3.9548719414761	-48.092488836065
0.083960985813774	-4.5728484841935	-51.554399008214
0.086008814736061	-7.6450143340391	-53.220275397990
0.088056643658348	-10.962200899028	-51.928393363508
0.090104472580635	-12.251862679675	-48.559509468869
0.092152301502923	-10.704022436615	-45.353073143393
0.094200130425210	-7.4492307656707	-44.344475636801
0.096247959347497	-4.7151093908352	-46.007856246366
0.098295788269784	-4.2835278966228	-49.004399621023
0.10034361719207	-6.3120252907579	-51.157916604621
0.10239144611436	-9.2947672626933	-50.952425545128
0.10443927503665	-11.142832156997	-48.525399480659
0.10648710395893	-10.613629307622	-45.509772391156
0.10853493288122	-8.1151932336280	-43.875968561044
0.11058276180351	-5.3685556451022	-44.591025222436
0.11263059072579	-4.1984284828982	-47.003862693046
0.11467841964808	-5.2985738880955	-49.343634991883
0.11672624857037	-7.8043570343271	-49.955013574458
0.11877407749266	-9.9316869143424	-48.411630248063
0.12082190641494	-10.214112041919	-45.761259660902
0.12286973533723	-8.4829638815117	-43.767333488815
0.12491756425952	-5.9378383070863	-43.692707816916
0.12696539318180	-4.2902033870278	-45.462073992372
0.12901322210409	-4.5889888374869	-47.756285619940
0.13106105102638	-6.5319524665265	-48.944744534468
0.13310887994867	-8.7128354344361	-48.198954410946
0.13515670887095	-9.6078712939348	-46.028607345025
0.13720453779324	-8.6115494329838	-43.895401334822
0.13925236671553	-6.4192918065689	-43.193925143080
0.14130019563781	-4.5175778278270	-44.308368341663
0.14334802456010	-4.1530844624538	-46.381502692205
0.14539585348239	-5.4941868487273	-47.931680551577
0.14744368240468	-7.5473761053215	-47.875517501454
0.14949151132696	-8.8638832205157	-46.251729510140
0.15153934024925	-8.5354624432656	-44.163794130784
0.15358716917154	-6.7961807600317	-43.001816141446
0.15563499809382	-4.8327620252464	-43.490928511675
0.15768282701611	-3.9533621282183	-45.216445510631
0.15973065593840	-4.6957927231676	-46.935371869370
0.16177848486069	-6.4820523418003	-47.442299364554
0.16382631378297	-8.0396129602791	-46.387546784414
0.16587414270526	-8.2838660592801	-44.493207389137
0.16792197162755	-7.0507811949715	-43.035508371750
0.16996980054984	-5.1857776454541	-42.963359684898
0.17201762947212	-3.9442230242045	-44.260944525889
0.17406545839441	-4.1276789077858	-45.981623671195
0.17611328731670	-5.5493563653257	-46.914020281500
0.17816111623898	-7.1844053009547	-46.412460826337
0.18020894516127	-7.8868084484400	-44.823228372468
0.18225677408356	-7.1721944627407	-43.226081382082
0.18430460300585	-5.5325653193871	-42.682535828592
0.18635243192813	-4.0794066189892	-43.513503166349
0.18840026085042	-3.7730621162726	-45.097165823509
0.19044808977271	-4.7719958642053	-46.313132445199
0.19249591869499	-6.3422571469717	-46.316393337647
0.19454374761728	-7.3766435847820	-45.107037958111
0.19659157653957	-7.1570025782523	-43.512205163307
0.19863940546186	-5.8354023012182	-42.605029482317
0.20068723438414	-4.3123637390707	-42.968147094231
0.20273506330643	-3.6076317337125	-44.306668134374
0.20478289222872	-4.1625955122012	-45.667090020403
0.20683072115100	-5.5510461791888	-46.100650793892
0.20887855007329	-6.7871350873036	-45.310124314153
0.21092637899558	-7.0087245796539	-43.839582498568
0.21297420791787	-6.0629301389494	-42.686821050541
0.21502203684015	-4.5966128580338	-42.613962388407
0.21706986576244	-3.5997320634237	-43.632100050867
0.21911769468473	-3.7234358487475	-45.008032495574
0.22116552360701	-4.8421863475391	-45.778554618671
0.22321335252930	-6.1539448584495	-45.411989319864
0.22526118145159	-6.7400277758703	-44.162998736202
0.22730901037388	-6.1942216862766	-42.884325934956
0.22935683929616	-4.8907005690729	-42.433865770554
0.23140466821845	-3.7145233477080	-43.088966233354
0.23345249714074	-3.4482948524706	-44.367475055127
0.23550032606302	-4.2396816554439	-45.370379322967
0.23754815498531	-5.5117534721326	-45.402954131578
0.23959598390760	-6.3695647459800	-44.445573723840
0.24164381282989	-6.2168023359128	-43.155431611352
0.24369164175217	-5.1579143374465	-42.406097713956
0.24573947067446	-3.9148557337726	-42.687178165571
0.24778729959675	-3.3235383443761	-43.776348293129
0.24983512851903	-3.7609018031759	-44.903115581243
0.25188295744132	-4.8950071923450	-45.284267201073
0.25393078636361	-5.9234705117355	-44.659167358999
0.25597861528590	-6.1293619154316	-43.459305771771
0.25802644420818	-5.3696933702659	-42.502253563380
0.26007427313047	-4.1639052933423	-42.426776515881
0.26212210205276	-3.3283252479375	-43.259156393210
0.26416993097504	-3.4135643318314	-44.404913307242
0.26621775989733	-4.3323565430150	-45.064859477095
0.26826558881962	-5.4291436493167	-44.784545116134
0.27031341774191	-5.9369778079718	-43.759567493760
0.27236124666419	-5.5035206459387	-42.691875730232
0.27440907558648	-4.4256007055587	-42.302162751389
0.27645690450877	-3.4364547931363	-42.836843322774
0.27850473343106	-3.1978357170181	-43.906684617665
0.28055256235334	-3.8485843989740	-44.762418202932
0.28260039127563	-4.9174186039820	-44.812419142676
0.28464822019792	-5.6541740970658	-44.024969923487
0.28669604912020	-5.5468946396209	-42.941785467263
0.28874387804249	-4.6685202211502	-42.299217349919
0.29079170696478	-3.6185899400838	-42.521817316296
0.29283953588707	-3.1056417135176	-43.436391294337
0.29488736480935	-3.4610027814947	-44.398936178920
0.29693519373164	-4.4174453587607	-44.741801410709
0.29898302265393	-5.3003582618460	-44.230754519579
0.30103085157621	-5.4949200431871	-43.219207956811
0.30307868049850	-4.8659092104406	-42.398323895523
0.30512650942079	-3.8436517737055	-42.319498473593
0.30717433834308	-3.1218868421980	-43.018982368359
0.30922216726536	-3.1795116303257	-44.000034905134
0.31126999618765	-3.9557626404275	-44.579988169906
0.31331782510994	-4.8989934365721	-44.359882327039
0.31536565403222	-5.3506933160308	-43.493727431657
0.31741348295451	-4.9975584486398	-42.575818351745
0.31946131187680	-4.0813983781840	-42.228234640164
0.32150914079909	-3.2264151164042	-42.674705675586
0.32355696972137	-3.0070199706975	-43.592618789694
0.32560479864366	-3.5552912936626	-44.340851931381
0.32765262756595	-4.4762007039065	-44.402690450505
0.32970045648823	-5.1247003617720	-43.737962604569
0.33174828541052	-5.0504456481744	-42.804540624819
0.33379611433281	-4.3036595195522	-42.238655018213
0.33584394325510	-3.3945248382923	-42.417103834922
0.33789177217738	-2.9382096370391	-43.202486948696
0.33993960109967	-3.2323955839420	-44.043592234544
0.34198743002196	-4.0573356024204	-44.357851459488
0.34403525894424	-4.8325949305754	-43.930606477361
0.34608308786653	-5.0188421820845	-43.057650205438
0.34813091678882	-4.4866628854646	-42.336556262266
0.35017874571111	-3.6002891711954	-42.253873928950
0.35222657463339	-2.9623197375588	-42.853253193798
0.35427440355568	-2.9982349797429	-43.710768813912
0.35632223247797	-3.6670797836005	-44.230718357380
0.35837006140025	-4.4949390057735	-44.055598406168
0.36041789032254	-4.9045234801378	-43.308198155581
0.36246571924483	-4.6117468376198	-42.501975898262
0.36451354816712	-3.8169494771481	-42.184910783904
0.36656137708940	-3.0621678402661	-42.563775172076
0.36860920601169	-2.8559963735443	-43.366360637331
0.37065703493398	-3.3255861086184	-44.033319409046
0.37270486385627	-4.1338104179115	-44.104525377392
0.37475269277855	-4.7153628728899	-43.533163235522
0.37680052170084	-4.6665325840792	-42.713227760299
0.37884835062313	-4.0199887028119	-42.204769921779
0.38089617954541	-3.2176274367639	-42.348407748593
0.38294400846770	-2.8033853641650	-43.034359754347
0.38499183738999	-3.0494844548106	-43.782526252324
0.38703966631228	-3.7728507965396	-44.075395096901
0.38908749523456	-4.4654147167890	-43.713003751522
0.39113532415685	-4.6456702096128	-42.946561311202
0.39318315307914	-4.1883009504585	-42.301551535831
0.39523098200142	-3.4062903101177	-42.214794074115
0.39727881092371	-2.8318730994834	-42.736067922716
0.39932663984600	-2.8495570984554	-43.498037001592
0.40137446876829	-3.4341798057198	-43.972283023229
0.40342229769057	-4.1723755594809	-43.833060528448
0.40547012661286	-4.5498191108423	-43.178436628710
0.40751795553515	-4.3047079706837	-42.458763467674
0.40956578445743	-3.6046088002666	-42.164482123694
0.41161361337972	-2.9272890011681	-42.489617938035
0.41366144230201	-2.7301808964260	-43.201788320338
0.41570927122430	-3.1370942566557	-43.805719627846
0.41775710014658	-3.8566801688666	-43.885289109127
0.41980492906887	-4.3862119939005	-43.387931101763
0.42185275799116	-4.3582144617991	-42.657085414878
0.42390058691344	-3.7909969047064	-42.192934375824
0.42594841583573	-3.0723450149623	-42.308056540260
0.42799624475802	-2.6901500200479	-42.915003394120
0.43004407368031	-2.8970353124149	-43.590095726669
0.43209190260259	-3.5394589101792	-43.867050931296
0.43413973152488	-4.1668347792178	-43.556998020682
0.43618756044717	-4.3432094752055	-42.875304283928
0.43823538936945	-3.9459546203501	-42.290128084716
0.44028321829174	-3.2468802784369	-42.199129874663
0.44233104721403	-2.7222232747115	-42.657538938993
0.44437887613632	-2.7242849209275	-43.343478799892
0.44642670505860	-3.2410720311764	-43.782106338027
0.44847453398089	-3.9078732882737	-43.672533580950
0.45052236290318	-4.2605111078025	-43.092499537895
0.45257019182546	-4.0544589637541	-42.441623077324
0.45461802074775	-3.4304810644505	-42.164523519311
0.45666584967004	-2.8146495816708	-42.445602568580
0.45871367859233	-2.6236792770641	-43.084964034953
0.46076150751461	-2.9793222514940	-43.638895286722
0.46280933643690	-3.6275230961678	-43.726239422605
0.46485716535919	-4.1159275246008	-43.289158130582
0.46690499428147	-4.1057657208636	-42.629932899644
0.46895282320376	-3.6031188791288	-42.200555184647
0.47100065212605	-2.9517362191574	-42.291522811243
0.47304848104834	-2.5944133418392	-42.834068983771
0.47509630997062	-2.7685357773242	-43.450419058610
0.47714413889291	-3.3450829254484	-43.715471300743
0.47919196781520	-3.9202298386464	-43.448676667677
0.48123979673749	-4.0945782311758	-42.835750623193
0.48328762565977	-3.7469756673248	-42.298225858668
0.48533545458206	-3.1152385140564	-42.202424009279
0.48738328350435	-2.6300678899789	-42.608736154123
0.48943111242663	-2.6181064467992	-43.232769986670
0.49147894134892	-3.0788237821602	-43.643226707615
0.49352677027121	-3.6875890180590	-43.558862735342
0.49557459919350	-4.0209462549764	-43.040105358685
0.49762242811578	-3.8477978027677	-42.444812280234
0.49967025703807	-3.2863024692594	-42.180448328992
0.50171808596036	-2.7200091656394	-42.424268449362
0.50376591488264	-2.5326919772460	-43.003629167614
0.50581374380493	-2.8451739822794	-43.517197408085
0.50786157272722	-3.4345790682832	-43.612001418948
0.50990940164951	-3.8899143099753	-43.225100781710
0.51195723057179	-3.8954107466362	-42.624446045005
0.51400505949408	-3.4463178327844	-42.222508609830
0.51605288841637	-2.8497140168892	-42.292276921977
0.51810071733865	-2.5114726393641	-42.781135227302
0.52014854626094	-2.6571439808016	-43.349484679422
0.52219637518323	-3.1786694874203	-43.605867758382
0.52424420410552	-3.7110638119811	-43.375834759746
0.52629203302780	-3.8847010982877	-42.819917694026
0.52833986195009	-3.5788478004219	-42.320972976592
0.53038769087238	-3.0025707172760	-42.219916129516
0.53243551979466	-2.5488534726550	-42.582228330719
0.53448334871695	-2.5236858086640	-43.155123625300
0.53653117763924	-2.9368542241063	-43.543309545197
0.53857900656153	-3.4974415331176	-43.481163742036
0.54062683548381	-3.8155891732545	-43.013949861728
0.54267466440610	-3.6706184636211	-42.464474034593
0.54472249332839	-3.1611418510813	-42.209639990031
0.54677032225067	-2.6350884246102	-42.421545007072
0.54881815117296	-2.4492494760427	-42.950935673265
0.55086598009525	-2.7244973512975	-43.431910230422
0.55291380901754	-3.2645844703112	-43.534450797750
0.55496163793982	-3.6930273391902	-43.190522380085
0.55700946686211	-3.7126246622337	-42.638864158536
0.55905729578440	-3.3087437183671	-42.259054491896
0.56110512470668	-2.7573551410888	-42.310158786987
0.56315295362897	-2.4336932220731	-42.753884659871
0.56520078255126	-2.5541818076091	-43.282935015755
0.56724861147355	-3.0290961231033	-43.533668271375
0.56929644039583	-3.5262372940899	-43.335919824739
0.57134426931812	-3.7004759526712	-42.828382806557
0.57339209824041	-3.4305774522259	-42.361345634101
0.57543992716269	-2.9008269540002	-42.254964822990
0.57748775608498	-2.4725367866199	-42.579860964025
0.57953558500727	-2.4350042199209	-43.110369920024
0.58158341392956	-2.8075546266296	-43.481337900912
0.58363124285184	-3.3281002216798	-43.439537217884
0.58567907177413	-3.6348041226086	-43.016620365866
0.58772690069642	-3.5149510007108	-42.505510247558
0.58977472961871	-3.0498747948133	-42.257733184909
0.59182255854099	-2.5572275314978	-42.441895053396
0.59387038746328	-2.3715278228524	-42.929221034053
0.59591821638557	-2.6145780378545	-43.383832654373
0.59796604530785	-3.1132913691481	-43.494498822244
0.60001387423014	-3.5203324204837	-43.187976017407
0.60206170315243	-3.5535058757596	-42.677721638990
0.60410953207472	-3.1889235457032	-42.315628798237
0.60615736099700	-2.6757470547613	-42.349747053339
0.60820518991929	-2.3635334855813	-42.754777648677
0.61025301884158	-2.4618055815188	-43.251150544496
0.61230084776386	-2.8971961623184	-43.498404614583
0.61434867668615	-3.3655437268071	-43.329125620335
0.61639650560844	-3.5419833022851	-42.862718475408
0.61844433453073	-3.3039356238910	-42.421720376394
0.62049216345301	-2.8139540162481	-42.309284750333
0.62253999237530	-2.4064641412740	-42.601329477042
0.62458782129759	-2.3572928229382	-43.095837813685
0.62663565021987	-2.6947971971396	-43.453129881426
0.62868347914216	-3.1819008648251	-43.429722203657
0.63073130806445	-3.4803262879803	-43.044788260690
0.63277913698674	-3.3832679056365	-42.565437699596
0.63482696590902	-2.9564874861814	-42.321996825047
0.63687479483131	-2.4915881454220	-42.481016999259
0.63892262375360	-2.3046330667923	-42.931974373090
0.64097045267588	-2.5191657371085	-43.364713688980
0.64301828159817	-2.9825696567566	-43.483392052163
0.64506611052046	-3.3723668409494	-43.209362101793
0.64711393944275	-3.4184326331221	-42.733881059636
0.64916176836503	-3.0880181114146	-42.385353651071
0.65120959728732	-2.6068671952812	-42.403245456421
0.65325742620961	-2.3028776885521	-42.774296857876
0.65530525513189	-2.3805642907689	-43.243042903173
0.65735308405418	-2.7814360780146	-43.488437767035
0.65940091297647	-3.2255892879029	-43.344483142925
0.66144874189876	-3.4049693169121	-42.913259043532
0.66349657082104	-3.1948767119716	-42.493413160297
0.66554439974333	-2.7385175231572	-42.374186995495
0.66759222866562	-2.3472918035735	-42.637022149120
0.66964005758790	-2.2862329403925	-43.100809976553
0.67168788651019	-2.5924185678385	-43.447564433751
0.67373571543248	-3.0507520606424	-43.441326210766
0.67578354435477	-3.3428835193226	-43.089619450676
0.67783137327705	-3.2661781420712	-42.637001525860
0.67987920219934	-2.8721367541343	-42.396023573836
0.68192703112163	-2.4297306591070	-42.532430929077
0.68397486004391	-2.2397252954110	-42.952208130857
0.68602268896620	-2.4281560358628	-43.367429912430
0.68807051788849	-2.8607525877890	-43.494811374161
0.69011834681078	-3.2363975638797	-43.250053752805
0.69216617573306	-3.2945809599497	-42.804673104975
0.69421400465535	-2.9939401856230	-42.467025443894
0.69626183357764	-2.5395407549091	-42.470046001025
0.69830966249993	-2.2409439932772	-42.811800354955
0.70035749142221	-2.2992871034516	-43.257977282507
0.70240532034450	-2.6698101030258	-43.503805919822
0.70445314926679	-3.0937741951982	-43.383518404992
0.70650097818907	-3.2770386847081	-42.983413943721
0.70854880711136	-3.0920585917621	-42.581423756556
0.71059663603365	-2.6645996082849	-42.455484962494
0.71264446495594	-2.2862328124448	-42.692831763028
0.71469229387822	-2.2134835962441	-43.131044850002
0.71674012280051	-2.4919805678532	-43.470676037857
0.71878795172280	-2.9261382631381	-43.481361425239
0.72083578064508	-3.2144882274972	-43.159566041287
0.72288360956737	-3.1570297359635	-42.729956126935
0.72493143848966	-2.7919981024921	-42.490185812843
0.72697926741195	-2.3685378238533	-42.606317727039
0.72902709633423	-2.1747846615447	-42.999471175954
0.73107492525652	-2.3399746784489	-43.401054892086
0.73312275417881	-2.7464771614678	-43.537922408098
0.73517058310109	-3.1116131363404	-43.319822866388
0.73721841202338	-3.1823603675447	-42.900519786782
0.73926624094567	-2.9088474210736	-42.571203500039
0.74131406986796	-2.4776881771827	-42.560072722892
0.74336189879024	-2.1828991715356	-42.876014058025
0.74540972771253	-2.2236779313596	-43.303447290127
0.74745755663482	-2.5681147528740	-43.551219508569
0.74950538555710	-2.9760705535458	-43.452720871735
0.75155321447939	-3.1648440320470	-43.079690913482
0.75360104340168	-3.0033477560719	-42.691990318519
0.75564887232397	-2.6014347827421	-42.558492890458
0.75769670124625	-2.2335193171786	-42.772535355166
0.75974453016854	-2.1495877345130	-43.188582442656
0.76179235909083	-2.4037442422247	-43.523068427592
0.76384018801311	-2.8178695757531	-43.549548968644
