#Parameters = {C_1=13; C_2=48.516660498396; Conductivity_W=18000000; Ip=50.228142967032; Pipe_lenght=40; Pipe_r=30; beta=1; cells_wave=20; conductivity_copper=59500000; d=-148.51666049839; half_gap_x=17; half_gap_y=30; half_gap_z=50; mu_copper=0.999994; offset=6.8; offset_x=1; offset_y=5; sigma_z=5; teta=15; thcoll=13; translate_z=-98.516660498395; wakelength=20000}
#"Frequency / GHz"	"Z [Re / Ohm]"	"Z [Im / Ohm]"
#-----------------------------------------------
0.0000000000000	0.082586337992183	-7.5959429252695e-14
0.0020478289222872	0.074430027016691	-0.020402368138621
0.0040956578445743	0.053391897025993	-0.031165515359298
0.0061434867668615	0.028056361170505	-0.027102411845404
0.0081913156891487	0.0079613018443586	-0.0096173660720120
0.010239144611436	-0.00084771399554709	0.014499118166651
0.012286973533723	0.0017935503375552	0.036827343689278
0.014334802456010	0.010925314289010	0.051509807158583
0.016382631378297	0.019701558929216	0.057661838216883
0.018430460300585	0.023157266871112	0.058916253269761
0.020478289222872	0.020439165793261	0.060669810560265
0.022526118145159	0.014480715945812	0.066805603184351
0.024573947067446	0.0096318207012089	0.077769225097972
0.026621775989733	0.0088512972549155	0.090903205242604
0.028669604912020	0.012136186874983	0.10254591165441
0.030717433834308	0.016947416016095	0.11043105095203
0.032765262756595	0.020123130649222	0.11491539483516
0.034813091678882	0.019936445147313	0.11843254463351
0.036860920601169	0.017015083013112	0.12371525401641
0.038908749523456	0.013677142886829	0.13202800971224
0.040956578445743	0.012266711879460	0.14251755738560
0.043004407368031	0.013641955200873	0.15297935517419
0.045052236290318	0.016762787584445	0.16141604418039
0.047100065212605	0.019540448768842	0.16731775592287
0.049147894134892	0.020290901720551	0.17186556696247
0.051195723057179	0.018801777541699	0.17701823960893
0.053243551979466	0.016352356868390	0.18416592544404
0.055291380901754	0.014755914908971	0.19326137515511
0.057339209824041	0.015124005851208	0.20295992776590
0.059387038746328	0.017182496183335	0.21160282218429
0.061434867668615	0.019549614491297	0.21833840405682
0.063482696590902	0.020727217549059	0.22363357261107
0.065530525513189	0.020103951716928	0.22887828207031
0.067578354435477	0.018306168015890	0.23540274593094
0.069626183357764	0.016704610793456	0.24359498375972
0.071674012280051	0.016455196919839	0.25269836150121
0.073721841202338	0.017738856094858	0.26138389836254
0.075769670124625	0.019695212774563	0.26867218851321
0.077817499046912	0.021055892007021	0.27457089032983
0.079865327969200	0.021016909367309	0.28001752180486
0.081913156891487	0.019754435070194	0.28620229847921
0.083960985813774	0.018257031969753	0.29375593754661
0.086008814736061	0.017620900421654	0.30235330771393
0.088056643658348	0.018306941763789	0.31097846238979
0.090104472580635	0.019860178300828	0.31864166147335
0.092152301502923	0.021258544549608	0.32504559821288
0.094200130425210	0.021627881144497	0.33075512298780
0.096247959347497	0.020825641067981	0.33677831615128
0.098295788269784	0.019505870113904	0.34386668831782
0.10034361719207	0.018643756131709	0.35201816206205
0.10239144611436	0.018862983485297	0.36050961885137
0.10443927503665	0.020027954910132	0.36841540232737
0.10648710395893	0.021365675295312	0.37524212726705
0.10853493288122	0.022014126562043	0.38124623268734
0.11058276180351	0.021609905774608	0.38723178168625
0.11263059072579	0.020516078415685	0.39398495502348
0.11467841964808	0.019549363524450	0.40174151234018
0.11672624857037	0.019409654804829	0.41004667774784
0.11877407749266	0.020209069035095	0.41808834292542
0.12082190641494	0.021416271302922	0.42526107234983
0.12286973533723	0.022239482596434	0.43157043618631
0.12491756425952	0.022173404923466	0.43760876811642
0.12696539318180	0.021333361729245	0.44413312279043
0.12901322210409	0.020356759990620	0.45154508210953
0.13106105102638	0.019952800567444	0.45962893969403
0.13310887994867	0.020417614691807	0.46771795064576
0.13515670887095	0.021445502759080	0.47516222484447
0.13720453779324	0.022355497790975	0.48177079313937
0.13925236671553	0.022566522218139	0.48792792946114
0.14130019563781	0.021990384425723	0.49431432882419
0.14334802456010	0.021077547432323	0.50143457260866
0.14539585348239	0.020494599840822	0.50927823419662
0.14744368240468	0.020663635455390	0.51734159732513
0.14949151132696	0.021481230055484	0.52498500662994
0.15153934024925	0.022403505654009	0.53187299916252
0.15358716917154	0.022829246275606	0.53819495393881
0.15563499809382	0.022511794333210	0.54452177754213
0.15768282701611	0.021718074395808	0.55140608839354
0.15973065593840	0.021032948782900	0.55900537872967
0.16177848486069	0.020951620468554	0.56698465260878
0.16382631378297	0.021543677268659	0.57475779405536
0.16587414270526	0.022416264781647	0.58189432096077
0.16792197162755	0.022994030993315	0.58840969095432
0.16996980054984	0.022916844369719	0.59474381204435
0.17201762947212	0.022280775985520	0.60145006009764
0.17406545839441	0.021561517443533	0.60881423053504
0.17611328731670	0.021280139341375	0.61666544094487
0.17816111623898	0.021645675326983	0.62450367689088
0.18020894516127	0.022419358377195	0.63184942251074
0.18225677408356	0.023088208017169	0.63857125005047
0.18430460300585	0.023222234917336	0.64496789300727
0.18635243192813	0.022766859252291	0.65155421101481
0.18840026085042	0.022071990308176	0.65870403106625
0.19044808977271	0.021643678707352	0.66639733216122
0.19249591869499	0.021794295914708	0.67424246301596
0.19454374761728	0.022432795323996	0.68175225982592
0.19659157653957	0.023135602448640	0.68867968500314
0.19863940546186	0.023443689575247	0.69518200142242
0.20068723438414	0.023177747985034	0.70170467835510
0.20273506330643	0.022555303000220	0.70867030596344
0.20478289222872	0.022033631450837	0.71618951932472
0.20683072115100	0.021991609097491	0.72399145274741
0.20887855007329	0.022471624310002	0.73161695550497
0.21092637899558	0.023157154387289	0.73873700042251
0.21297420791787	0.023596734434840	0.74537568849938
0.21502203684015	0.023516067445135	0.75188691185173
0.21706986576244	0.023002704881649	0.75870541537527
0.21911769468473	0.022439165102954	0.76604716774011
0.22116552360701	0.022235088133718	0.77376536603363
0.22321335252930	0.022545793357902	0.78145786325354
0.22526118145159	0.023170435068161	0.78874770475758
0.22730901037388	0.023696279507039	0.79554124796725
0.22935683929616	0.023785688296861	0.80208728298806
0.23140466821845	0.023406428545081	0.80880020522542
0.23345249714074	0.022848370128544	0.81597273657499
0.23550032606302	0.022518906699126	0.82357719836605
0.23754815498531	0.022661324692246	0.83129009860385
0.23959598390760	0.023190669944043	0.83871927382380
0.24164381282989	0.023757692131074	0.84567424580904
0.24369164175217	0.023993084301126	0.85229354692388
0.24573947067446	0.023761354753469	0.85894407113275
0.24778729959675	0.023249943629657	0.86596536295658
0.24983512851903	0.022835172357104	0.87343693671790
0.25188295744132	0.022820733187435	0.88112795417718
0.25393078636361	0.023230325407873	0.88866080848271
0.25597861528590	0.023795911534526	0.89577282854380
0.25802644420818	0.024146494701177	0.90249484328250
0.26007427313047	0.024064586028284	0.90912533468962
0.26212210205276	0.023633178777986	0.91602117888271
0.26416993097504	0.023174027627706	0.92335157042069
0.26621775989733	0.023022887867727	0.93098470266113
0.26826558881962	0.023298616392207	0.93858297183519
0.27031341774191	0.023824825658684	0.94583809849156
0.27236124666419	0.024255574341567	0.95268251813467
0.27440907558648	0.024315653101316	0.95933218406324
0.27645690450877	0.023988660959864	0.96613391614027
0.27850473343106	0.023524434294411	0.97332509745953
0.28055256235334	0.023263404942272	0.98087213193518
0.28260039127563	0.023401275576249	0.98849750538628
0.28464822019792	0.023856597339950	0.99587409591726
0.28669604912020	0.024330760571439	1.0028507693320
0.28874387804249	0.024516395232159	1.0095537628161
0.29079170696478	0.024308820296716	1.0162959517479
0.29283953588707	0.023875157418698	1.0233590954524
0.29488736480935	0.023535608275620	1.0308005378805
0.29693519373164	0.023541141523075	1.0384169021403
0.29898302265393	0.023901865894172	1.0458875542137
0.30103085157621	0.024383385833828	1.0529967186120
0.30307868049850	0.024671340838754	1.0597804499019
0.30512650942079	0.024588700706280	1.0664984271500
0.30717433834308	0.024215683730452	1.0734523368512
0.30922216726536	0.023831142761064	1.0807777985785
0.31126999618765	0.023718111707265	1.0883532801499
0.31331782510994	0.023969047325115	1.0958870934304
0.31536565403222	0.024424719988724	1.1031202911645
0.31741348295451	0.024787035654814	1.1100043937055
0.31946131187680	0.024825923586163	1.1167320249379
0.32150914079909	0.024536761442210	1.1236012840302
0.32355696972137	0.024140678518987	1.1308092872491
0.32560479864366	0.023929532647151	1.1383178145423
0.32765262756595	0.024064181358733	1.1458825787356
0.32970045648823	0.024465426355125	1.1532239192011
0.33174828541052	0.024871505835359	1.1602197061902
0.33379611433281	0.025020504559084	1.1669874479376
0.33584394325510	0.024830621177376	1.1738004720165
0.33789177217738	0.024454271598581	1.1808978973126
0.33993960109967	0.024170336790235	1.1883204631014
0.34198743002196	0.024190672959243	1.1958848823253
0.34403525894424	0.024515081567369	1.2033126989807
0.34608308786653	0.024933974824225	1.2104231115869
0.34813091678882	0.025175142035461	1.2172562846831
0.35017874571111	0.025091889900696	1.2240430959799
0.35222657463339	0.024762566581574	1.2310439515742
0.35427440355568	0.024433998679011	1.2383691551058
0.35632223247797	0.024349595029494	1.2459047009624
0.35837006140025	0.024581787489997	1.2533933565437
0.36041789032254	0.024984113207774	1.2606134267775
0.36246571924483	0.025294559532949	1.2675310102783
0.36451354816712	0.025317299077990	1.2743212215464
0.36656137708940	0.025056800685115	1.2812452492042
0.36860920601169	0.024712510706513	1.2884695220247
0.37065703493398	0.024539325922926	1.2959521465085
0.37270486385627	0.024671427616071	1.3034740662616
0.37475269277855	0.025031192698536	1.3107918861690
0.37680052170084	0.025384973950114	1.3178057826967
0.37884835062313	0.025505729537746	1.3246267015600
0.38089617954541	0.025329338958278	1.3314976598337
0.38294400846770	0.024997017319856	1.3386249305515
0.38499183738999	0.024755841192756	1.3460363479645
0.38703966631228	0.024787417623911	1.3535640362606
0.38908749523456	0.025083470054798	1.3609621335429
0.39113532415685	0.025453540846943	1.3680769936391
0.39318315307914	0.025658113450168	1.3749520743880
0.39523098200142	0.025574140060828	1.3817959449494
0.39727881092371	0.025278610868916	1.3888368771179
0.39932663984600	0.024993444751300	1.3961653663234
0.40137446876829	0.024931096639092	1.4036731951872
0.40342229769057	0.025148265421219	1.4111300300298
0.40547012661286	0.025508407330059	1.4183433756545
0.40751795553515	0.025777777045227	1.4252908382641
0.40956578445743	0.025787476350898	1.4321338487605
0.41161361337972	0.025549194101247	1.4391045825648
0.41366144230201	0.025245352714695	1.4463452595410
0.41570927122430	0.025101700651841	1.4538110277761
0.41775710014658	0.025231307167834	1.4613027210352
0.41980492906887	0.025557742033376	1.4686056374800
0.42185275799116	0.025869600996759	1.4756376671175
0.42390058691344	0.025967520743977	1.4825045987266
0.42594841583573	0.025801471272739	1.4894253931285
0.42799624475802	0.025503803219242	1.4965801777581
0.43004407368031	0.025296276895141	1.5039864643046
0.43209190260259	0.025336353954126	1.5114886296503
0.43413973152488	0.025609267839562	1.5188668314905
0.43618756044717	0.025939827523454	1.5259891588299
0.43823538936945	0.026114689543854	1.5329017402141
0.44028321829174	0.026029783556731	1.5397952837052
0.44233104721403	0.025761038710219	1.5468722665315
0.44437887613632	0.025510372610318	1.5542072442763
0.44642670505860	0.025465328178022	1.5616966341959
0.44847453398089	0.025669910751241	1.5691317641101
0.45052236290318	0.025995560797276	1.5763437001746
0.45257019182546	0.026231358316017	1.5833193591621
0.45461802074775	0.026230190164376	1.5902091207662
0.45666584967004	0.026009606820215	1.5972216736760
0.45871367859233	0.025738244806019	1.6044796053938
0.46076150751461	0.025618201500870	1.6119356481267
0.46280933643690	0.025745386868541	1.6194067830860
0.46485716535919	0.026044329485278	1.6267016424948
0.46690499428147	0.026321727809270	1.6337525436822
0.46895282320376	0.026400777974176	1.6406610784264
0.47100065212605	0.026242950366627	1.6476265814145
0.47304848104834	0.025973357309947	1.6548078224802
0.47509630997062	0.025793057822551	1.6622138707684
0.47714413889291	0.025839747799430	1.6696991328221
0.47919196781520	0.026093343080646	1.6770650887137
0.48123979673749	0.026391178055651	1.6841976561773
0.48328762565977	0.026541402838868	1.6911451534389
0.48533545458206	0.026455544756996	1.6980836023475
0.48738328350435	0.026208655043580	1.7051942533304
0.48943111242663	0.025986172213199	1.7125385349694
0.49147894134892	0.025955098638595	1.7200166902746
0.49352677027121	0.026148967312888	1.7274379268669
0.49557459919350	0.026445819196280	1.7346527720507
0.49762242811578	0.026653608722353	1.7416558337259
0.49967025703807	0.026643246470886	1.7485883374650
0.50171808596036	0.026437126308631	1.7556395139880
0.50376591488264	0.026192442230205	1.7629156807392
0.50581374380493	0.026091659903019	1.7703675802856
0.50786157272722	0.026216444215800	1.7778256206866
0.50990940164951	0.026492136687577	1.7851178375426
0.51195723057179	0.026740512481464	1.7921885440329
0.51400505949408	0.026803557124535	1.7991358200958
0.51605288841637	0.026652314234669	1.8061426292542
0.51810071733865	0.026405838560180	1.8133499261230
0.52014854626094	0.026247892614392	1.8207597479653
0.52219637518323	0.026299659904627	1.8282349045586
0.52424420410552	0.026536629176905	1.8355947207268
0.52629203302780	0.026806641960954	1.8427400302836
0.52833986195009	0.026935863710975	1.8497209634066
0.53038769087238	0.026848887598831	1.8567012066109
0.53243551979466	0.026620002603804	1.8638441935197
0.53448334871695	0.026420786476710	1.8712003460390
0.53653117763924	0.026400976355748	1.8786731521331
0.53857900656153	0.026585318256647	1.8860868809631
0.54062683548381	0.026857441270020	1.8933084414476
0.54267466440610	0.027041221786122	1.9003388968323
0.54472249332839	0.027022762273001	1.9073117232605
0.54677032225067	0.026828516681245	1.9143997165171
0.54881815117296	0.026605986488157	1.9216954653551
0.55086598009525	0.026521035566024	1.9291480616528
0.55291380901754	0.026643298206387	1.9365992986463
0.55496163793982	0.026898838789618	1.9438936414854
0.55700946686211	0.027122231797579	1.9509855421374
0.55905729578440	0.027171392654385	1.9579700670927
0.56110512470668	0.027025460239385	1.9650162661951
0.56315295362897	0.026798310533549	1.9722499730511
0.56520078255126	0.026658990714943	1.9796672809443
0.56724861147355	0.026714655858278	1.9871381798551
0.56929644039583	0.026937063194710	1.9944971927128
0.57134426931812	0.027183036097583	2.0016578362967
0.57339209824041	0.027294100817453	2.0086717456223
0.57543992716269	0.027205968736784	2.0156920550467
0.57748775608498	0.026992237522996	2.0228669902151
0.57953558500727	0.026812618751956	2.0302376024617
0.58158341392956	0.026802098167446	2.0377101943894
0.58363124285184	0.026977941677639	2.0451219404727
0.58567907177413	0.027228602801755	2.0523537588033
0.58772690069642	0.027391613891471	2.0594122020176
0.58977472961871	0.027366081097399	2.0664240638120
0.59182255854099	0.027181899357575	2.0735480303687
0.59387038746328	0.026978214926536	2.0808649296291
0.59591821638557	0.026906627255775	2.0883224772093
0.59796604530785	0.027026459784678	2.0957722814998
0.60001387423014	0.027264440951370	2.1030729335881
0.60206170315243	0.027466184987367	2.1101875742007
0.60410953207472	0.027503313135527	2.1172086302755
0.60615736099700	0.027361897013551	2.1242931409152
0.60820518991929	0.027151301416537	2.1315539194431
0.61025301884158	0.027027859207507	2.1389819768538
0.61230084776386	0.027086636092750	2.1464535461261
0.61434867668615	0.027296212433602	2.1538162921885
0.61639650560844	0.027521215016094	2.1609946687017
0.61844433453073	0.027616461508602	2.1680415659295
0.62049216345301	0.027527253803460	2.1751009523088
0.62253999237530	0.027326544862016	2.1823078868503
0.62458782129759	0.027163737105584	2.1896953390612
0.62663565021987	0.027161038438171	2.1971720975312
0.62868347914216	0.027329268993499	2.2045865531366
0.63073130806445	0.027561115000889	2.2118317642572
0.63277913698674	0.027705983977730	2.2189190028373
0.63482696590902	0.027674255147887	2.2259692113888
0.63687479483131	0.027498763204495	2.2331287986044
0.63892262375360	0.027311343002772	2.2404683938002
0.64097045267588	0.027251173180317	2.2479345687539
0.64301828159817	0.027368634276973	2.2553875197619
0.64506611052046	0.027591087184440	2.2626981463062
0.64711393944275	0.027773805905866	2.2698371244394
0.64916176836503	0.027800360460550	2.2768945271092
0.65120959728732	0.027662830396360	2.2840168830966
0.65325742620961	0.027466593192182	2.2913056507722
0.65530525513189	0.027356854253475	2.2987474470270
0.65735308405418	0.027418135232813	2.3062240066590
0.65940091297647	0.027616288584727	2.3135944989537
0.66144874189876	0.027822811417325	2.3207929150826
0.66349657082104	0.027904161032155	2.3278731893382
0.66554439974333	0.027814000113588	2.3349712212826
0.66759222866562	0.027624659104985	2.3422105333805
0.66964005758790	0.027476463840241	2.3496170529898
0.67168788651019	0.027480420114428	2.3571018063874
0.67373571543248	0.027641736966802	2.3645230608985
0.67578354435477	0.027856870712622	2.3717845220598
0.67783137327705	0.027985685571261	2.3789015596907
0.67987920219934	0.027948447983254	2.3859899246097
0.68192703112163	0.027780526642635	2.3931852141389
0.68397486004391	0.027607279109934	2.4005491148473
0.68602268896620	0.027556944666270	2.4080272460638
0.68807051788849	0.027672065923107	2.4154874079712
0.69011834681078	0.027880617242993	2.4228113432612
0.69216617573306	0.028046423913709	2.4299763269002
0.69421400465535	0.028063584888813	2.4370702998697
0.69626183357764	0.027929432669235	2.4442304873867
0.69830966249993	0.027745770839712	2.4515483410482
0.70035749142221	0.027647954797518	2.4590066491174
0.70240532034450	0.027711214423313	2.4664920590814
0.70445314926679	0.027899045960597	2.4738739250671
0.70650097818907	0.028089070361218	2.4810946414959
0.70854880711136	0.028158051179261	2.4882090097979
0.71059663603365	0.028067014489383	2.4953457445242
0.71264446495594	0.027887683238159	2.5026181523435
0.71469229387822	0.027752306124264	2.5100459646251
0.71674012280051	0.027761970074628	2.5175422461085
0.71878795172280	0.027916957777801	2.5249740499436
0.72083578064508	0.028117124285342	2.5322545073628
0.72288360956737	0.028231635363652	2.5394025702044
0.72493143848966	0.028189508723296	2.5465293266044
0.72697926741195	0.028028305695445	2.5537607554863
0.72902709633423	0.027867578005177	2.5611506297774
0.73107492525652	0.027825831718215	2.5686437807298
0.73312275417881	0.027938677094607	2.5761148150474
0.73517058310109	0.028134692025441	2.5834551220279
0.73721841202338	0.028285349569877	2.5906478055056
0.73926624094567	0.028294113246149	2.5977788508289
0.74131406986796	0.028162943496924	2.6049771660962
0.74336189879024	0.027990402021908	2.6123253048924
0.74540972771253	0.027903039405842	2.6198026984314
0.74745755663482	0.027967824982624	2.6273004306140
0.74950538555710	0.028146211107156	2.6346969590862
0.75155321447939	0.028321334908273	2.6419421457445
0.75360104340168	0.028379170109987	2.6490915070199
0.75564887232397	0.028287279910434	2.6562672951269
0.75769670124625	0.028116784063648	2.6635736896928
