#Parameters = {offset=2.6683138333226; C_1=23.329215416694; C_2=87.065817235819; Conductivity_MoGr=1000000; Ip=90.137166712181; Pipe_lenght=40; Pipe_r=30; beta=1; cells_wave=20; d=-337.06581723582; half_gap_x=6.6707845833065; half_gap_y=30; half_gap_z=125; offset_x=1; offset_y=5; sigma_z=5; teta=15; thcoll=23.329215416694; translate_z=-212.06581723582; wakelength=20000}
#"Frequency / GHz"	"X [Re / Ohm]"	"X [Im / Ohm]"
#-----------------------------------------------
0.0000000000000	-3.5583562760387e-12	7.8981442449452
0.0020002000200020	9.3593482345271	5.4787390012252
0.0040004000400040	16.242617887200	-1.0507276496471
0.0060006000600060	18.987892093821	-9.7633012313955
0.0080008000800080	17.256044910186	-18.209138673203
0.010001000100010	12.053639238922	-24.242875393455
0.012001200120012	5.2857008317483	-26.689088928596
0.014001400140014	-0.96423219559326	-25.611253090725
0.016001600160016	-5.1373189156041	-22.119495310607
0.018001800180018	-6.6276387435598	-17.836757524712
0.020002000200020	-5.8101320940058	-14.263513554302
0.022002200220022	-3.7136565435377	-12.292746580450
0.024002400240024	-1.5178147269155	-12.034865224464
0.026002600260026	-0.095897115508681	-12.966400968172
0.028002800280028	0.22752633419436	-14.284753738827
0.030003000300030	-0.34837096213604	-15.288148267609
0.032003200320032	-1.3263684189194	-15.622867704180
0.034003400340034	-2.2002372283090	-15.325947749029
0.036003600360036	-2.6709786723741	-14.693065860648
0.038003800380038	-2.7147071340493	-14.070718549091
0.040004000400040	-2.5089418322046	-13.683398626934
0.042004200420042	-2.2866202212022	-13.565555894351
0.044004400440044	-2.2046486696569	-13.603461045427
0.046004600460046	-2.2866672588724	-13.638709437960
0.048004800480048	-2.4496527623387	-13.566372584907
0.050005000500050	-2.5799503301668	-13.379014015245
0.052005200520052	-2.6069644942013	-13.146561485363
0.054005400540054	-2.5355272199448	-12.957713168067
0.056005600560056	-2.4283905541977	-12.863438858994
0.058005800580058	-2.3590557219313	-12.853504030937
0.060006000600060	-2.3673389028836	-12.872590479916
0.062006200620062	-2.4422574228216	-12.859347472018
0.064006400640064	-2.5369199557437	-12.782003806392
0.066006600660066	-2.6012198159722	-12.650905502156
0.068006800680068	-2.6105583650717	-12.504900585807
0.070007000700070	-2.5748666316358	-12.383926788936
0.072007200720072	-2.5261631121130	-12.305953580791
0.074007400740074	-2.4955510081420	-12.260872341661
0.076007600760076	-2.4948841009175	-12.222015431995
0.078007800780078	-2.5131349880727	-12.165571666318
0.080008000800080	-2.5272543657790	-12.085054537258
0.082008200820082	-2.5187448591305	-11.992887183315
0.084008400840084	-2.4850619943210	-11.910041298796
0.086008600860086	-2.4396182642948	-11.851708775935
0.088008800880088	-2.4018962942237	-11.818280243910
0.090009000900090	-2.3849584908119	-11.796465362048
0.092009200920092	-2.3882800046693	-11.768627527170
0.094009400940094	-2.3996127409456	-11.723672289686
0.096009600960096	-2.4036608495362	-11.662710324966
0.098009800980098	-2.3914942022376	-11.596710098358
0.10001000100010	-2.3649188269184	-11.538549509893
0.10201020102010	-2.3337871270405	-11.494983510120
0.10401040104010	-2.3087728885240	-11.463428387964
0.10601060106011	-2.2946045984411	-11.434931988419
0.10801080108011	-2.2878788955297	-11.400739810535
0.11001100110011	-2.2802740968694	-11.357948249655
0.11201120112011	-2.2645452220587	-11.310808051847
0.11401140114011	-2.2392352303328	-11.267319471283
0.11601160116012	-2.2092619069217	-11.233735111407
0.11801180118012	-2.1824015857358	-11.210630730736
0.12001200120012	-2.1642523402108	-11.192868751784
0.12201220122012	-2.1549631986791	-11.173128660528
0.12401240124012	-2.1496074499174	-11.146485785650
0.12601260126013	-2.1416350510211	-11.113102371545
0.12801280128013	-2.1269777448756	-11.077543246476
0.13001300130013	-2.1062035695044	-11.045466828321
0.13201320132013	-2.0835784116179	-11.020003973428
0.13401340134013	-2.0639297272681	-11.000111427653
0.13601360136014	-2.0494973959136	-10.981734387670
0.13801380138014	-2.0387600867652	-10.960770530108
0.14001400140014	-2.0277980090551	-10.935784239963
0.14201420142014	-2.0130981011062	-10.908759527384
0.14401440144014	-1.9938853947209	-10.883570651814
0.14601460146015	-1.9725220289843	-10.863326644573
0.14801480148015	-1.9528588868452	-10.848371291266
0.15001500150015	-1.9377345934339	-10.836167994585
0.15201520152015	-1.9272683011325	-10.823011466054
0.15401540154015	-1.9189680956280	-10.806356106916
0.15601560156016	-1.9094536892975	-10.786251587181
0.15801580158016	-1.8965889351811	-10.765053393904
0.16001600160016	-1.8806537952990	-10.745727765379
0.16201620162016	-1.8638983067029	-10.729932498101
0.16401640164016	-1.8488956670358	-10.717103993901
0.16601660166017	-1.8368402543946	-10.705046434543
0.16801680168017	-1.8268827857207	-10.691524894082
0.17001700170017	-1.8168502367439	-10.675760742432
0.17201720172017	-1.8047859124517	-10.658870397667
0.17401740174017	-1.7902578997600	-10.643033590239
0.17601760176018	-1.7746030322963	-10.630007967765
0.17801780178018	-1.7600106792805	-10.619987334235
0.18001800180018	-1.7481009533042	-10.611518361913
0.18201820182018	-1.7389354990497	-10.602469178013
0.18401840184018	-1.7310651994676	-10.591371846334
0.18601860186019	-1.7225207367736	-10.578264689537
0.18801880188019	-1.7120579811966	-10.564534285158
0.19001900190019	-1.6998529723930	-10.551925816671
0.19201920192019	-1.6872451816678	-10.541408570345
0.19401940194019	-1.6757616718321	-10.532629502193
0.19601960196020	-1.6660989816019	-10.524262426723
0.19801980198020	-1.6577218250778	-10.514965347819
0.20002000200020	-1.6492981759149	-10.504285469744
0.20202020202020	-1.6396367843496	-10.492926041485
0.20402040204020	-1.6284879003894	-10.482236470926
0.20602060206021	-1.6166924048026	-10.473297619921
0.20802080208021	-1.6056137287176	-10.466215992401
0.21002100210021	-1.5962534934716	-10.460073486360
0.21202120212021	-1.5886347406261	-10.453533892928
0.21402140214021	-1.5818341216165	-10.445685271182
0.21602160216022	-1.5746079310922	-10.436568641228
0.21802180218022	-1.5661797377055	-10.427074602244
0.22002200220022	-1.5566785768537	-10.418312124143
0.22202220222022	-1.5469703420042	-10.410885747127
0.22402240224022	-1.5380296924694	-10.404550370014
0.22602260226023	-1.5302868248502	-10.398442024114
0.22802280228023	-1.5233744537587	-10.391699534338
0.23002300230023	-1.5164171662006	-10.384049099971
0.23202320232023	-1.5086453475379	-10.375970824808
0.23402340234023	-1.4999156901008	-10.368357554689
0.23602360236024	-1.4908011163757	-10.361911179845
0.23802380238024	-1.4822084067806	-10.356681124149
0.24002400240024	-1.4747902588256	-10.352039504631
0.24202420242024	-1.4685398607150	-10.347091775548
0.24402440244024	-1.4628209051066	-10.341240572878
0.24602460246025	-1.4567938892543	-10.334534816561
0.24802480248025	-1.4499466411938	-10.327591836254
0.25002500250025	-1.4423846199999	-10.321165239641
0.25202520252025	-1.4347087667971	-10.315655274123
0.25402540254025	-1.4275834240340	-10.310879869523
0.25602560256026	-1.4212916252761	-10.306239396912
0.25802580258026	-1.4155678199431	-10.301146157627
0.26002600260026	-1.4098032194550	-10.295424000386
0.26202620262026	-1.4034715691302	-10.289416988083
0.26402640264026	-1.3964861172123	-10.283747706155
0.26602660266027	-1.3892557591809	-10.278897108593
0.26802680268027	-1.3824139834066	-10.274887278226
0.27002700270027	-1.3764083434670	-10.271270411383
0.27202720272027	-1.3712214344887	-10.267420491674
0.27402740274027	-1.3663983696076	-10.262928183875
0.27602760276028	-1.3613504354757	-10.257841012842
0.27802780278028	-1.3557276939391	-10.252601880207
0.28002800280028	-1.3496181774922	-10.247740195591
0.28202820282028	-1.3434545948073	-10.243527073429
0.28402840284028	-1.3377043232510	-10.239819228131
0.28602860286029	-1.3325554271827	-10.236183121818
0.28802880288029	-1.3278041211017	-10.232204303721
0.29002900290029	-1.3230084462778	-10.227770266915
0.29202920292029	-1.3177960441906	-10.223141409807
0.29402940294029	-1.3121174036447	-10.218770819383
0.29602960296030	-1.3062794107120	-10.214999588922
0.29802980298030	-1.3007435942563	-10.211831356499
0.30003000300030	-1.2958276159400	-10.208931049977
0.30203020302030	-1.2915067916533	-10.205841875703
0.30403040304030	-1.2874405390181	-10.202273110382
0.30603060306031	-1.2831983432595	-10.198270856601
0.30803080308031	-1.2785318003659	-10.194166953799
0.31003100310031	-1.2735158269134	-10.190348963098
0.31203120312031	-1.2684743554388	-10.187008072618
0.31403140314031	-1.2637492594895	-10.184029214811
0.31603160316032	-1.2594705965726	-10.181088034206
0.31803180318032	-1.2554786216224	-10.177881670201
0.32003200320032	-1.2514425691456	-10.174335781531
0.32203220322032	-1.2470904441677	-10.170651901770
0.32403240324032	-1.2423942647906	-10.167168938429
0.32603260326033	-1.2375896756075	-10.164135541545
0.32803280328033	-1.2330213311707	-10.161545445852
0.33003300330033	-1.2289197417693	-10.159141972505
0.33203320332033	-1.2252567318867	-10.156584167098
0.33403340334033	-1.2217707758514	-10.153662069875
0.33603360336034	-1.2181400610541	-10.150420489883
0.33803380338034	-1.2141860951624	-10.147115020506
0.34003400340034	-1.2099752728357	-10.144035694773
0.34203420342034	-1.2057572413906	-10.141318214309
0.34403440344034	-1.2017874983201	-10.138865986313
0.34603460346035	-1.1981552801352	-10.136429035168
0.34803480348035	-1.1947296701054	-10.133781445807
0.35003500350035	-1.1912551580723	-10.130876491273
0.35203520352035	-1.1875285706098	-10.127877396324
0.35403540354035	-1.1835379001762	-10.125046744164
0.35603560356036	-1.1794721307925	-10.122571011468
0.35803580358036	-1.1755984093051	-10.120437193390
0.36003600360036	-1.1720899182616	-10.118441169716
0.36203620362036	-1.1689177067525	-10.116319202476
0.36403640364036	-1.1658747950504	-10.113913996628
0.36603660366037	-1.1627127905631	-10.111267027755
0.36803680368037	-1.1592988786259	-10.108580284468
0.37003700370037	-1.1556910724469	-10.106077324325
0.37203720372037	-1.1520864739570	-10.103857858797
0.37403740374037	-1.1486816851008	-10.101840751035
0.37603760376038	-1.1455404073405	-10.099829020910
0.37803780378038	-1.1425551027277	-10.097649312282
0.38003800380038	-1.1395248113499	-10.095271002996
0.38203820382038	-1.1362940564365	-10.092826575126
0.38403840384038	-1.1328591497422	-10.090522231893
0.38603860386039	-1.1293722502120	-10.088500335804
0.38803880388039	-1.1260425851449	-10.086745327306
0.39003900390039	-1.1230017390976	-10.085093914126
0.39203920392039	-1.1202216959636	-10.083340501404
0.39403940394039	-1.1175374654827	-10.081366899986
0.39603960396040	-1.1147564694885	-10.079211588805
0.39803980398040	-1.1117809293892	-10.077035787104
0.40004000400040	-1.1086634447691	-10.075012192782
0.40204020402040	-1.1055622296829	-10.073211798094
0.40404040404040	-1.1026292108369	-10.071562864722
0.40604060406041	-1.0999070811672	-10.069906343530
0.40804080408041	-1.0973030639331	-10.068107842070
0.41004100410041	-1.0946545593940	-10.066150179830
0.41204120412041	-1.0918407944930	-10.064145472914
0.41404140414041	-1.0888653826134	-10.062260340760
0.41604160416042	-1.0858556263428	-10.060605266039
0.41804180418042	-1.0829803832667	-10.059161598343
0.42004200420042	-1.0803417145256	-10.057793368295
0.42204220422042	-1.0779114181527	-10.056334510552
0.42404240424042	-1.0755525084259	-10.054693130120
0.42604260426043	-1.0731093158462	-10.052904924868
0.42804280428043	-1.0705057276968	-10.051102942558
0.43004300430043	-1.0677876979723	-10.049426321493
0.43204320432043	-1.0650845810014	-10.047929677322
0.43404340434043	-1.0625177323318	-10.046552302321
0.43604360436044	-1.0601184352965	-10.045165177070
0.43804380438044	-1.0578091035960	-10.043662056786
0.44004400440044	-1.0554583839706	-10.042032831695
0.44204420442044	-1.0529716676973	-10.040370745338
0.44404440444044	-1.0503560469890	-10.038809974703
0.44604460446045	-1.0477169997473	-10.037436178528
0.44804480448045	-1.0451900240206	-10.036229567473
0.45004500450045	-1.0428531934907	-10.035077428700
0.45204520452045	-1.0406781653330	-10.033846677891
0.45404540454045	-1.0385507181516	-10.032467926939
0.45604560456046	-1.0363457229524	-10.030976205294
0.45804580458046	-1.0340063234286	-10.029483200522
0.46004600460046	-1.0315757665907	-10.028101284018
0.46204620462046	-1.0291627821028	-10.026870495988
0.46404640464046	-1.0268654936417	-10.025736192280
0.46604660466047	-1.0247053316965	-10.024590382444
0.46804680468047	-1.0226143742627	-10.023347488849
0.47004700470047	-1.0204831393457	-10.022003316388
0.47204720472047	-1.0182357334399	-10.020638354268
0.47404740474047	-1.0158819001488	-10.019364187523
0.47604760476048	-1.0135117907214	-10.018249404076
0.47804780478048	-1.0112377055843	-10.017274209200
0.48004800480048	-1.0091218618698	-10.016343137898
0.48204820482048	-1.0071376386232	-10.015346554102
0.48404840484048	-1.0051888286504	-10.014229889001
0.48604860486049	-1.0031729524189	-10.013025465985
0.48804880488049	-1.0010462701164	-10.011827328140
0.49004900490049	-0.99884816126803	-10.010727243607
0.49204920492049	-0.99667031113201	-10.009754948039
0.49404940494049	-0.99459274318625	-10.008861680093
0.49604960496050	-0.99262991751191	-10.007956516183
0.49804980498050	-0.99072233546336	-10.006969956123
0.50005000500050	-0.98877816325901	-10.005901834586
0.50205020502050	-0.98673620309628	-10.004821952472
0.50405040504050	-0.98460799283999	-10.003823731995
0.50605060506051	-0.98247138512127	-10.002962237513
0.50805080508051	-0.98042044342599	-10.002217663842
0.51005100510051	-0.97850514161097	-10.001507912642
0.51205120512051	-0.97670041346383	-10.000741232899
0.51405140514051	-0.97492407959499	-9.9998738686068
0.51605160516052	-0.97309080157882	-9.9989351822518
0.51805180518052	-0.97116600901914	-9.9980048972330
0.52005200520052	-0.96918473128174	-9.9971588009128
0.52205220522052	-0.96722422378642	-9.9964194369460
0.52405240524052	-0.96534992293092	-9.9957440040258
0.52605260526053	-0.96357128693362	-9.9950562861508
0.52805280528053	-0.96183659891193	-9.9943001733381
0.53005300530053	-0.96006931347946	-9.9934785595074
0.53205320532053	-0.95822090870126	-9.9926518624444
0.53405340534053	-0.95630470480280	-9.9918976839665
0.53605360536054	-0.95438830716298	-9.9912588774531
0.53805380538054	-0.95255004975768	-9.9907145582756
0.54005400540054	-0.95082849878990	-9.9901929441509
0.54205420542054	-0.94919819587965	-9.9896170955887
0.54405440544054	-0.94758703803033	-9.9889531891330
0.54605460546055	-0.94592313258264	-9.9882298778259
0.54805480548055	-0.94417994470535	-9.9875168778266
0.55005500550055	-0.94239040049130	-9.9868778722844
0.55205520552055	-0.94062167112348	-9.9863292738913
0.55405540554055	-0.93892838652997	-9.9858317432259
0.55605560556056	-0.93731578549456	-9.9853191266955
0.55805580558056	-0.93573700633804	-9.9847446651568
0.56005600560056	-0.93412560846338	-9.9841133321169
0.56205620562056	-0.93244104812904	-9.9834789537776
0.56405640564056	-0.93069662649060	-9.9829084742165
0.56605660566057	-0.92895150681149	-9.9824374533039
0.56805680568057	-0.92727241865283	-9.9820463332277
0.57005700570057	-0.92569057786716	-9.9816728873002
0.57205720572057	-0.92418210990306	-9.9812522306586
0.57405740574057	-0.92268436775690	-9.9807578303522
0.57605760576058	-0.92113679074505	-9.9802167933369
0.57805780578058	-0.91951912121662	-9.9796901003417
0.58005800580058	-0.91786213563243	-9.9792316147567
0.58205820582058	-0.91622465221825	-9.9788532842945
0.58405840584058	-0.91465288146285	-9.9785192262256
0.58605860586059	-0.91314943451569	-9.9781718296581
0.58805880588059	-0.91167231534280	-9.9777718013591
0.59005900590059	-0.91016396664620	-9.9773252330873
0.59205920592059	-0.90859053332675	-9.9768798707235
0.59405940594059	-0.90696507546083	-9.9764934719077
0.59605960596060	-0.90533949913441	-9.9761955720541
0.59805980598060	-0.90377087993642	-9.9759680179258
0.60006000600060	-0.90228466392501	-9.9757568657857
0.60206020602060	-0.90085893281377	-9.9755073908239
0.60406040604060	-0.89943966135163	-9.9751989032689
0.60606060606061	-0.89797635841065	-9.9748566273692
0.60806080608061	-0.89645431360722	-9.9745334171773
0.61006100610061	-0.89490240829499	-9.9742740564992
0.61206120612061	-0.89337199176056	-9.9740860732298
0.61406140614061	-0.89190150498154	-9.9739361822990
0.61606160616062	-0.89049065184416	-9.9737741311254
0.61806180618062	-0.88910113571956	-9.9735675321297
0.62006200620062	-0.88768305878331	-9.9733242580011
0.62206220622062	-0.88620905433650	-9.9730875875185
0.62406240624062	-0.88469332718584	-9.9729075741818
0.62606260626063	-0.88318305598254	-9.9728078301814
0.62806280628063	-0.88172803927020	-9.9727697295088
0.63006300630063	-0.88034875314207	-9.9727442777815
0.63206320632063	-0.87902377122605	-9.9726835520839
0.63406340634063	-0.87770447157549	-9.9725708784740
0.63606360636064	-0.87634692358379	-9.9724300893716
0.63806380638064	-0.87493976969930	-9.9723082847791
0.64006400640064	-0.87350996871620	-9.9722440177506
0.64206420642064	-0.87210319386274	-9.9722421529960
0.64406440644064	-0.87075243588920	-9.9722718060204
0.64606460646065	-0.86945586991005	-9.9722882011635
0.64806480648065	-0.86817851415916	-9.9722634485932
0.65006500650065	-0.86687619130523	-9.9722055915815
0.65206520652065	-0.86552553545370	-9.9721533759053
0.65406540654065	-0.86414000569936	-9.9721504681246
0.65606560656066	-0.86276139540691	-9.9722164172414
0.65806580658066	-0.86143266537562	-9.9723335938255
0.66006600660066	-0.86017018452455	-9.9724585484952
0.66206620662066	-0.85895360541904	-9.9725500259685
0.66406640664066	-0.85773972506908	-9.9725950290412
0.66606660666067	-0.85649080690586	-9.9726159176378
0.66806680668067	-0.85519850273366	-9.9726543046091
0.67006700670067	-0.85388776808491	-9.9727428628591
0.67206720672067	-0.85259865805150	-9.9728839139489
0.67406740674067	-0.85135854771848	-9.9730488292627
0.67606760676068	-0.85016343986547	-9.9731982399101
0.67806780678068	-0.84898069127661	-9.9733092423011
0.68006800680068	-0.84777108304660	-9.9733913327589
0.68206820682068	-0.84651532758775	-9.9734805178078
0.68406840684068	-0.84522731466974	-9.9736156546510
0.68606860686069	-0.84394536242973	-9.9738128231165
0.68806880688069	-0.84270737655901	-9.9740546858777
0.69006900690069	-0.84152638570459	-9.9743017312251
0.69206920692069	-0.84038248978775	-9.9745178031249
0.69406940694069	-0.83923626141975	-9.9746930277293
0.69606960696070	-0.83805447693314	-9.9748492036194
0.69806980698070	-0.83683110642420	-9.9750244837919
0.70007000700070	-0.83558990973002	-9.9752478433296
0.70207020702070	-0.83436734317531	-9.9755203582087
0.70407040704070	-0.83318749262154	-9.9758155181289
0.70607060706071	-0.83204581551994	-9.9760980017192
0.70807080708071	-0.83091237204778	-9.9763481246432
0.71007100710071	-0.82975214924958	-9.9765755929895
0.71207120712071	-0.82854877399864	-9.9768134966148
0.71407140714071	-0.82731582016650	-9.9770966815187
0.71607160716072	-0.82608829874624	-9.9774389393390
0.71807180718072	-0.82490009677920	-9.9778240793974
0.72007200720072	-0.82376233376421	-9.9782166196308
0.72207220722072	-0.82265681043627	-9.9785848416109
0.72407240724072	-0.82154859653949	-9.9789209267565
0.72607260726073	-0.82040915748822	-9.9792450529195
0.72807280728073	-0.81923463669804	-9.9795911076035
0.73007300730073	-0.81804738083776	-9.9799838246556
0.73207320732073	-0.81688007338452	-9.9804226310064
0.73407340734073	-0.81575335806119	-9.9808827781864
0.73607360736074	-0.81466196914605	-9.9813326964322
0.73807380738074	-0.81357850973480	-9.9817557476454
0.74007400740074	-0.81247216115957	-9.9821617813288
0.74207420742074	-0.81132970168087	-9.9825808459537
