#Parameters = {Conductivity_Mo=17900000; offset=1.0022162318482; C_1=27.494459420379; C_2=102.6107194835; Ip=106.230433736; Pipe_lenght=40; Pipe_r=30; beta=1; cells_wave=20; d=-402.6107194835; half_gap_x=30; half_gap_y=2.5055405796205; half_gap_z=150; mu_copper=0.999994; offset_x=5; offset_y=1; sigma_z=5; teta=15; thcoll=27.494459420379; translate_z=-252.6107194835; wakelength=20000}
#"Frequency / GHz"	"Y [Re / Ohm]"	"Y [Im / Ohm]"
#-----------------------------------------------
0.0000000000000	1.3012869669497e-11	-196.29510925455
0.0020002000200020	-40.353211635398	-186.27278399878
0.0040004000400040	-70.480025386280	-159.21745351785
0.0060006000600060	-83.521222396203	-123.09083187936
0.0080008000800080	-78.086642778222	-88.010006297583
0.010001000100010	-58.345990900275	-62.824918625473
0.012001200120012	-32.174277215062	-52.368319659551
0.014001400140014	-8.1706697920301	-56.349041637094
0.016001600160016	7.2497115896260	-70.154818188137
0.018001800180018	11.621978997907	-87.067247559254
0.020002000200020	6.5384731750350	-100.89268879622
0.022002200220022	-3.7128495132612	-107.96632794459
0.024002400240024	-14.236331804553	-107.86939035145
0.026002600260026	-21.420759117712	-102.80469228752
0.028002800280028	-23.938232825028	-96.120923226624
0.030003000300030	-22.633395560971	-90.736554134726
0.032003200320032	-19.581840286668	-88.117807340137
0.034003400340034	-16.888954742885	-88.106809251224
0.036003600360036	-15.794029025969	-89.474463726788
0.038003800380038	-16.391939147285	-90.785365260012
0.040004000400040	-17.942644389918	-91.114914449230
0.042004200420042	-19.479423173061	-90.329684633479
0.044004400440044	-20.354911589903	-88.911040162737
0.046004600460046	-20.477526379224	-87.523531290331
0.048004800480048	-20.199190045602	-86.606794103518
0.050005000500050	-19.998141784428	-86.193401222361
0.052005200520052	-20.172331903466	-85.993628378358
0.054005400540054	-20.705278337178	-85.639819869559
0.056005600560056	-21.339500723758	-84.921472448443
0.058005800580058	-21.773080286226	-83.882555999192
0.060006000600060	-21.844438969558	-82.754053009015
0.062006200620062	-21.603194036478	-81.791322961506
0.064006400640064	-21.247851067684	-81.126082048930
0.066006600660066	-20.989623454174	-80.714584658988
0.068006800680068	-20.933027901882	-80.394618508874
0.070007000700070	-21.038625840169	-79.999741403031
0.072007200720072	-21.175085042403	-79.455184420975
0.074007400740074	-21.215061822597	-78.803084229575
0.076007600760076	-21.111489190854	-78.154333124937
0.078007800780078	-20.912562336331	-77.607648939337
0.080008000800080	-20.716388071480	-77.189350355772
0.082008200820082	-20.601896505309	-76.846837019796
0.084008400840084	-20.581353888469	-76.491817090355
0.086008600860086	-20.600365527257	-76.060028120230
0.088008800880088	-20.579068129285	-75.548834862185
0.090009000900090	-20.464156218067	-75.012588917417
0.092009200920092	-20.258743582856	-74.523787421653
0.094009400940094	-20.014633002517	-74.127761452030
0.096009600960096	-19.796237331115	-73.819107517239
0.098009800980098	-19.641427723509	-73.551447602746
0.10001000100010	-19.543361732369	-73.270490246589
0.10201020102010	-19.461680670489	-72.947438758138
0.10401040104010	-19.352569284227	-72.592360740254
0.10601060106011	-19.196904525594	-72.241825995575
0.10801080108011	-19.009349212273	-71.931589205600
0.11001100110011	-18.824982137170	-71.673072741593
0.11201120112011	-18.674358175320	-71.447945147767
0.11401140114011	-18.563908384221	-71.222286099185
0.11601160116012	-18.473495909119	-70.969457097471
0.11801180118012	-18.371041303493	-70.686453354545
0.12001200120012	-18.233477342801	-70.394065729015
0.12201220122012	-18.060364110560	-70.122204223233
0.12401240124012	-17.872350441670	-69.890854493012
0.12601260126013	-17.696826594475	-69.698878217687
0.12801280128013	-17.550855309782	-69.526848095108
0.13001300130013	-17.432207825374	-69.350800887383
0.13201320132013	-17.323259745886	-69.157295454637
0.13401340134013	-17.204030169301	-68.950265440549
0.13601360136014	-17.065281211365	-68.746191307099
0.13801380138014	-16.913407584398	-68.561776011948
0.14001400140014	-16.764777927589	-68.402651830741
0.14201420142014	-16.634070851881	-68.260238622524
0.14401440144014	-16.524572657970	-68.118095470008
0.14601460146015	-16.426506588922	-67.962964134825
0.14801480148015	-16.323880466594	-67.793096506676
0.15001500150015	-16.204891092990	-67.618747144471
0.15201520152015	-16.069038420476	-67.455062338801
0.15401540154015	-15.926691936492	-67.312391129457
0.15601560156016	-15.791934986223	-67.190297031357
0.15801580158016	-15.673688593443	-67.078741498283
0.16001600160016	-15.570816101322	-66.965123944213
0.16201620162016	-15.473954705260	-66.842272716707
0.16401640164016	-15.372353902225	-66.712267000019
0.16601660166017	-15.260964061181	-66.584013960031
0.16801680168017	-15.143229072575	-66.466637014054
0.17001700170017	-15.028122958419	-66.363247959668
0.17201720172017	-14.923761863654	-66.269095143259
0.17401740174017	-14.831956676389	-66.174991841598
0.17601760176018	-14.747174414085	-66.073476255088
0.17801780178018	-14.660321140866	-65.963563907324
0.18001800180018	-14.564640000298	-65.851114740957
0.18201820182018	-14.459829877840	-65.744827848163
0.18401840184018	-14.351865693058	-65.650668836050
0.18601860186019	-14.248897314670	-65.568359546134
0.18801880188019	-14.156075520183	-65.492017235487
0.19001900190019	-14.072650795993	-65.414255804301
0.19201920192019	-13.993022683999	-65.330904118423
0.19401940194019	-13.910786516118	-65.243293917144
0.19601960196020	-13.822972480214	-65.156827644273
0.19801980198020	-13.731734204857	-65.077007232913
0.20002000200020	-13.642561287314	-65.005662242099
0.20202020202020	-13.560389819591	-64.939817722068
0.20402040204020	-13.486262355478	-64.873792068528
0.20602060206021	-13.416684210957	-64.802992971722
0.20802080208021	-13.345964279923	-64.726864672534
0.21002100210021	-13.269887504508	-64.649121055501
0.21202120212021	-13.188294676258	-64.575243326909
0.21402140214021	-13.104973758004	-64.508978614969
0.21602160216022	-13.025074705216	-64.450122948726
0.21802180218022	-12.951832159308	-64.394924472580
0.22002200220022	-12.884721196358	-64.338691414668
0.22202220222022	-12.820130107743	-64.278803042016
0.22402240224022	-12.753956358841	-64.216170568877
0.22602260226023	-12.684330962330	-64.154307471301
0.22802280228023	-12.612698723731	-64.096759597371
0.23002300230023	-12.542646104126	-64.044664204715
0.23202320232023	-12.477362760299	-63.996027598098
0.23402340234023	-12.417465406207	-63.947112467612
0.23602360236024	-12.360593067756	-63.894935127574
0.23802380238024	-12.302966466487	-63.839198012414
0.24002400240024	-12.241821720874	-63.782424393201
0.24202420242024	-12.177111560228	-63.728280284445
0.24402440244024	-12.111412425892	-63.679238687899
0.24602460246025	-12.048179909074	-63.635110762014
0.24802480248025	-11.989549276595	-63.593337674739
0.25002500250025	-11.935109697303	-63.550761263038
0.25202520252025	-11.882380830713	-63.505655994649
0.25402540254025	-11.828585893259	-63.458700962444
0.25602560256026	-11.772499874503	-63.412324973798
0.25802580258026	-11.715166546167	-63.368940998085
0.26002600260026	-11.659073511814	-63.329281849699
0.26202620262026	-11.606398562979	-63.291925102729
0.26402640264026	-11.557518843617	-63.254270389893
0.26602660266027	-11.510752256914	-63.214273280627
0.26802680268027	-11.463458043239	-63.171774796101
0.27002700270027	-11.413734183200	-63.128574228214
0.27202720272027	-11.361591776959	-63.087241633086
0.27402740274027	-11.308869555581	-63.049481984358
0.27602760276028	-11.257995319437	-63.015118760960
0.27802780278028	-11.210439466515	-62.982319324859
0.28002800280028	-11.165865718345	-62.948856482770
0.28202820282028	-11.122487523746	-62.913542544558
0.28402840284028	-11.078335738255	-62.876902387941
0.28602860286029	-11.032567456060	-62.840689746442
0.28802880288029	-10.985960428528	-62.806620945646
0.29002900290029	-10.940307154105	-62.775192981508
0.29202920292029	-10.897153717985	-62.745360176026
0.29402940294029	-10.856738937044	-62.715250559090
0.29602960296030	-10.817825639282	-62.683415926272
0.29802980298030	-10.778507671647	-62.649778994696
0.30003000300030	-10.737436715748	-62.615668055153
0.30203020302030	-10.694659228733	-62.582944610906
0.30403040304030	-10.651535746489	-62.552817911335
0.30603060306031	-10.609828510984	-62.525120905172
0.30803080308031	-10.570577598985	-62.498493594733
0.31003100310031	-10.533496896960	-62.471315248553
0.31203120312031	-10.497253995517	-62.442749601737
0.31403140314031	-10.460409787180	-62.413221769023
0.31603160316032	-10.422375076750	-62.384044353172
0.31803180318032	-10.383758033604	-62.356476343600
0.32003200320032	-10.345899925787	-62.330857071135
0.32203220322032	-10.309935707231	-62.306383306064
0.32403240324032	-10.276015087344	-62.281655389237
0.32603260326033	-10.243192768152	-62.255609996169
0.32803280328033	-10.210041922646	-62.228216479288
0.33003300330033	-10.175570780392	-62.200487926367
0.33203320332033	-10.139838018275	-62.173818877661
0.33403340334033	-10.103878182991	-62.149098870365
0.33603360336034	-10.069009173533	-62.126180923742
0.33803380338034	-10.035991396093	-62.104033171556
0.34003400340034	-10.004586286282	-62.081446963884
0.34203420342034	-9.9737812896592	-62.057819133496
0.34403440344034	-9.9425047453226	-62.033497488659
0.34603460346035	-9.9103421798384	-62.009483651415
0.34803480348035	-9.8777837297497	-61.986715257155
0.35003500350035	-9.8458570671209	-61.965416860137
0.35203520352035	-9.8154086761041	-61.944946846727
0.35403540354035	-9.7865190313876	-61.924228062132
0.35603560356036	-9.7584349266780	-61.902463803888
0.35803580358036	-9.7300523422083	-61.879661978545
0.36003600360036	-9.7006221872337	-61.856628663068
0.36203620362036	-9.6702149204851	-61.834447637310
0.36403640364036	-9.6396501678592	-61.813796131429
0.36603660366037	-9.6099534007364	-61.794542415408
0.36803680368037	-9.5817057924293	-61.775873603636
0.37003700370037	-9.5547094311162	-61.756850161162
0.37203720372037	-9.5281700032037	-61.737011191096
0.37403740374037	-9.5012554757662	-61.716636199835
0.37603760376038	-9.4736501417818	-61.696507926142
0.37803780378038	-9.4457409094205	-61.677352485990
0.38003800380038	-9.4183267578731	-61.659338040549
0.38203820382038	-9.3920590735489	-61.641961870246
0.38403840384038	-9.3669910784777	-61.624390057703
0.38603860386039	-9.3425319758798	-61.606014472820
0.38803880388039	-9.3178276458971	-61.586855305496
0.39003900390039	-9.2923095533309	-61.567548238646
0.39203920392039	-9.2660502581097	-61.548933623536
0.39403940394039	-9.2396997020169	-61.531523971255
0.39603960396040	-9.2140554924208	-61.515197284164
0.39803980398040	-9.1895563626900	-61.499306459081
0.40004000400040	-9.1660283334610	-61.483118773300
0.40204020402040	-9.1428376156297	-61.466288101169
0.40404040404040	-9.1193342077952	-61.449051792723
0.40604060406041	-9.0952846534050	-61.432034726064
0.40804080408041	-9.0710099756758	-61.415804145662
0.41004100410041	-9.0471476016885	-61.400477706936
0.41204120412041	-9.0242058337586	-61.385642942277
0.41404140414041	-9.0022113026202	-61.370634140221
0.41604160416042	-8.9806809570503	-61.354976195525
0.41804180418042	-8.9589313036357	-61.338699790447
0.42004200420042	-8.9365161893645	-61.322323478055
0.42204220422042	-8.9135052873153	-61.306520785160
0.42404240424042	-8.8904263833455	-61.291695285770
0.42604260426043	-8.8679178396010	-61.277740463491
0.42804280428043	-8.8463243567947	-61.264133204626
0.43004300430043	-8.8254986199063	-61.250288661439
0.43204320432043	-8.8049290001164	-61.235936936005
0.43404340434043	-8.7840972323019	-61.221276085927
0.43604360436044	-8.7628232701131	-61.206810373663
0.43804380438044	-8.7413710954144	-61.192991772789
0.44004400440044	-8.7202534292259	-61.179908159910
0.44204420442044	-8.6998733024676	-61.167223722675
0.44404440444044	-8.6802442776699	-61.154405374144
0.44604460446045	-8.6609733908887	-61.141079619665
0.44804480448045	-8.6415137814153	-61.127281934283
0.45004500450045	-8.6215166733502	-61.113436445446
0.45204520452045	-8.6010509862798	-61.100083881430
0.45404540454045	-8.5805505666645	-61.087539739319
0.45604560456046	-8.5605298992645	-61.075705620592
0.45804580458046	-8.5412586308629	-61.064151116958
0.46004600460046	-8.5226065095162	-61.052404384167
0.46204620462046	-8.5041530049563	-61.040255700810
0.46404640464046	-8.4854804084280	-61.027876058868
0.46604660466047	-8.4664519153923	-61.015679990730
0.46804680468047	-8.4472921795360	-61.004031647490
0.47004700470047	-8.4284229765237	-60.992993281110
0.47204720472047	-8.4101691961869	-60.982282021333
0.47404740474047	-8.3925331097559	-60.971459469564
0.47604760476048	-8.3751855240566	-60.960224594464
0.47804780478048	-8.3576766522155	-60.948615013330
0.48004800480048	-8.3397251843131	-60.936985692628
0.48204820482048	-8.3213956408334	-60.925782411054
0.48404840484048	-8.3030510089885	-60.915260909697
0.48604860486049	-8.2851165532905	-60.905334509978
0.48804880488049	-8.2678124732937	-60.895644813325
0.49004900490049	-8.2510288898084	-60.885802543506
0.49204920492049	-8.2344188983843	-60.875636570706
0.49404940494049	-8.2176409908747	-60.865288879436
0.49604960496050	-8.2005866807556	-60.855098999502
0.49804980498050	-8.1834438395971	-60.845361200479
0.50005000500050	-8.1665585705851	-60.836119119811
0.50205020502050	-8.1501922919982	-60.827133606220
0.50405040504050	-8.1343377499734	-60.818042089242
0.50605060506051	-8.1187155250594	-60.808600928356
0.50805080508051	-8.1029514198572	-60.798849406095
0.51005100510051	-8.0868161672997	-60.789088268347
0.51205120512051	-8.0703700874640	-60.779689066090
0.51405140514051	-8.0539202841913	-60.770860722799
0.51605160516052	-8.0378218917198	-60.762524975365
0.51805180518052	-8.0222554200806	-60.754378082645
0.52005200520052	-8.0071243010147	-60.746093314261
0.52205220522052	-7.9921345954413	-60.737528637227
0.52405240524052	-7.9769984817193	-60.728804714395
0.52605260526053	-7.9616241866648	-60.720207048286
0.52805280528053	-7.9461680048281	-60.711982592173
0.53005300530053	-7.9309181388272	-60.704168478592
0.53205320532053	-7.9160916343221	-60.696565819661
0.53405340534053	-7.9016811454818	-60.688873244719
0.53605360536054	-7.8874526087836	-60.680889152463
0.53805380538054	-7.8730936031721	-60.672648050515
0.54005400540054	-7.8584131258901	-60.664402033967
0.54205420542054	-7.8434615776143	-60.656461505812
0.54405440544054	-7.8284943596605	-60.649000910967
0.54605460546055	-7.8138059694040	-60.641955806688
0.54805480548055	-7.7995450435327	-60.635075206424
0.55005500550055	-7.7856302754389	-60.628090536610
0.55205520552055	-7.7718180998340	-60.620887775023
0.55405540554055	-7.7578725551223	-60.613570619848
0.55605560556056	-7.7437223387576	-60.606377168571
0.55805580558056	-7.7295017504688	-60.599509885252
0.56005600560056	-7.7154514714091	-60.592994249858
0.56205620562056	-7.7017483621493	-60.586659867779
0.56405640564056	-7.6883791152703	-60.580254885210
0.56605660566057	-7.6751416711873	-60.573616110013
0.56805680568057	-7.6617726720269	-60.566781515410
0.57005700570057	-7.6481162031290	-60.559971241904
0.57205720572057	-7.6342230920658	-60.553450494812
0.57405740574057	-7.6203170448160	-60.547364734085
0.57605760576058	-7.6066517059854	-60.541654055317
0.57805780578058	-7.5933530935919	-60.536100081582
0.58005800580058	-7.5803491618799	-60.530471492106
0.58205820582058	-7.5674290808784	-60.524671182866
0.58405840584058	-7.5543893183544	-60.518789680578
0.58605860586059	-7.5411682387919	-60.513033268596
0.58805880588059	-7.5278812024077	-60.507578148782
0.59005900590059	-7.5147358194293	-60.502449184153
0.59205920592059	-7.5018864551963	-60.497503216261
0.59405940594059	-7.4893259430996	-60.492526241701
0.59605960596060	-7.4768861119923	-60.487378363134
0.59805980598060	-7.4643457997938	-60.482089955506
0.60006000600060	-7.4515742828845	-60.476846012187
0.60206020602060	-7.4386158505891	-60.471869931797
0.60406040604060	-7.4256612079114	-60.467283602373
0.60606060606061	-7.4129261300006	-60.463034754688
0.60806080608061	-7.4005177294775	-60.458936976514
0.61006100610061	-7.3883749413088	-60.454793524812
0.61206120612061	-7.3763194222437	-60.450522286562
0.61406140614061	-7.3641801736535	-60.446200648359
0.61606160616062	-7.3519079918190	-60.442003519415
0.61806180618062	-7.3396046680161	-60.438078495802
0.62006200620062	-7.3274497230016	-60.434442463666
0.62206220622062	-7.3155754056088	-60.430968025320
0.62406240624062	-7.3039739375004	-60.427467570458
0.62606260626063	-7.2924984002962	-60.423818212581
0.62806280628063	-7.2809561017906	-60.420044630623
0.63006300630063	-7.2692324794001	-60.416305567220
0.63206320632063	-7.2573643963149	-60.412793537786
0.63406340634063	-7.2455158787511	-60.409613797511
0.63606360636064	-7.2338735844120	-60.406720987809
0.63806380638064	-7.2225310341537	-60.403952898076
0.64006400640064	-7.2114363433417	-60.401136913145
0.64206420642064	-7.2004350863400	-60.398198181519
0.64406440644064	-7.1893772074995	-60.395199351450
0.64606460646065	-7.1782159658276	-60.392288318092
0.64806480648065	-7.1670340596131	-60.389591326375
0.65006500650065	-7.1559815952454	-60.387123793068
0.65206520652065	-7.1451690913363	-60.384777933785
0.65406540654065	-7.1345876606158	-60.382394389360
0.65606560656066	-7.1241094445661	-60.379869347826
0.65806580658066	-7.1135676805111	-60.377225796089
0.66006600660066	-7.1028633054568	-60.374601947320
0.66206620662066	-7.0920281456980	-60.372164766659
0.66406640664066	-7.0812039550731	-60.370005390671
0.66606660666067	-7.0705519449526	-60.368084218729
0.66806680668067	-7.0601523282197	-60.366260030483
0.67006700670067	-7.0499586505064	-60.364382300393
0.67206720672067	-7.0398346330592	-60.362385389304
0.67406740674067	-7.0296469365407	-60.360323644858
0.67606760676068	-7.0193515123888	-60.358326576387
0.67806780678068	-7.0090170299761	-60.356506125247
0.68006800680068	-6.9987715988773	-60.354878769202
0.68206820682068	-6.9887099134270	-60.353354084813
0.68406840684068	-6.9788234821886	-60.351796524968
0.68606860686069	-6.9690004594507	-60.350118602153
0.68806880688069	-6.9590950702588	-60.348343347078
0.69006900690069	-6.9490207329119	-60.346594721008
0.69206920692069	-6.9388058123614	-60.345022318193
0.69406940694069	-6.9285759500848	-60.343709577433
0.69606960696070	-6.9184751245607	-60.342624854183
0.69806980698070	-6.9085771325772	-60.341645998265
0.70007000700070	-6.8988443920366	-60.340640934161
0.70207020702070	-6.8891590730143	-60.339550904192
0.70407040704070	-6.8794040677631	-60.338422645862
0.70607060706071	-6.8695395036461	-60.337370390231
0.70807080708071	-6.8596248374455	-60.336494887051
0.71007100710071	-6.8497734890869	-60.335814176798
0.71207120712071	-6.8400716801193	-60.335251903830
0.71407140714071	-6.8305162045701	-60.334690133524
0.71607160716072	-6.8210125473176	-60.334050892747
0.71807180718072	-6.8114344271684	-60.333352094228
0.72007200720072	-6.8017053659408	-60.332700908010
0.72207220722072	-6.7918487981265	-60.332229038893
0.72407240724072	-6.7819743526166	-60.332012281995
0.72607260726073	-6.7722098944712	-60.332026414704
0.72807280728073	-6.7626239559870	-60.332167068652
0.73007300730073	-6.7531885451512	-60.332319227935
0.73207320732073	-6.7438050185736	-60.332430147307
0.73407340734073	-6.7343741661026	-60.332538391881
0.73607360736074	-6.7248632822840	-60.332741512404
0.73807380738074	-6.7153261101518	-60.333125516690
0.74007400740074	-6.7058635312613	-60.333703965211
0.74207420742074	-6.6965522739569	-60.334407309893
0.74407440744074	-6.6873897480247	-60.335129252949
0.74607460746075	-6.6782919859761	-60.335799039472
