#Parameters = {C_1=24.92455081603; C_2=570.86606829031; Conductivity=10000000; Conductivity_Mo=17900000; Conductivity_MoGr=1000000; Ip=571.40992392382; Pipe_lenght=40; Pipe_r=30; beta=1; cells_wave=30; conductivity_copper=59500000; d=-870.86606829031; half_gap_x=5.0754491839698; half_gap_y=30; half_gap_z=150; mu_copper=0.999994; offset=2.0301796735879; offset_x=1; offset_y=5; sigma_z=5; teta=2.5; thcoll=24.92455081603; translate_z=-720.86606829031; wakelength=20000}
#"Frequency / GHz"	"X [Re / Ohm]"	"X [Im / Ohm]"
#-----------------------------------------------
0.0000000000000	-5.6402157968968e-12	-491.65209024771
0.0020478289222872	-256.56807149642	-406.28769196694
0.0040956578445743	-406.16334219462	-190.03673852500
0.0061434867668615	-394.85256128172	58.407583304776
0.0081913156891487	-246.16712348234	232.40619669107
0.010239144611436	-44.531896707104	270.27862665714
0.012286973533723	111.73983785887	181.80587872071
0.014334802456010	160.99040792907	35.620230047665
0.016382631378297	104.86925783243	-82.994604785224
0.018430460300585	-1.3717537281209	-118.60343034772
0.020478289222872	-86.254222722803	-70.598794739519
0.022526118145159	-103.63279278627	14.972282738819
0.024573947067446	-54.679780688075	78.564442954663
0.026621775989733	20.014495379600	83.587542502316
0.028669604912020	70.224278677522	34.705843840600
0.030717433834308	67.745780560647	-30.665884839176
0.032765262756595	20.854184010956	-69.544600077582
0.034813091678882	-35.252379438003	-60.737565609434
0.036860920601169	-63.580617751366	-15.630160056182
0.038908749523456	-48.886642206718	32.535097808389
0.040956578445743	-5.1089869732751	52.042074960095
0.043004407368031	36.430654205952	32.822532978606
0.045052236290318	48.806363605860	-9.1227068908863
0.047100065212605	26.483924961589	-44.420701734430
0.049147894134892	-12.941075276734	-50.541960365031
0.051195723057179	-42.121119574862	-25.904564358279
0.053243551979466	-42.600873656203	10.761757443777
0.055291380901754	-16.226756950102	34.246445228146
0.057339209824041	17.569593865730	29.900131507307
0.059387038746328	35.826812717960	2.5271286505077
0.061434867668615	27.455426605497	-28.130835527499
0.063482696590902	-0.21918883929560	-41.453128798254
0.065530525513189	-27.502990163252	-29.665308063501
0.067578354435477	-36.184810693136	-2.1968708675158
0.069626183357764	-21.557853375333	21.635052917262
0.071674012280051	5.2421040009492	26.075216838993
0.073721841202338	25.572719371011	9.2344383336292
0.075769670124625	26.154530387878	-16.422232940290
0.077817499046912	7.6599120855729	-33.190261722647
0.079865327969200	-16.474470454033	-30.255592634267
0.081913156891487	-29.710390248485	-10.587627661560
0.083960985813774	-23.659128926610	11.744890186608
0.086008814736061	-3.3154887414650	21.565111191259
0.088056643658348	16.939527787738	12.841836201400
0.090104472580635	23.451460286912	-7.6806910723483
0.092152301502923	12.452055135046	-25.606851419601
0.094200130425210	-7.8432974443084	-28.930675365078
0.096247959347497	-23.298363696178	-16.026617392725
0.098295788269784	-23.647259248951	3.6974180299671
0.10034361719207	-9.2635943526683	16.613827248088
0.10239144611436	9.5282525276813	14.254938944307
0.10443927503665	19.832210829775	-1.1703597035637
0.10648710395893	15.004381979313	-18.691376767468
0.10853493288122	-1.0924055432235	-26.338549513314
0.11058276180351	-17.102475146315	-19.285822554210
0.11263059072579	-22.148804378219	-2.8541270200084
0.11467841964808	-13.187452577150	11.465614705562
0.11672624857037	3.2095426344537	14.025422949961
0.11877407749266	15.651355569047	3.5000617823849
0.12082190641494	15.825626622272	-12.501951278995
0.12286973533723	4.0370259186101	-22.908172256190
0.12491756425952	-11.288251066055	-20.818447828857
0.12696539318180	-19.595069377600	-8.0557061779011
0.12901322210409	-15.442485425936	6.3557410140584
0.13106105102638	-2.0400468276850	12.555659584722
0.13310887994867	11.206731426381	6.5805419744478
0.13515670887095	15.287080287179	-7.1220106839983
0.13720453779324	7.7055127690668	-18.976264241546
0.13925236671553	-6.0146349414689	-20.951136633864
0.14130019563781	-16.329400524169	-11.983610677847
0.14334802456010	-16.292375749754	1.5000221493502
0.14539585348239	-6.2131966717374	10.177715537245
0.14744368240468	6.7587658120380	8.2669789253724
0.14949151132696	13.699075612833	-2.6318275076123
0.15153934024925	10.042543637172	-14.829885236080
0.15358716917154	-1.4213807148695	-19.959342105789
0.15563499809382	-12.648545427070	-14.700148015612
0.15768282701611	-15.968014911438	-2.9121615465390
0.15973065593840	-9.3078858818604	7.1865310722629
0.16177848486069	2.5344494629587	8.7420163474322
0.16382631378297	11.342604134106	0.90977756899047
0.16587414270526	11.178354563490	-10.719379496603
0.16792197162755	2.3814481172487	-18.097813907319
0.16996980054984	-8.8162339040183	-16.279436008425
0.17201762947212	-14.691682667733	-6.7245289149756
0.17406545839441	-11.344779824717	3.8514196287229
0.17611328731670	-1.2740557717813	8.1924322319036
0.17816111623898	8.4809251010257	3.4755758202292
0.18020894516127	11.258109051321	-6.8609599769159
0.18225677408356	5.3207042784610	-15.612154583117
0.18430460300585	-5.0658707997447	-16.819607022343
0.18635243192813	-12.686003658568	-9.8201290154693
0.18840026085042	-12.376215295068	0.41726601215956
0.19044808977271	-4.5140058396998	6.8147719456089
0.19249591869499	5.3601050043326	5.0756858611315
0.19454374761728	10.445542815572	-3.4336854507845
0.19659157653957	7.3642357416641	-12.739080980285
0.19863940546186	-1.5978565115990	-16.445371807373
0.20068723438414	-10.173391582877	-12.124788459297
0.20273506330643	-12.487730050649	-2.8984868955568
0.20478289222872	-7.0750801237846	4.8139019382756
0.20683072115100	2.2057829286395	5.7584245546478
0.20887855007329	8.9211885578742	-0.57653276512949
0.21092637899558	8.5218609422519	-9.7029455640573
0.21297420791787	1.4239437860779	-15.306287193700
0.21502203684015	-7.3720091025139	-13.608749257386
0.21706986576244	-11.796390420666	-5.9103770516201
0.21911769468473	-8.8918018239442	2.3982798583499
0.22116552360701	-0.78237164198761	5.6087522154971
0.22321335252930	6.8771363410913	1.6148345721501
0.22526118145159	8.8441456442456	-6.7093392249706
0.22730901037388	3.8762970000219	-13.571292541443
0.22935683929616	-4.4886953989174	-14.286014570179
0.23140466821845	-10.445404841276	-8.4698986456160
0.23345249714074	-9.9436579623021	-0.22756384903824
0.23550032606302	-3.4364669502674	4.7432730533114
0.23754815498531	4.5093415287480	3.0891242775955
0.23959598390760	8.4181001603712	-3.9385613942350
0.24164381282989	5.6787273987968	-11.421170754536
0.24369164175217	-1.7118607163288	-14.211087057046
0.24573947067446	-8.5970753838946	-10.468863657132
0.24778729959675	-10.253217215287	-2.8706439499195
0.24983512851903	-5.6251741191789	3.3038677916165
0.25188295744132	2.0094662418806	3.8390605473620
0.25393078636361	7.3614985569946	-1.5394045826854
0.25597861528590	6.7945801626301	-9.0399356135204
0.25802644420818	0.79589149511960	-13.474001453358
0.26007427313047	-6.4240538854045	-11.841718504923
0.26212210205276	-9.8820735875281	-5.3577038867294
0.26416993097504	-7.2572465380884	1.4492194134546
0.26621775989733	-0.44384248400496	3.8984846492742
0.26826558881962	5.8149847910542	0.37554503953024
0.27031341774191	7.2294309693675	-6.6058114094087
0.27236124666419	2.9035399260487	-12.193286771708
0.27440907558648	-4.1003165115771	-12.565386398198
0.27645690450877	-8.9249713122438	-7.5419685050938
0.27850473343106	-8.2829570721534	-0.65398025014774
0.28055256235334	-2.6926689780472	3.3378533706724
0.28260039127563	3.9335943001544	1.7330058739775
0.28464822019792	7.0279551631610	-4.2826154492602
0.28669604912020	4.5162370116540	-10.507857122223
0.28874387804249	-1.7919135360740	-12.657401389784
0.29079170696478	-7.5022662052893	-9.3089147056180
0.29283953588707	-8.6934762278119	-2.8404919604292
0.29488736480935	-4.6065055674667	2.2576089441191
0.29693519373164	1.8774858406743	2.4997223362165
0.29898302265393	6.2685475423663	-2.2123342188946
0.30103085157621	5.5775095047331	-8.5682290283680
0.30307868049850	0.35112882235810	-12.172025482758
0.30512650942079	-5.7517867483956	-10.580044152862
0.30717433834308	-8.5185799397189	-4.9552666496788
0.30922216726536	-6.0875623343492	0.78071685216993
0.31126999618765	-0.19734147088521	2.6816687765152
0.31331782510994	5.0565412615579	-0.50851636736799
0.31536565403222	6.0697601397752	-6.5269640146021
0.31741348295451	2.2023264853265	-11.194278279215
0.31946131187680	-3.8194297012752	-11.314559975660
0.32150914079909	-7.8217703294485	-6.8615311658398
0.32355696972137	-7.0736429741988	-0.95618136884218
0.32560479864366	-2.1475087058148	2.3205388623540
0.32765262756595	3.5161699388909	0.74785614780999
0.32970045648823	6.0122678237791	-4.5299551928278
0.33174828541052	3.6640803368727	-9.8328573511153
0.33379611433281	-1.8503503694348	-11.508913303114
0.33584394325510	-6.6942875808804	-8.4472316074602
0.33789177217738	-7.5392384032422	-2.8114982306480
0.33993960109967	-3.8496726496078	1.4889504244034
0.34198743002196	1.7820622907915	1.5109551135823
0.34403525894424	5.4576110463962	-2.7082080414269
0.34608308786653	4.6716064008850	-8.2120044562690
0.34813091678882	0.019805531019953	-11.194433973762
0.35017874571111	-5.2475509829532	-9.6301006987031
0.35222657463339	-7.4943812321189	-4.6477122961395
0.35427440355568	-5.2065396559858	0.28369711659993
0.35632223247797	-0.0097275423953817	1.7702202197491
0.35837006140025	4.4859398764227	-1.1710507731888
0.36041789032254	5.1943224382902	-6.4628354177047
0.36246571924483	1.6722894333036	-10.432800782503
0.36451354816712	-3.6050347089702	-10.360312398839
0.36656137708940	-6.9814787003616	-6.3391883546963
0.36860920601169	-6.1507935752848	-1.1816241751430
0.37065703493398	-1.7298601116391	1.5486730115364
0.37270486385627	3.1984665515106	-0.00094583765878386
0.37475269277855	5.2356509323741	-4.7149567644249
0.37680052170084	3.0115976303515	-9.3104136727699
0.37884835062313	-1.8937536702287	-10.621653773749
0.38089617954541	-6.0705581894340	-7.7794552938896
0.38294400846770	-6.6474407993185	-2.7850493113466
0.38499183738999	-3.2635907348510	0.89907963587924
0.38703966631228	1.7094171698057	0.74984520735024
0.38908749523456	4.8302366839540	-3.0883265804197
0.39113532415685	3.9697024518203	-7.9310795385702
0.39318315307914	-0.23612229249175	-10.429998498157
0.39523098200142	-4.8529594367806	-8.8863384165644
0.39727881092371	-6.6936992033313	-4.4042690354042
0.39932663984600	-4.5168210605910	-0.10123475283488
0.40137446876829	0.13817358650006	1.0605791751000
0.40342229769057	4.0398729367952	-1.6863697588560
0.40547012661286	4.5086659960811	-6.4084075445556
0.40751795553515	1.2575466410899	-9.8303246458772
0.40956578445743	-3.4341684455474	-9.6056975611198
0.41161361337972	-6.3171494489597	-5.9244875966995
0.41366144230201	-5.4208347115038	-1.3568989777608
0.41570927122430	-1.3987304170374	0.94137705441927
0.41775710014658	2.9478006685893	-0.59034850655016
0.41980492906887	4.6211855456303	-4.8578327035342
0.42185275799116	2.4954205494760	-8.8919295664700
0.42390058691344	-1.9260579433189	-9.9131185220512
0.42594841583573	-5.5719660226829	-7.2453607952133
0.42799624475802	-5.9350752623986	-2.7618257120281
0.43004407368031	-2.7949250054032	0.43058154282071
0.43209190260259	1.6519945466180	0.14445746604986
0.43413973152488	4.3291539187929	-3.3890677822536
0.43618756044717	3.4089432454826	-7.7024580536229
0.43823538936945	-0.43924372417860	-9.8136832146360
0.44028321829174	-4.5337742896768	-8.2866463909904
0.44233104721403	-6.0480778335570	-4.2067861895565
0.44437887613632	-3.9605372143620	-0.40947182149700
0.44642670505860	0.25785116288023	0.49077925605214
0.44847453398089	3.6804406866954	-2.0992719908902
0.45052236290318	3.9559017346936	-6.3610461058470
0.45257019182546	0.92407893554766	-9.3398469636502
0.45461802074775	-3.2934075192252	-8.9922484830788
0.45666584967004	-5.7764864395986	-5.5867592182627
0.45871367859233	-4.8271211295492	-1.4979700623374
0.46076150751461	-1.1291932576041	0.44950504948544
0.46280933643690	2.7441976194130	-1.0673743511780
0.46485716535919	4.1216561928163	-4.9710841335717
0.46690499428147	2.0763898150950	-8.5476646485118
0.46895282320376	-1.9500083390164	-9.3324860528011
0.47100065212605	-5.1623035935371	-6.8076045929258
0.47304848104834	-5.3509268813462	-2.7420154810602
0.47509630997062	-2.4106220512708	0.048023626229535
0.47714413889291	1.6050913673537	-0.34986391101235
0.47919196781520	3.9185896318274	-3.6331005799065
0.48123979673749	2.9498864417248	-7.5117357478988
0.48328762565977	-0.60390613661072	-9.3046133523072
0.48533545458206	-4.2686291070949	-7.7917880759992
0.48738328350435	-5.5144348744904	-4.0435805723876
0.48943111242663	-3.5010749046246	-0.66315997752083
0.49147894134892	0.35669718220687	0.021692657018886
0.49352677027121	3.3836790757983	-2.4381896224512
0.49557459919350	3.4998436968391	-6.3191248414323
0.49762242811578	0.65011826036613	-8.9314200612666
0.49967025703807	-3.1742728727775	-8.4825525246681
0.50171808596036	-5.3260492849465	-5.3062581036562
0.50376591488264	-4.3332762448156	-1.6149924804600
0.50581374380493	-0.90515934825952	0.041467003233521
0.50786157272722	2.5748074644331	-1.4623901438572
0.50990940164951	3.7065104955268	-5.0628743339613
0.51195723057179	1.7290301383489	-8.2584221703782
0.51400505949408	-1.9675344365686	-8.8467755556474
0.51605288841637	-4.8181487863965	-6.4418465854729
0.51810071733865	-4.8616936167187	-2.7256775460184
0.52014854626094	-2.0891395735786	-0.27170850159279
0.52219637518323	1.5655682451096	-0.76237007145407
0.52424420410552	3.5749621736124	-3.8353416912358
0.52629203302780	2.5664235013082	-7.3494691811726
0.52833986195009	-0.73977991154748	-8.8758260164404
0.53038769087238	-4.0436293418701	-7.3757529847369
0.53243551979466	-5.0644316522962	-3.9067664389529
0.53448334871695	-3.1142630197781	-0.87681798071655
0.53653117763924	0.43956359242368	-0.37254373810676
0.53857900656153	3.1335810776094	-2.7219659090579
0.54062683548381	3.1162681150870	-6.2815055826795
0.54267466440610	0.42098392347283	-8.5849681059047
0.54472249332839	-3.0712459444299	-8.0514545569383
0.54677032225067	-4.9435517583595	-5.0695833079755
0.54881815117296	-3.9149569369494	-1.7146073777030
0.55086598009525	-0.71585579384215	-0.30382970366198
0.55291380901754	2.4309229478072	-1.7957317660286
0.55496163793982	3.3550523426704	-5.1385976246157
0.55700946686211	1.4360190231154	-8.0110832134003
0.55905729578440	-1.9800361690973	-8.4334661073286
0.56110512470668	-4.5236637895158	-6.1313549577207
0.56315295362897	-4.4447381269374	-2.7126316333421
0.56520078255126	-1.8157606075447	-0.54416360467989
0.56724861147355	1.5313506720862	-1.1128715081520
0.56929644039583	3.2822121615104	-4.0058836644940
0.57134426931812	2.2407077364262	-7.2091121966056
0.57339209824041	-0.85349636968433	-8.5087429934239
0.57543992716269	-3.8492370052991	-7.0205640009283
0.57748775608498	-4.6785598962722	-3.7907909105568
0.57953558500727	-2.7834078809211	-1.0603276436941
0.58158341392956	0.50985119036135	-0.70968070190382
0.58363124285184	2.9191261391241	-2.9635522615122
0.58567907177413	2.7884258722513	-6.2473342437405
0.58772690069642	0.22649994844100	-8.2864889109928
0.58977472961871	-2.9804864515703	-7.6813758081128
0.59182255854099	-4.6134554589608	-4.8672859745726
0.59387038746328	-3.5551267234596	-1.8013203468628
0.59591821638557	-0.55365650711209	-0.60101533027117
0.59796604530785	2.3065742900250	-2.0815718601904
0.60001387423014	3.0528882029748	-5.2020324629486
0.60206170315243	1.1852655992970	-7.7964720868384
0.60410953207472	-1.9884805102070	-8.0767568048377
0.60615736099700	-4.2677118897023	-5.8643480256443
0.60820518991929	-4.0841084730922	-2.7027091246374
0.61025301884158	-1.5800698186637	-0.78026027798038
0.61230084776386	1.5010314408216	-1.4153310005761
0.61434867668615	3.0290408422949	-4.1518667659432
0.61639650560844	1.9601381877253	-7.0860544770391
0.61844433453073	-0.94974905429878	-8.1902172426489
0.62049216345301	-3.6786884750403	-6.7134663917205
0.62253999237530	-4.3429553718043	-3.6916955762155
0.62458782129759	-2.4966125132921	-1.2207067375755
0.62663565021987	0.57001470716079	-1.0023679999382
0.62868347914216	2.7324811408969	-3.1722160986977
0.63073130806445	2.5043615668048	-6.2160482812861
0.63277913698674	0.059368576379816	-8.0260191220364
0.63482696590902	-2.8992873865070	-7.3597666662853
0.63687479483131	-4.3246721518064	-4.6926104429291
0.63892262375360	-3.2416054422120	-1.8783696556756
0.64097045267588	-0.41312324042046	-0.86060390596071
0.64301828159817	2.1974249061203	-2.3301099898949
0.64506611052046	2.7896023453708	-5.2559038354572
0.64711393944275	0.96799501308309	-7.6079686856806
0.64916176836503	-1.9936228911820	-7.7652253921049
0.65120959728732	-4.0422944084267	-5.6322867427090
0.65325742620961	-3.7683030715398	-2.6957645490014
0.65530525513189	-1.3745595820894	-0.98789283607514
0.65735308405418	1.4735458479019	-1.6798682247225
0.65940091297647	2.8071863935871	-4.2784689484380
0.66144874189876	1.7154846592623	-6.9769273768075
0.66349657082104	-1.0320268180502	-7.9106462245137
0.66554439974333	-3.5271203630798	-6.4451176008926
0.66759222866562	-4.0475552889695	-3.6065385039186
0.66964005758790	-2.2452280330584	-1.3630311058072
0.67168788651019	0.62181122328246	-1.2598148993254
0.67373571543248	2.5678672912696	-3.3547073898660
0.67578354435477	2.2552583964200	-6.1871984488827
0.67783137327705	-0.085825642932438	-7.7962001618892
0.67987920219934	-2.8257181233316	-7.0773464724803
0.68192703112163	-4.0690940487735	-4.5405170921588
0.68397486004391	-2.9654582333673	-1.9480676242492
0.68602268896620	-0.29027078655131	-1.0902809261197
0.68807051788849	2.1002525547071	-2.5488185821681
0.69011834681078	2.5574713810135	-5.3021769778364
0.69216617573306	0.77767979024777	-7.4406271567113
0.69421400465535	-1.9960654315064	-7.4903557536441
0.69626183357764	-3.8415223043913	-5.4287711017967
0.69830966249993	-3.4888166518378	-2.6916117190577
0.70035749142221	-1.1936694320181	-1.1728478627926
0.70240532034450	1.4480942357912	-1.9139389577801
0.70445314926679	2.6104909116218	-4.3894853374900
0.70650097818907	1.4998543264210	-6.8791665289211
0.70854880711136	-1.1029548762930	-7.6628095779649
0.71059663603365	-3.3909262570426	-6.2084742617400
0.71264446495594	-3.7848567993337	-3.5330434667112
0.71469229387822	-2.0227893546464	-1.4910177556770
0.71674012280051	0.66656263364425	-1.4888434360542
0.71878795172280	2.4209631438347	-3.5160225155469
0.72083578064508	2.0345068202234	-6.1603935355450
0.72288360956737	-0.21315281256565	-7.5914529149150
0.72493143848966	-2.7583361138486	-6.8270792532714
0.72697926741195	-3.8406269362690	-4.4071446060731
0.72902709633423	-2.7199520739574	-2.0120806029204
0.73107492525652	-0.18207866295725	-1.2957677216488
0.73312275417881	2.0126497143701	-2.7432740522928
0.73517058310109	2.3506845826625	-5.3422864316795
0.73721841202338	0.60939884204637	-7.2906658337608
0.73926624094567	-1.9962607908500	-7.2456590477083
0.74131406986796	-3.6609374753962	-5.2488993309364
0.74336189879024	-3.2391996365935	-2.6900440433052
0.74540972771253	-1.0331671015934	-1.3394454078869
0.74745755663482	1.4240944016373	-2.1231387831257
0.74950538555710	2.4343044733534	-4.4877445305567
0.75155321447939	1.3080307710726	-6.7907752821063
0.75360104340168	-1.1645139711231	-7.4411674707976
0.75564887232397	-3.2673482050860	-5.9981215725341
0.75769670124625	-3.5491296062658	-3.4694163249894
0.75974453016854	-1.8243469904242	-1.6074359596081
0.76179235909083	0.70530504005562	-1.6945933208553
0.76384018801311	2.2885021869515	-3.6599126750759
0.76588801693540	1.8370936054592	-6.1352725191153
