#Parameters = {C_1=23.329215416694; C_2=534.32688033279; Conductivity_MoGr=1000000; Ip=534.83592562405; Pipe_lenght=40; Pipe_r=30; beta=1; cells_wave=30; d=-784.32688033279; half_gap_x=6.6707845833065; half_gap_y=30; half_gap_z=125; offset=2.6683138333226; offset_x=1; offset_y=5; sigma_z=5; teta=2.5; thcoll=23.329215416694; translate_z=-659.32688033279; wakelength=20000}
#"Frequency / GHz"	"X (4) [Re / Ohm]"	"X (4) [Im / Ohm]"
#-------------------------------------------------------
0.0000000000000	1.4999399572186e-12	62.407693382639
0.0020478289222872	38.953003804616	49.363031185895
0.0040956578445743	61.554009825651	16.317930663359
0.0061434867668615	59.555202188097	-21.643513997137
0.0081913156891487	36.546557496642	-48.218880098001
0.010239144611436	5.4270072279168	-53.971340734820
0.012286973533723	-18.774859903009	-40.382399408700
0.014334802456010	-26.623673231080	-17.930397910014
0.016382631378297	-18.353532271297	0.35282612152568
0.018430460300585	-2.3918646888642	5.9860690066379
0.020478289222872	10.345524403765	-1.1404404246706
0.022526118145159	12.802902411173	-14.006631325008
0.024573947067446	5.1475267621617	-23.522193319649
0.026621775989733	-6.4302302795186	-24.094444554469
0.028669604912020	-14.261121597486	-16.427846714752
0.030717433834308	-14.032202774704	-6.2314412076704
0.032765262756595	-6.9992695940550	-0.071399607092752
0.034813091678882	1.4668116755669	-1.1921499185861
0.036860920601169	5.7143071704785	-7.8643285832120
0.038908749523456	3.4074194579044	-15.016697951507
0.040956578445743	-3.3339185760581	-17.804494226356
0.043004407368031	-9.7309466824840	-14.683908264545
0.045052236290318	-11.669921189180	-8.0919949920730
0.047100065212605	-8.2997119544855	-2.5123214773227
0.049147894134892	-2.3020111027398	-1.3892779295392
0.051195723057179	2.1474195641197	-4.9716409736891
0.053243551979466	2.2250839280306	-10.404886178806
0.055291380901754	-1.7948490800306	-13.839548581603
0.057339209824041	-6.9506004966184	-13.033523417615
0.059387038746328	-9.7359121167027	-8.7134847015541
0.061434867668615	-8.4524427655078	-3.8899163048801
0.063482696590902	-4.2127266960423	-1.7130152622431
0.065530525513189	-0.021411961290320	-3.3757269198397
0.067578354435477	1.3377857307855	-7.4442119629915
0.069626183357764	-0.86052564941341	-10.970799220440
0.071674012280051	-4.9220651050125	-11.546227023860
0.073721841202338	-8.0018391109191	-8.8753402387775
0.075769670124625	-8.0684035805241	-4.8560729742017
0.077817499046912	-5.2181380599510	-2.1912167301856
0.079865327969200	-1.4983990228921	-2.5364722533550
0.081913156891487	0.56481135649898	-5.4447144134820
0.083960985813774	-0.31480388338583	-8.7713956047764
0.086008814736061	-3.3810437674124	-10.197520156488
0.088056643658348	-6.4412466987691	-8.7963105783454
0.090104472580635	-7.4083435557230	-5.5913550020345
0.092152301502923	-5.7010399412324	-2.7783324726781
0.094200130425210	-2.5682182558465	-2.1933522869361
0.096247959347497	-0.16705804098073	-4.0907102161863
0.098295788269784	-0.068937420236231	-7.0388828301772
0.10034361719207	-2.2232206002947	-8.9574122167277
0.10239144611436	-5.0580531328846	-8.5487657848658
0.10443927503665	-6.6039726972293	-6.1437527651830
0.10648710395893	-5.8415156110724	-3.4135182352485
0.10853493288122	-3.3543198356687	-2.1868591078873
0.11058276180351	-0.87320286623358	-3.2060754313337
0.11263059072579	-0.061120649179003	-5.6645702751363
0.11467841964808	-1.3887511806852	-7.8100031947745
0.11672624857037	-3.8582147897511	-8.1662092523644
0.11877407749266	-5.7317148824830	-6.5246205484108
0.12082190641494	-5.7363754813949	-4.0417836882230
0.12286973533723	-3.9124579214580	-2.4076895150383
0.12491756425952	-1.5420165453065	-2.6801937564160
0.12696539318180	-0.23701641875560	-4.5871607118747
0.12901322210409	-0.83316794081344	-6.7544893555332
0.13106105102638	-2.8465692717884	-7.6753827022700
0.13310887994867	-4.8442421369802	-6.7391700201177
0.13515670887095	-5.4482996877805	-4.6189656624387
0.13720453779324	-4.2718914468028	-2.7744781300414
0.13925236671553	-2.1527817549204	-2.4347643015071
0.14130019563781	-0.54671324546283	-3.7681700644540
0.14334802456010	-0.51792104606653	-5.7985528239290
0.14539585348239	-2.0253501585289	-7.1031372474459
0.14744368240468	-3.9819295882222	-6.7946769947162
0.14949151132696	-5.0247467232606	-5.1112358632942
0.15153934024925	-4.4518569301131	-3.2228581825888
0.15358716917154	-2.6830111152781	-2.4083078473744
0.15563499809382	-0.94326182266190	-3.1798722391863
0.15768282701611	-0.40584112037835	-4.9541032594239
0.15973065593840	-1.3928763132433	-6.4785644100240
0.16177848486069	-3.1774528773139	-6.7039223921058
0.16382631378297	-4.5065766736526	-5.4951432511314
0.16587414270526	-4.4699877429264	-3.7007018646742
0.16792197162755	-3.1133326139366	-2.5486630789390
0.16996980054984	-1.3835374486024	-2.7984587997827
0.17201762947212	-0.45999623228791	-4.2333565552247
0.17406545839441	-0.94305238440108	-5.8319182480901
0.17611328731670	-2.4573692708556	-6.4851541550759
0.17816111623898	-3.9313157086416	-5.7566590135126
0.18020894516127	-4.3457397018797	-4.1654309354525
0.18225677408356	-3.4296841596058	-2.8091275253813
0.18430460300585	-1.8287953538344	-2.6002589107512
0.18635243192813	-0.64319399157049	-3.6461218184500
0.18840026085042	-0.66479025353279	-5.1931747403583
0.19044808977271	-1.8421561333115	-6.1614476395347
0.19249591869499	-3.3339483744613	-5.8906590326142
0.19454374761728	-4.1016481764086	-4.5831520794996
0.19659157653957	-3.6246301958778	-3.1471181387695
0.19863940546186	-2.2457440764403	-2.5600345385629
0.20068723438414	-0.91865681949815	-3.1979274572706
0.20273506330643	-0.54224191094430	-4.5902013779405
0.20478289222872	-1.3460594469226	-5.7591336517254
0.20683072115100	-2.7465681848766	-5.8997793758440
0.20887855007329	-3.7630683308062	-4.9279575808488
0.21092637899558	-3.6974409558878	-3.5237113198837
0.21297420791787	-2.6069895634346	-2.6504055088958
0.21502203684015	-1.2505600637492	-2.8890555823023
0.21706986576244	-0.55501166880175	-4.0474347489868
0.21911769468473	-0.97671607384662	-5.3064989753389
0.22116552360701	-2.1975458926025	-5.7936309031080
0.22321335252930	-3.3573966692922	-5.1818888526137
0.22526118145159	-3.6539199059121	-3.9041054313038
0.22730901037388	-2.8916553300698	-2.8421889916365
0.22935683929616	-1.6050780070124	-2.7141771584183
0.23140466821845	-0.67891436000591	-3.5847032417699
0.23345249714074	-0.73505136372946	-4.8322882239912
0.23550032606302	-1.7105647421524	-5.5877679774985
0.23754815498531	-2.9128621615241	-5.3349107663823
0.23959598390760	-3.5057927965622	-4.2584864456458
0.24164381282989	-3.0858543976189	-3.1054291067231
0.24369164175217	-1.9517112205925	-2.6626840011771
0.24573947067446	-0.88735412178768	-3.2164581790014
0.24778729959675	-0.61587624647172	-4.3641744893630
0.24983512851903	-1.3041523995901	-5.3022474944974
0.25188295744132	-2.4574555088795	-5.3843169883505
0.25393078636361	-3.2699080994153	-4.5624056924961
0.25597861528590	-3.1828115439031	-3.4101491677076
0.25802644420818	-2.2642758599332	-2.7189246457981
0.26007427313047	-1.1524419314192	-2.9509623552094
0.26212210205276	-0.60823009923343	-3.9271368721846
0.26416993097504	-0.99083627379040	-4.9600613700671
0.26621775989733	-2.0172945492208	-5.3341170988170
0.26826558881962	-2.9667702750910	-4.7974179135093
0.27031341774191	-3.1824282016068	-3.7277092037951
0.27236124666419	-2.5216695527379	-2.8632770836494
0.27440907558648	-1.4463163815429	-2.7902924695224
0.27645690450877	-0.69624367220512	-3.5423697642794
0.27850473343106	-0.77687623775455	-4.5857049491470
0.28055256235334	-1.6153641413020	-5.1942614591818
0.28260039127563	-2.6191354291093	-4.9515038470910
0.28464822019792	-3.0906968370731	-4.0321319075750
0.28669604912020	-2.7085070398264	-3.0734562253988
0.28874387804249	-1.7425649396527	-2.7307261304074
0.29079170696478	-0.86038514916840	-3.2264961311725
0.29283953588707	-0.66252957403668	-4.2037789852381
0.29488736480935	-1.2707137821892	-4.9795994655595
0.29693519373164	-2.2508251929341	-5.0190626546145
0.29898302265393	-2.9190858018713	-4.3010322053628
0.30103085157621	-2.8156092639736	-3.3255778254793
0.30307868049850	-2.0175351596555	-2.7630069280128
0.30512650942079	-1.0786821784437	-2.9906444434586
0.30717433834308	-0.64228095260438	-3.8373279906224
0.30922216726536	-0.99744168991249	-4.7084716260148
0.31126999618765	-1.8850515461931	-5.0006104718111
0.31331782510994	-2.6832370475553	-4.5165443820579
0.31536565403222	-2.8398446643469	-3.5956201630502
0.31741348295451	-2.2513030655745	-2.8733110588388
0.31946131187680	-1.3280353590987	-2.8402659552502
0.32150914079909	-0.70550548503069	-3.5066747965921
0.32355696972137	-0.80419344781569	-4.4014206396746
0.32560479864366	-1.5430719976282	-4.9023110320601
0.32765262756595	-2.4017019484266	-4.6660376592301
0.32970045648823	-2.7838225846956	-3.8608598477189
0.33174828541052	-2.4285423775525	-3.0444372860282
0.33379611433281	-1.5856764081342	-2.7752866263819
0.33584394325510	-0.83754029619470	-3.2284629554327
0.33789177217738	-0.69416543280186	-4.0798110954868
0.33993960109967	-1.2432058780611	-4.7351249375341
0.34198743002196	-2.0947422320547	-4.7423399705762
0.34403525894424	-2.6553843193544	-4.1009287903124
0.34608308786653	-2.5390977212751	-3.2568489118489
0.34813091678882	-1.8304210625114	-2.7902874847110
0.35017874571111	-1.0207020378679	-3.0147381535534
0.35222657463339	-0.66510518314796	-3.7643629524935
0.35427440355568	-0.99972532838677	-4.5137589552455
0.35632223247797	-1.7827854221308	-4.7438118737570
0.35837006140025	-2.4666060485140	-4.2989730257285
0.36041789032254	-2.5781554731203	-3.4901532144985
0.36246571924483	-2.0438456045654	-2.8753388924718
0.36451354816712	-1.2356451075154	-2.8726272904886
0.36656137708940	-0.70993892028195	-3.4739571573223
0.36860920601169	-0.82237562674013	-4.2554579410329
0.37065703493398	-1.4852399757331	-4.6739546378685
0.37270486385627	-2.2327876712670	-4.4423021523027
0.37475269277855	-2.5461341457238	-3.7242704409387
0.37680052170084	-2.2111441620493	-3.0168036397764
0.37884835062313	-1.4625502605564	-2.8041607688147
0.38089617954541	-0.81741171295346	-3.2245703423969
0.38294400846770	-0.71597037237401	-3.9787881263895
0.38499183738999	-1.2192881311654	-4.5409016610582
0.38703966631228	-1.9712602035712	-4.5229641996070
0.38908749523456	-2.4483280790367	-3.9407142568823
0.39113532415685	-2.3218605170874	-3.1984498284885
0.39318315307914	-1.6824479543865	-2.8064537115948
0.39523098200142	-0.97309920236998	-3.0283984764057
0.39727881092371	-0.68040526994823	-3.7023016464428
0.39932663984600	-0.99890366202344	-4.3565315154758
0.40137446876829	-1.7000912028045	-4.5378976619285
0.40342229769057	-2.2941893097170	-4.1236532923353
0.40547012661286	-2.3702266882002	-3.4026700104362
0.40751795553515	-1.8783603892707	-2.8722339901129
0.40956578445743	-1.1605514872018	-2.8933341285245
0.41161361337972	-0.71101518316699	-3.4433325280307
0.41366144230201	-0.83419054165060	-4.1354137148724
0.41570927122430	-1.4368806846406	-4.4887364247953
0.41775710014658	-2.0964204687185	-4.2606729749651
0.41980492906887	-2.3551651124041	-3.6116289214239
0.42185275799116	-2.0361729617342	-2.9905465075855
0.42390058691344	-1.3623780209009	-2.8227261776496
0.42594841583573	-0.79906906160620	-3.2169900799597
0.42799624475802	-0.73090610754396	-3.8937651584573
0.43004407368031	-1.1976235612642	-4.3814944635534
0.43209190260259	-1.8699649264418	-4.3434492565197
0.43413973152488	-2.2801221280369	-3.8084950590773
0.43618756044717	-2.1454535450672	-3.1477148594812
0.43823538936945	-1.5615197439629	-2.8154187916604
0.44028321829174	-0.93265241416278	-3.0352474458146
0.44233104721403	-0.69038029495635	-3.6482025022444
0.44437887613632	-0.99575068562082	-4.2258128402247
0.44642670505860	-1.6308462773185	-4.3679669901567
0.44847453398089	-2.1525006685477	-3.9784328055988
0.45052236290318	-2.1998427507424	-3.3283839078486
0.45257019182546	-1.7422874045435	-2.8661052444817
0.45461802074775	-1.0975970626930	-2.9063651688242
0.45666584967004	-0.70966748331805	-3.4146529154344
0.45871367859233	-0.84138832180716	-4.0341345928731
0.46076150751461	-1.3950520374666	-4.3345479858239
0.46280933643690	-1.9829509773872	-4.1094725667830
0.46485716535919	-2.1972520541451	-3.5166298220465
0.46690499428147	-1.8913359811551	-2.9659057407803
0.46895282320376	-1.2785613232154	-2.8345324681756
0.47100065212605	-0.78198912077503	-3.2073019615599
0.47304848104834	-0.74086189144689	-3.8206787819331
0.47509630997062	-1.1774444384789	-4.2475469733433
0.47714413889291	-1.7844371056340	-4.1931205460531
0.47919196781520	-2.1397160383135	-3.6970446145737
0.48123979673749	-1.9983797194875	-3.1031679690229
0.48328762565977	-1.4600851775119	-2.8198354463591
0.48533545458206	-0.89737696356814	-3.0377706114333
0.48738328350435	-0.69647267308635	-3.6004229135820
0.48943111242663	-0.99082954411987	-4.1148708156736
0.49147894134892	-1.5712578466571	-4.2247685418465
0.49352677027121	-2.0330636910035	-3.8557654191742
0.49557459919350	-2.0567643178193	-3.2644081031801
0.49762242811578	-1.6276911699230	-2.8584564020210
0.49967025703807	-1.0435651669850	-2.9144255554737
0.50171808596036	-0.70658699643644	-3.3879828959891
0.50376591488264	-0.84519947657893	-3.9471738439256
0.50581374380493	-1.3579720748789	-4.2037234434714
0.50786157272722	-1.8862593600743	-3.9812776286227
0.50990940164951	-2.0636515055301	-3.4352990863323
0.51195723057179	-1.7687459502425	-2.9431461977855
0.51400505949408	-1.2068926962574	-2.8420101608149
0.51605288841637	-0.76592358366029	-3.1966744017815
0.51810071733865	-0.74718771769300	-3.7570227517989
0.52014854626094	-1.1583931563913	-4.1330761716346
0.52219637518323	-1.7106337215368	-4.0650956114179
0.52424420410552	-2.0200224039247	-3.6017035292198
0.52629203302780	-1.8732369179760	-3.0639032903385
0.52833986195009	-1.3733193434468	-2.8215082132019
0.53038769087238	-0.86611182060658	-3.0376638222152
0.53243551979466	-0.69979251253388	-3.5579279372784
0.53448334871695	-0.98467943679167	-4.0192843797794
0.53653117763924	-1.5189790348169	-4.1021811334147
0.53857900656153	-1.9304069510689	-3.7506316935426
0.54062683548381	-1.9343216840238	-3.2088037134809
0.54267466440610	-1.5294123477652	-2.8502715274457
0.54472249332839	-0.99643319738865	-2.9193089298443
0.54677032225067	-0.70236575595503	-3.3633570067012
0.54881815117296	-0.84658770198296	-3.8715403195039
0.55086598009525	-1.3245924126155	-4.0910953416779
0.55291380901754	-1.8023822442034	-3.8710603392534
0.55496163793982	-1.9486247878507	-3.3649086095962
0.55700946686211	-1.6632277771307	-2.9223817886828
0.55905729578440	-1.1446696272745	-2.8467247853957
0.56110512470668	-0.75083843190916	-3.1858089833730
0.56315295362897	-0.75092297258463	-3.7009963497712
0.56520078255126	-1.1403368848082	-4.0339080752167
0.56724861147355	-1.6458984847391	-3.9545785248305
0.56929644039583	-1.9162922475387	-3.5191859534931
0.57134426931812	-1.7650455573282	-3.0291980287972
0.57339209824041	-1.2979945494878	-2.8215711876392
0.57543992716269	-0.83813376772641	-3.0359887540352
0.57748775608498	-0.70117183073353	-3.5199035166874
0.57953558500727	-0.97773526148493	-3.9359068120764
0.58158341392956	-1.4724497821079	-3.9958820552304
0.58363124285184	-1.8408059766288	-3.6594661061771
0.58567907177413	-1.8279548015921	-3.1601339302378
0.58772690069642	-1.4439324766973	-2.8421376106437
0.58977472961871	-0.95485690611170	-2.9221612465968
0.59182255854099	-0.69747468053176	-3.3406920193981
0.59387038746328	-0.84627736917437	-3.8050343771826
0.59591821638557	-1.2942233611289	-3.9929360552971
0.59796604530785	-1.7285775683619	-3.7751842116095
0.60001387423014	-1.8481696266344	-3.3034317030489
0.60206170315243	-1.5711592214303	-2.9035856768724
0.60410953207472	-1.0899978791597	-2.8496806705263
0.60615736099700	-0.73671629555028	-3.1751134811094
0.60820518991929	-0.75281237243084	-3.6512499529802
0.61025301884158	-1.1231999194449	-3.9470160421845
0.61230084776386	-1.5883745998446	-3.8580946439204
0.61434867668615	-1.8251829122533	-3.4470764864199
0.61639650560844	-1.6702896626614	-2.9984480620568
0.61844433453073	-1.2318283449683	-2.8207390597428
0.62049216345301	-0.81293519933283	-3.0334131069582
0.62253999237530	-0.70121042329144	-3.4856851386485
0.62458782129759	-0.97031642094787	-3.8624079468814
0.62663565021987	-1.4305646548907	-3.9026927134872
0.62868347914216	-1.7615995541498	-3.5796206667144
0.63073130806445	-1.7343881616536	-3.1172688676424
0.63277913698674	-1.3687041771630	-2.8343795449992
0.63482696590902	-0.91783623687188	-2.9237222018282
0.63687479483131	-0.69221565351218	-3.3198615686957
0.63892262375360	-0.84476060851383	-3.7460197328252
0.64097045267588	-1.2663508481568	-3.9065115759586
0.64301828159817	-1.6628603382300	-3.6909743131681
0.64506611052046	-1.7593922388604	-3.2493448460538
0.64711393944275	-1.4899146393907	-2.8866715103342
0.64916176836503	-1.0414928508890	-2.8515355879307
0.65120959728732	-0.72352545747075	-3.1648166832268
0.65325742620961	-0.75337505718669	-3.6067417541781
0.65530525513189	-1.1069068187948	-3.8701410870913
0.65735308405418	-1.5366914852619	-3.7730553327835
0.65940091297647	-1.7442368633729	-3.3835519281856
0.66144874189876	-1.5863746426651	-2.9711479876367
0.66349657082104	-1.1731139273390	-2.8194735950834
0.66554439974333	-0.79009784404505	-3.0303761220203
0.66759222866562	-0.70030025645902	-3.4547519586316
0.66964005758790	-0.96261804101077	-3.7970577615381
0.67168788651019	-1.3924863728249	-3.8202633055273
0.67373571543248	-1.6908179958747	-3.5091287549820
0.67578354435477	-1.6512028375853	-3.0793468296245
0.67783137327705	-1.3018385029583	-2.8271968640083
0.67987920219934	-0.88461188872105	-2.9244937981935
0.68192703112163	-0.68678024606687	-3.3007325448987
0.68397486004391	-0.84236477868665	-3.6932556447247
0.68602268896620	-1.2405585913224	-3.8297761632368
0.68807051788849	-1.6037277425397	-3.6164315890666
0.69011834681078	-1.6801167262529	-3.2015021947004
0.69216617573306	-1.4175138160255	-2.8715600320505
0.69421400465535	-0.99809093422602	-2.8527672904531
0.69626183357764	-0.71120529969036	-3.1550866510449
0.69830966249993	-0.75296341220385	-3.5667056608953
0.70035749142221	-1.0913764958991	-3.8016193454275
0.70240532034450	-1.4898151688071	-3.6975536328524
0.70445314926679	-1.6716203336645	-3.3272724887161
0.70650097818907	-1.5113706714744	-2.9469342965779
0.70854880711136	-1.1205857118435	-2.8181265678990
0.71059663603365	-0.76931716090327	-3.0272085059669
0.71264446495594	-0.69874023273319	-3.4267158734538
0.71469229387822	-0.95479055342668	-3.7385649954491
0.71674012280051	-1.3575931862908	-3.7468414094875
0.71878795172280	-1.6269941214706	-3.4465282342495
0.72083578064508	-1.5766000961357	-3.0457367379344
0.72288360956737	-1.2419417490541	-2.8207557731158
0.72493143848966	-0.85464714112949	-2.9248676927669
0.72697926741195	-0.68135499606069	-3.2832143235170
0.72902709633423	-0.83938550245445	-3.6458104196405
0.73107492525652	-1.2165864901182	-3.7611824276503
0.73312275417881	-1.5501020823456	-3.5500340160031
0.73517058310109	-1.6087565939860	-3.1590164701222
0.73721841202338	-1.3525156653562	-2.8581618480474
0.73926624094567	-0.95904100754750	-2.8537011164463
0.74131406986796	-0.69976055860320	-3.1460088863698
0.74336189879024	-0.75189172816008	-3.5305145827461
0.74540972771253	-1.0765909228263	-3.7401384215063
0.74745755663482	-1.4470002827381	-3.6300886810554
0.74950538555710	-1.6059759479564	-3.2771651888127
0.75155321447939	-1.4438432244233	-2.9254745047711
0.75360104340168	-1.0733116096051	-2.8169087495685
0.75564887232397	-0.75039133250622	-3.0241036257931
0.75769670124625	-0.69678758221851	-3.4012195665222
0.75974453016854	-0.94697636735603	-3.6858787071411
