#Parameters = {C_1=13.5; C_2=309.20083490382; Conductivity_W=18000000; Ip=309.49540595172; Pipe_lenght=40; Pipe_r=30; beta=1; cells_wave=30; conductivity_copper=59500000; d=-409.20083490382; half_gap_x=16.5; half_gap_y=30; half_gap_z=50; mu_copper=0.999994; offset=6.6; offset_x=1; offset_y=5; sigma_z=5; teta=2.5; thcoll=13.5; translate_z=-359.20083490382; wakelength=20000}
#"Frequency / GHz"	"X [Re / Ohm]"	"X [Im / Ohm]"
#-----------------------------------------------
0.0000000000000	1.6080139841727e-11	386.12282153132
0.0020478289222872	205.32083882282	317.77738035812
0.0040956578445743	324.99703053302	144.63764762344
0.0061434867668615	315.84408908502	-54.283792632557
0.0081913156891487	196.69283758809	-193.60842986511
0.010239144611436	35.127337753327	-223.94451022369
0.012286973533723	-90.141290010710	-153.10771488032
0.014334802456010	-129.73786478076	-36.032565538929
0.016382631378297	-84.964192432249	59.005207859038
0.018430460300585	-0.038282212055417	87.613814289557
0.020478289222872	67.820189164949	49.288402110950
0.022526118145159	81.659681174197	-19.122746744106
0.024573947067446	42.402779548788	-69.954062853613
0.026621775989733	-17.468240451406	-73.904872389433
0.028669604912020	-57.746640507707	-34.695268052350
0.030717433834308	-55.844312795608	17.732076613925
0.032765262756595	-18.372166040986	48.965995722136
0.034813091678882	26.500520260902	42.029314945023
0.036860920601169	49.156307038899	6.0223583974835
0.038908749523456	37.379753135617	-32.450553920920
0.040956578445743	2.3157571251805	-47.995880315277
0.043004407368031	-30.967522898500	-32.541721638262
0.045052236290318	-40.909917940210	1.1145419000846
0.047100065212605	-23.068958331096	29.462456583580
0.049147894134892	8.4800912689846	34.459317511503
0.051195723057179	31.846192317798	14.825855705849
0.053243551979466	32.246515515138	-14.454046640426
0.055291380901754	11.145963933518	-33.198676607977
0.057339209824041	-15.908670187426	-29.671141276386
0.059387038746328	-30.534752585877	-7.7047052494512
0.061434867668615	-23.844455983618	16.903905514218
0.063482696590902	-1.6899226450331	27.643945638998
0.065530525513189	20.168453825439	18.280358021438
0.067578354435477	27.146857143867	-3.6498211782710
0.069626183357764	15.465106316707	-22.686390715859
0.071674012280051	-5.9732252921602	-26.210118945019
0.073721841202338	-22.246622910602	-12.696112085732
0.075769670124625	-22.716589768819	7.8868120540214
0.077817499046912	-7.9089085121936	21.366062655450
0.079865327969200	11.428349775800	19.075476798541
0.081913156891487	22.054297063423	3.3797691767359
0.083960985813774	17.243070346418	-14.465583037163
0.086008814736061	0.98097689002646	-22.307764976064
0.088056643658348	-15.225124479003	-15.307291734665
0.090104472580635	-20.439588707378	1.1484654284117
0.092152301502923	-11.633957798805	15.539301621673
0.094200130425210	4.6257582987542	18.247675495671
0.096247959347497	17.025156863293	7.9600405440154
0.098295788269784	17.338137928310	-7.8018844608152
0.10034361719207	5.8512839053850	-18.129067869842
0.10239144611436	-9.1788717045745	-16.233620014562
0.10443927503665	-17.427210764579	-3.8713818841184
0.10648710395893	-13.564807786816	10.182341466159
0.10853493288122	-0.67195093481368	16.342409208024
0.11058276180351	12.166245924707	10.734281868235
0.11263059072579	16.237508035578	-2.3938697528989
0.11467841964808	9.0932233710917	-13.846965796605
0.11672624857037	-4.0161084291054	-15.894998815931
0.11877407749266	-13.973840171641	-7.4647883003051
0.12082190641494	-14.117756706757	5.3624155812449
0.12286973533723	-4.6793444918594	13.723084639636
0.12491756425952	7.6042913786338	12.084256184809
0.12696539318180	14.281922659625	1.8929511286228
0.12901322210409	10.987599339847	-9.6334743065005
0.13106105102638	0.27869547700790	-14.598299494027
0.13310887994867	-10.320737186503	-9.8173982175911
0.13515670887095	-13.592338001032	1.1601807912713
0.13720453779324	-7.5265477959973	10.672475286579
0.13925236671553	3.4655692190070	12.283832411292
0.14130019563781	11.745720710528	5.1310457466260
0.14334802456010	11.745102229768	-5.6509018332952
0.14539585348239	3.6991911663616	-12.599563700084
0.14744368240468	-6.6769469601927	-11.076586767922
0.14949151132696	-12.237392423694	-2.3508024875763
0.15153934024925	-9.3172066473997	7.4294744330059
0.15358716917154	-0.13750259850145	11.562151506320
0.15563499809382	8.8673714003609	7.3782095219439
0.15768282701611	11.551531585044	-2.0437104652608
0.15973065593840	6.2444925975964	-10.128327507486
0.16177848486069	-3.2237372127262	-11.382215007831
0.16382631378297	-10.277494158492	-5.1170446856873
0.16587414270526	-10.154957353533	4.2009671141932
0.16792197162755	-3.1157129094426	10.129467339034
0.16996980054984	5.8595487324623	8.6996108165433
0.17201762947212	10.586556076552	1.0681459878723
0.17406545839441	7.9327147206091	-7.3956461715482
0.17611328731670	-0.11370060144777	-10.879602389711
0.17816111623898	-7.9224043735117	-7.1125799520859
0.18020894516127	-10.155013179046	1.1642992200700
0.18225677408356	-5.4092583552502	8.1866238274420
0.18430460300585	2.9106435287006	9.1777462792861
0.18635243192813	9.0300421632900	3.5944906339287
0.18840026085042	8.8072175092238	-4.5945807137666
0.19044808977271	2.5319814744726	-9.7233347461286
0.19249591869499	-5.3683156586422	-8.3426666331766
0.19454374761728	-9.4476861294931	-1.5340981319902
0.19659157653957	-6.9913612357562	5.9263540557020
0.19863940546186	0.18251901526915	8.9155310013218
0.20068723438414	7.0617252663515	5.4785793314561
0.20273506330643	8.9380898358979	-1.8970991000497
0.20478289222872	4.6262495648210	-8.0756612540145
0.20683072115100	-2.7950192343800	-8.8442475807638
0.20887855007329	-8.1768717563124	-3.7809872831966
0.21092637899558	-7.8691473630014	3.5305107293850
0.21297420791787	-2.1925834395115	8.0349898529118
0.21502203684015	4.8576153065969	6.6986348303751
0.21706986576244	8.4204659750524	0.54994856534987
0.21911769468473	6.1178729700993	-6.1021894284919
0.22116552360701	-0.36153075002204	-8.6841453833299
0.22321335252930	-6.4957529368659	-5.4984048698827
0.22526118145159	-8.0824537994990	1.1653255583861
0.22730901037388	-4.1150752655103	6.6731103621649
0.22935683929616	2.5845484211772	7.2674089220750
0.23140466821845	7.3703428309567	2.6287978909661
0.23345249714074	6.9915671335019	-3.9659335055330
0.23550032606302	1.7984683940425	-7.9551311798121
0.23754815498531	-4.5608354962295	-6.6445391409813
0.23959598390760	-7.7006562122815	-1.0237664995879
0.24164381282989	-5.5200309264678	4.9759746353444
0.24369164175217	0.39421141212438	7.2298683563535
0.24573947067446	5.9187364646402	4.2538714840655
0.24778729959675	7.2664243542979	-1.8207433406736
0.24983512851903	3.5805563559134	-6.7703664418738
0.25188295744132	-2.5251890392563	-7.2130708901827
0.25393078636361	-6.8178188379515	-2.9168627732369
0.25597861528590	-6.3777350181570	3.0919604518926
0.25802644420818	-1.5825191368771	6.6591977520183
0.26007427313047	4.2048356581470	5.3735456778091
0.26212210205276	6.9927242516992	0.19514129660226
0.26416993097504	4.9123659014851	-5.2567050358872
0.26621775989733	-0.53154504963493	-7.2308965451044
0.26826558881962	-5.5464913123515	-4.4233439262114
0.27031341774191	-6.6925379056977	1.1645955740214
0.27236124666419	-3.2403130448434	5.6513089228812
0.27440907558648	2.3687133271313	5.9702258417832
0.27645690450877	6.2472453200404	1.9647274252332
0.27850473343106	5.7548380760401	-3.5474378938968
0.28055256235334	1.2940541226909	-6.7543690633812
0.28260039127563	-4.0107185044109	-5.4842865340657
0.28464822019792	-6.5001660753676	-0.67435801408336
0.28669604912020	-4.5029324016288	4.3182773688690
0.28874387804249	0.54399233380302	6.0587656338543
0.29079170696478	5.1272615995074	3.3968129399043
0.29283953588707	6.1017431111995	-1.7747819618649
0.29488736480935	2.8476172326837	-5.8640611592457
0.29693519373164	-2.3386205555095	-6.0731402937431
0.29898302265393	-5.8634651564211	-2.3109757456531
0.30103085157621	-5.3251244561769	2.7811849874853
0.30307868049850	-1.1488534353498	5.6832872215298
0.30512650942079	3.7437604072329	4.4290409023612
0.30717433834308	5.9775905265278	-0.062723499996467
0.30922216726536	4.0512786922125	-4.6585201695866
0.31126999618765	-0.65501353192669	-6.1947627096874
0.31331782510994	-4.8668901469361	-3.6541413264946
0.31536565403222	-5.6928334304120	1.1627206180582
0.31741348295451	-2.6082634540288	4.9125530315469
0.31946131187680	2.2141847708668	5.0292833528066
0.32150914079909	5.4339697169975	1.4793946368054
0.32355696972137	4.8557892372780	-3.2473292630219
0.32560479864366	0.92546606835622	-5.8828086839097
0.32765262756595	-3.6100734481287	-4.6390696125361
0.32970045648823	-5.6217097404236	-0.41998106532977
0.33174828541052	-3.7560613688646	3.8341954226443
0.33379611433281	0.65515525482802	5.1952935349553
0.33584394325510	4.5445657406383	2.7621667096396
0.33789177217738	5.2412958393178	-1.7438995011945
0.33993960109967	2.3043262337398	-5.1956540867979
0.34198743002196	-2.2008762800107	-5.2291905312396
0.34403525894424	-5.1540438944722	-1.8618303554890
0.34608308786653	-4.5403970810499	2.5481850986588
0.34813091678882	-0.82439563243186	4.9527026582304
0.35017874571111	3.3991840676266	3.7200286404846
0.35222657463339	5.2164205314754	-0.25841264486728
0.35427440355568	3.4039613042099	-4.2111262652034
0.35632223247797	-0.74833346970992	-5.4163290121860
0.35837006140025	-4.3543429691555	-3.0752453653379
0.36041789032254	-4.9370325517425	1.1599407753637
0.36246571924483	-2.1292911993783	4.3515326628586
0.36451354816712	2.0971621757048	4.3136020232380
0.36656137708940	4.8157533287701	1.1086998304353
0.36860920601169	4.1709569368137	-3.0203642077798
0.37065703493398	0.64413432091739	-5.2192122181086
0.37270486385627	-3.3037994595331	-3.9943089134998
0.37475269277855	-4.9488984049158	-0.22654038165418
0.37680052170084	-3.1830154833589	3.4614165639850
0.37884835062313	0.74058154103258	4.5303134797595
0.38089617954541	4.0959301689140	2.2722967351888
0.38294400846770	4.5777484032099	-1.7212618855864
0.38499183738999	1.8847627354006	-4.6804797849064
0.38703966631228	-2.0941101266928	-4.5774094705916
0.38908749523456	-4.6040866062952	-1.5150782753792
0.39113532415685	-3.9312545450444	2.3659291286979
0.39318315307914	-0.57232152113599	4.3833965375901
0.39523098200142	3.1306030852264	3.1668647278903
0.39727881092371	4.6226399290292	-0.41185125615833
0.39932663984600	2.8984618725557	-3.8624101237457
0.40137446876829	-0.82099007835815	-4.8082700820410
0.40342229769057	-3.9524259889888	-2.6228883675003
0.40547012661286	-4.3439009766154	1.1563744299000
0.40751795553515	-1.7531622952415	3.9093762734373
0.40956578445743	2.0046341316673	3.7494298489362
0.41161361337972	4.3282335320586	0.81597953308440
0.41366144230201	3.6305418290762	-2.8416539706114
0.41570927122430	0.42222171165958	-4.6953451265826
0.41775710014658	-3.0608816951054	-3.4850207734134
0.41980492906887	-4.4154284641320	-0.074566965733184
0.42185275799116	-2.7284547873196	3.1642372115031
0.42390058691344	0.80792509038443	4.0008930806716
0.42594841583573	3.7384390241850	1.8820218356561
0.42799624475802	4.0489622757136	-1.7033805670038
0.43004407368031	1.5504513265781	-4.2697236314524
0.43209190260259	-2.0081469692539	-4.0574539928926
0.43413973152488	-4.1637210676812	-1.2389361237803
0.43618756044717	-3.4434627241459	2.2185800414146
0.43823538936945	-0.37074329245965	3.9257984640444
0.44028321829174	2.9143012400092	2.7222532993583
0.44233104721403	4.1450326785034	-0.53519926620343
0.44437887613632	2.4919405887599	-3.5817158320980
0.44642670505860	-0.87878433226819	-4.3187006823774
0.44847453398089	-3.6274851752894	-2.2589704367159
0.45052236290318	-3.8646600322352	1.1521083187400
0.45257019182546	-1.4494786118956	3.5506112259657
0.45461802074775	1.9289515208296	3.2920768166958
0.45666584967004	3.9325792824308	0.57875644301722
0.45871367859233	3.1921727589530	-2.6963853176661
0.46076150751461	0.24269335848618	-4.2698756024335
0.46280933643690	-2.8624659569275	-3.0716206767358
0.46485716535919	-3.9806964682918	0.047839730766508
0.46690499428147	-2.3582857110910	2.9206957574975
0.46895282320376	0.86206721861901	3.5681529434995
0.47100065212605	3.4457316385984	1.5632160781787
0.47304848104834	3.6165092881174	-1.6883685517261
0.47509630997062	1.2774558741493	-3.9333163961646
0.47714413889291	-1.9367392814029	-3.6319068062912
0.47919196781520	-3.8018670456830	-1.0136284088023
0.48123979673749	-3.0430459462135	2.0961902005309
0.48328762565977	-0.20582067374379	3.5487241447075
0.48533545458206	2.7354787614618	2.3562774200055
0.48738328350435	3.7513630982581	-0.63635619045444
0.48943111242663	2.1572897300144	-3.3498974216312
0.49147894134892	-0.92547949306517	-3.9149136141649
0.49352677027121	-3.3582278226781	-1.9593796164304
0.49557459919350	-3.4682775957618	1.1471577834674
0.49762242811578	-1.1987954930272	3.2525463245768
0.49967025703807	1.8652980375350	2.9128426015511
0.50171808596036	3.6039436820013	0.38244329239066
0.50376591488264	2.8286046492071	-2.5752363666556
0.50581374380493	0.094499344615380	-3.9163466156253
0.50786157272722	-2.6964781675991	-2.7286540828899
0.50990940164951	-3.6184980229064	0.14833572761640
0.51195723057179	-2.0504094821803	2.7165206359672
0.51400505949408	0.90621433456816	3.2067619259493
0.51605288841637	3.2006736143197	1.2974427173018
0.51810071733865	3.2552981356548	-1.6751486240249
0.52014854626094	1.0500519164954	-3.6517366169291
0.52219637518323	-1.8758970688637	-3.2763405227275
0.52424420410552	-3.4982085994421	-0.82620566333513
0.52629203302780	-2.7076979875074	1.9922068180217
0.52833986195009	-0.068433548964152	3.2315939681683
0.53038769087238	2.5843688283971	2.0491155268399
0.53243551979466	3.4202815787183	-0.72064176486391
0.53448334871695	1.8764771679440	-3.1543499442574
0.53653117763924	-0.96366118754219	-3.5752359631798
0.53857900656153	-3.1305617180654	-1.7080780353790
0.54062683548381	-3.1341061236460	1.1415487614116
0.54267466440610	-0.98812958134437	3.0000317523413
0.54472249332839	1.8104604407532	2.5924977647558
0.54677032225067	3.3256633457028	0.21721001905109
0.54881815117296	2.5215015281091	-2.4719993189544
0.55086598009525	-0.029855866515817	-3.6169847676379
0.55291380901754	-2.5548379341533	-2.4389550143670
0.55496163793982	-3.3111690789980	0.23212365963776
0.55700946686211	-1.7898726986691	2.5420893647980
0.55905729578440	0.94256537635266	2.8995625634172
0.56110512470668	2.9916565407061	1.0721666182759
0.56315295362897	2.9482676141350	-1.6630204901333
0.56520078255126	0.85750709618295	-3.4117080484277
0.56724861147355	-1.8229239728317	-2.9740826502740
0.56929644039583	-3.2388683146232	-0.66778951759294
0.57134426931812	-2.4221251492331	1.9021745293820
0.57339209824041	0.047718889963026	2.9603069016931
0.57543992716269	2.4543130790769	1.7871343841029
0.57748775608498	3.1371322566881	-0.79175587726539
0.57953558500727	1.6370836039878	-2.9864282829656
0.58158341392956	-0.99512351898164	-3.2847317665060
0.58363124285184	-2.9347503484508	-1.4939779274613
0.58567907177413	-2.8478338444256	1.1353122074927
0.58772690069642	-0.80843781328511	2.7825668563740
0.58977472961871	1.7622575625600	2.3176690922248
0.59182255854099	3.0861892937870	0.076177760835060
0.59387038746328	2.2581100661274	-2.3824001538686
0.59591821638557	-0.13560136162848	-3.3594313659217
0.59796604530785	-2.4319040111309	-2.1905512696722
0.60001387423014	-3.0463419122621	0.30283734421459
0.60206170315243	-1.5661692321463	2.3906518541805
0.60410953207472	0.97270421922176	2.6344908206540
0.60615736099700	2.8105601438421	0.87853291926556
0.60820518991929	2.6834305590772	-1.6515507090443
0.61025301884158	0.69225597942521	-3.2039313154583
0.61230084776386	-1.7759314195646	-2.7134084336728
0.61434867668615	-3.0140505122250	-0.53212978547884
0.61639650560844	-2.1755023494650	1.8229235694682
0.61844433453073	0.14711702909156	2.7248467293792
0.62049216345301	2.3406046349769	1.5606205757561
0.62253999237530	2.8915083349987	-0.85238014415988
0.62458782129759	1.4302616193566	-2.8400361954427
0.62663565021987	-1.0211703715416	-3.0328044516244
0.62868347914216	-2.7638771656589	-1.3091981263612
0.63073130806445	-2.5992597889668	1.1284530640310
0.63277913698674	-0.65326371253970	2.5926250001969
0.63482696590902	1.7191208308065	2.0787551432914
0.63687479483131	2.8772281560187	-0.045619383735547
0.63892262375360	2.0292486453526	-2.3034054345858
0.64097045267588	-0.22653397157127	-3.1348285366205
0.64301828159817	-2.3236584613306	-1.9748364392393
0.64506611052046	-2.8151404891336	0.36309935761074
0.64711393944275	-1.3717438052092	2.2573484073181
0.64916176836503	0.99775967772235	2.4028403158429
0.65120959728732	2.6514985125025	0.71014004168801
0.65325742620961	2.4520896753850	-1.6404251506707
0.65530525513189	0.54879109721379	-3.0216595604070
0.65735308405418	-1.7335717291791	-2.4857924142689
0.65940091297647	-2.8166525746551	-0.41465953287533
0.66144874189876	-1.9599574141813	1.7521764109097
0.66349657082104	0.23303202458023	2.5179422063808
0.66554439974333	2.2398238121675	1.3625067444017
0.66759222866562	2.6758229622717	-0.90446313184432
0.66964005758790	1.2495507168168	-2.7107093642895
0.67168788651019	-1.0427513389221	-2.8116863810645
0.67373571543248	-2.6128657210533	-1.1479450520993
0.67578354435477	-2.3808823192987	1.1209967737567
0.67783137327705	-0.51783537568761	2.4246958184605
0.67987920219934	1.6799345138061	1.8687023516092
0.68192703112163	2.6927122044043	-0.15184423499828
0.68397486004391	1.8281803355068	-2.2327965497017
0.68602268896620	-0.30543535590945	-2.9366598789584
0.68807051788849	-2.2271199984643	-1.7854679314408
0.69011834681078	-2.6109867202443	0.41484049526727
0.69216617573306	-1.2009820274888	2.1385740199169
0.69421400465535	1.0185961720747	2.1981444958029
0.69626183357764	2.5101325826300	0.56221213375928
0.69830966249993	2.2478038085523	-1.6294478916411
0.70035749142221	0.42302081704215	-2.8599167633522
0.70240532034450	-1.6948523075426	-2.2849221751999
0.70445314926679	-2.6413982822396	-0.31199563230009
0.70650097818907	-1.7696298107704	1.6882265217501
0.70854880711136	0.30790556971753	2.3341600421831
0.71059663603365	2.1494219411850	1.1875004549290
0.71264446495594	2.4844063268765	-0.94948311366754
0.71469229387822	1.0901091824612	-2.5951310008677
0.71674012280051	-1.0605942414555	-2.6155776705317
0.71878795172280	-2.4779297903800	-1.0058822900985
0.72083578064508	-2.1870867684272	1.1129654036322
0.72288360956737	-0.39857355181850	2.2746470043944
0.72493143848966	1.6438629445261	1.6822104447124
0.72697926741195	2.5280803341696	-0.24525806352495
0.72902709633423	1.6498307797289	-2.1689127457187
0.73107492525652	-0.37441022805939	-2.7600218609885
0.73312275417881	-2.1400509028923	-1.6176615566580
0.73517058310109	-2.4289217048377	0.45952613722461
0.73721841202338	-1.0496405748750	2.0316154944734
0.73926624094567	1.0358763596259	2.0155204362180
0.74131406986796	2.3831901158976	0.43113461387350
0.74336189879024	2.0657028175185	-1.6184764936883
0.74540972771253	0.31184665557489	-2.7149378113148
0.74745755663482	-1.6590202921574	-2.1060121650955
0.74950538555710	-2.4842805846165	-0.22156826637648
0.75155321447939	-1.6000607942724	1.6297799560114
0.75360104340168	0.37360420078033	2.1693685959484
0.75564887232397	2.0674696835544	1.0315691583061
0.75769670124625	2.3129470507385	-0.98857416592130
0.75974453016854	0.94824886299076	-2.4907805669296
0.76179235909083	-1.0752543325714	-2.4400576710681
0.76384018801311	-2.3561774249034	-0.87969849895088
0.76588801693540	-2.0135776391744	1.1043786105895
0.76793584585769	-0.29273145066112	2.1393201963703
0.76998367477998	1.6102784572735	1.5152213567859
0.77203150370226	2.3798504262684	-0.32798046997835
0.77407933262455	1.4903199849921	-2.1104865140137
