#Parameters = {C_1=27.02612532093; C_2=619.00003803311; Conductivity=10000; Conductivity_Mo=17900000; Conductivity_MoGr=1000000; Ip=619.58975018543; Pipe_lenght=40; Pipe_r=30; beta=1; cells_wave=30; conductivity_copper=59500000; d=-919.00003803311; half_gap_x=30; half_gap_y=2.9738746790698; half_gap_z=150; mu_copper=0.999994; offset_x=5; offset_y=1; sigma_z=5; teta=2.5; thcoll=27.02612532093; translate_z=-769.00003803311; wakelength=20000}
#"Frequency / GHz"	"Y [Re / Ohm]"	"Y [Im / Ohm]"
#-----------------------------------------------
0.0000000000000	8.7365645274578e-11	-332.03561521754
0.020478289222872	-59.224828925410	-71.217231128769
0.040956578445743	-11.792218251331	8.2418907516387
0.061434867668615	7.5976316661293	-37.500977320013
0.081913156891487	-26.706131781348	-24.024809998776
0.10239144611436	-1.6607213662470	-7.6452827203117
0.12286973533723	-4.7238517459253	-29.385773930107
0.14334802456010	-16.282193071575	-13.487094934109
0.16382631378297	1.1332087500919	-13.763826267696
0.18430460300585	-8.8149688403654	-23.979946791864
0.20478289222872	-9.3067490731325	-10.396309298481
0.22526118145159	0.48322545314231	-17.544718117252
0.24573947067446	-10.044171372088	-19.248750834697
0.26621775989733	-4.4939227959247	-10.484409231495
0.28669604912020	-1.6691405819746	-19.282140505828
0.30717433834308	-9.3271704990773	-15.375044415102
0.32765262756595	-1.6545747540222	-12.139823555975
0.34813091678882	-4.0632531912358	-19.214391827807
0.36860920601169	-7.3707745820217	-12.780235379074
0.38908749523456	-0.63482246323212	-14.261289177525
0.40956578445743	-5.8433105198240	-17.829476024269
0.43004407368031	-4.9520393246250	-11.654238488282
0.45052236290318	-1.0530758035993	-16.016709851782
0.47100065212605	-6.5569496220830	-15.803097687574
0.49147894134892	-2.7993654686867	-11.844617281411
0.51195723057179	-2.3152611334410	-16.893789908536
0.53243551979466	-6.1590012123368	-13.834828743214
0.55291380901754	-1.4302937328137	-12.908997428930
0.57339209824041	-3.7535788521512	-16.750552984022
0.59387038746328	-4.9447820555462	-12.473220037504
0.61434867668615	-1.0475954164247	-14.260976071520
0.63482696590902	-4.7990253162252	-15.785252035386
0.65530525513189	-3.4090171212218	-11.989963038100
0.67578354435477	-1.5282918529648	-15.348976525965
0.69626183357764	-5.1188900592521	-14.422788424981
0.71674012280051	-2.0678199921032	-12.344191702492
0.73721841202338	-2.5072928638597	-15.809924079378
0.75769670124625	-4.6767269252643	-13.151878889048
0.77817499046912	-1.2978165891823	-13.239622911999
0.79865327969200	-3.5227879083508	-15.550254085217
0.81913156891487	-3.6983474793294	-12.362153390759
0.83960985813774	-1.2353835781844	-14.252465728537
0.86008814736061	-4.1739858745945	-14.736730810231
0.88056643658348	-2.5616582894294	-12.232668669623
0.90104472580636	-1.7640933214381	-14.985540970957
0.92152301502923	-4.2439244880316	-13.707578705210
0.94200130425210	-1.6532345071808	-12.698406527909
0.96247959347497	-2.5839059474259	-15.194217544058
0.98295788269784	-3.7474725584081	-12.837188930978
1.0034361719207	-1.2356456125418	-13.500804561841
1.0239144611436	-3.3326345553978	-14.851378185443
1.0443927503665	-2.8988591225322	-12.405500073692
1.0648710395893	-1.3720706340041	-14.298491870953
1.0853493288122	-3.7182522201575	-14.132383514662
1.1058276180351	-2.0171581149305	-12.509608205036
1.1263059072579	-1.9241702901970	-14.791822156805
1.1467841964808	-3.6108098778749	-13.332336367351
1.1672624857037	-1.4019599189113	-13.049183744489
1.1877407749266	-2.6200270474114	-14.825924400773
1.2082190641494	-3.0737711558864	-12.751546604716
1.2286973533723	-1.2305279588013	-13.780398441028
1.2491756425952	-3.1643518964244	-14.431263047130
1.2696539318180	-2.3242160590384	-12.585348682692
1.2901322210409	-1.5026141219051	-14.413550532700
1.3106105102638	-3.3431275332042	-13.797317161364
1.3310887994867	-1.6398072376516	-12.865340774613
1.3515670887095	-2.0562403718214	-14.725118105689
1.3720453779324	-3.0985906482588	-13.191851782187
1.3925236671553	-1.2551208150999	-13.457903786865
1.4130019563781	-2.6386046306906	-14.631658781997
1.4334802456010	-2.5369921657640	-12.854873179828
1.4539585348239	-1.2746491358471	-14.124827395402
1.4744368240468	-3.0027352630823	-14.214216747134
1.4949151132696	-1.8787329924363	-12.915822943389
1.5153934024925	-1.6457585847608	-14.621453548987
1.5358716917154	-3.0042420611137	-13.676614226229
1.5563499809382	-1.3702596207294	-13.346392911490
1.5768282701611	-2.1833535634665	-14.785719470834
1.5973065593840	-2.6457552485210	-13.263077292880
1.6177848486069	-1.1867570389471	-13.982775634045
1.6382631378297	-2.6467261638302	-14.600489418226
1.6587414270526	-2.0726860061375	-13.166490242977
1.6792197162755	-1.3722455326027	-14.593986327631
1.6996980054984	-2.8369436326279	-14.191543542455
1.7201762947212	-1.5109188129029	-13.451123522898
1.7406545839441	-1.8206944164339	-14.972014056355
1.7611328731670	-2.6680854930652	-13.779638702826
1.7816111623898	-1.1772305489931	-14.036978142362
1.8020894516127	-2.3238631090485	-15.016579491563
1.8225677408356	-2.2031319682335	-13.593222995954
1.8430460300585	-1.1960967145683	-14.731425807095
1.8635243192813	-2.6540445020533	-14.772897753851
1.8840026085042	-1.6277374635364	-13.776958066290
1.9044808977271	-1.5458205494246	-15.305121507665
1.9249591869499	-2.6495171660992	-14.420031756236
1.9454374761728	-1.1774477285241	-14.340810761314
1.9659157653957	-2.0672998816626	-15.589525190756
1.9863940546186	-2.2860083439732	-14.206972740343
2.0068723438414	-1.0492307167579	-15.152114719841
2.0273506330643	-2.5233279914131	-15.546709811249
2.0478289222872	-1.6925584682711	-14.355699181666
2.0683072115100	-1.3138615060714	-15.979693865163
2.0887855007329	-2.6750223593267	-15.302188731732
2.1092637899558	-1.1059630130167	-14.993856521102
2.1297420791787	-1.8879128563099	-16.600734715216
2.1502203684015	-2.3952303066219	-15.122114588523
2.1706986576244	-0.80381194833209	-16.091068175945
2.1911769468473	-2.5422590292187	-16.879592592256
2.2116552360701	-1.7089213319540	-15.340237765305
2.2321335252930	-0.98809149961154	-17.479512578124
2.2526118145159	-2.9483924375948	-16.876773867002
2.2730901037388	-0.81241608981647	-16.326448099453
2.2935683929616	-1.7533234382781	-18.953915244834
2.3140466821845	-2.8037610020084	-16.891618225607
2.3345249714074	-0.048967863791754	-18.430414320332
2.3550032606302	-3.0202713571269	-20.383927598586
2.3754815498531	-1.7885827803084	-17.612477500829
2.3959598390760	0.14066358601952	-22.357666413741
2.4164381282989	-4.6707033257354	-22.166026674693
2.4369164175217	0.66643122475073	-20.981373270436
2.4573947067446	-1.1810195622472	-31.747405261821
2.4778729959675	-8.1041910308038	-28.961439285106
2.4983512851903	-13.925086898991	-49.612120023376
2.5188295744132	-34.327786779660	-85.752383283369
2.5393078636361	-7.2057423567752	-13.582031197298
2.5597861528590	-35.326332473725	30.409316568748
2.5802644420818	0.083623203965541	-1.4793969841223
2.6007427313047	-17.809591055659	-4.7353165414148
2.6212210205276	-4.0667010072168	-1.1266899519748
2.6416993097505	-0.71606173893966	-9.7155339843493
2.6621775989733	-6.0476668592566	-7.9716047547766
2.6826558881962	-0.98517975288045	-8.0581780080506
2.7031341774191	-1.0116063383226	-13.853868154954
2.7236124666419	-3.6163604932434	-13.288334733700
2.7440907558648	-2.3163234260159	-13.889405564029
2.7645690450877	-4.7992760619814	-16.620686439807
2.7850473343106	-6.0829599217540	-14.265071066854
2.8055256235334	-4.9270534341626	-15.072214710985
2.8260039127563	-7.2357426584444	-15.892364473650
2.8464822019792	-6.9042003136532	-13.871606584703
2.8669604912020	-7.1295230923041	-14.961705595473
2.8874387804249	-6.9840010501287	-12.710173194628
2.9079170696478	-4.9634123908429	-14.570017950623
2.9283953588707	-7.2592653789377	-16.270821472699
2.9488736480935	-7.9481730414835	-14.059308176727
2.9693519373164	-5.9860319871730	-15.005814023505
2.9898302265393	-8.3594351084571	-16.982736735643
3.0103085157621	-9.4463851071937	-14.653981904678
3.0307868049850	-8.3071217666210	-15.208259844787
3.0512650942079	-10.044368353866	-15.768190040319
3.0717433834308	-10.323619080495	-14.809827468232
3.0922216726536	-11.635971484604	-15.246724926729
3.1126999618765	-13.065744738064	-12.578820136304
3.1331782510994	-10.683847130133	-11.258555387172
3.1536565403222	-10.994719371311	-12.866172910866
3.1741348295451	-11.950130661971	-11.300026028885
3.1946131187680	-11.012181674400	-11.257927263916
3.2150914079909	-12.387852617990	-10.785749266803
3.2355696972137	-11.198252195956	-8.6131720869035
3.2560479864366	-9.8439222398173	-9.8254006610100
3.2765262756595	-11.009663447163	-9.6337262736562
3.2970045648823	-10.120927770689	-8.8604768101915
3.3174828541052	-10.424948720369	-9.4502695022551
3.3379611433281	-10.588886786027	-8.1400839520813
3.3584394325510	-9.3283554357064	-8.4585461783346
3.3789177217738	-10.514544326989	-8.8737446164854
3.3993960109967	-10.336345802768	-7.0737365283737
3.4198743002196	-9.1161141881635	-7.4136491391042
3.4403525894424	-9.7039604015058	-7.2555930269129
3.4608308786653	-8.6615433060936	-6.5313227654059
3.4813091678882	-8.6125427591394	-7.5765607701552
3.5017874571111	-9.4011034152505	-6.5257424821075
3.5222657463339	-8.0919728240685	-6.0616773742429
3.5427440355568	-8.4595997126969	-6.5031657321841
3.5632223247797	-7.9250310211517	-5.0793732686553
3.5837006140025	-6.3247600160668	-6.0022949774786
3.6041789032254	-7.3919146629291	-6.6159949519628
3.6246571924483	-6.8859463712897	-5.4313475874406
3.6451354816712	-6.1291935011207	-6.3271135818714
3.6656137708940	-6.9093450662409	-5.9954917481459
3.6860920601169	-5.7236844730165	-5.4335951876030
3.7065703493398	-5.6655960694482	-6.5202744459745
3.7270486385627	-6.0747535903260	-5.7593460453296
3.7475269277855	-4.8772535813737	-5.9431388088854
3.7680052170084	-5.5084359804651	-6.6734945302425
3.7884835062313	-5.3326145626568	-5.6713827180862
3.8089617954541	-4.4104792843241	-6.4474934935413
3.8294400846770	-5.3528685593486	-6.6305786968304
3.8499183738999	-4.6995571728272	-5.7995112673156
3.8703966631228	-4.3798360252658	-6.7226610886398
3.8908749523456	-5.0489509216740	-6.1557262231962
3.9113532415685	-3.8432761856434	-5.8919162165654
3.9318315307914	-4.0870978845881	-6.9307922047148
3.9523098200142	-4.4083000297339	-6.1054289962159
3.9727881092371	-3.3818202751030	-6.4432128893748
3.9932663984600	-4.1392543808925	-6.9497982353605
4.0137446876829	-3.8237127145441	-5.9701838871890
4.0342229769057	-3.0599938450916	-6.7309105822958
4.0547012661286	-3.7889200799587	-6.7032861867673
4.0751795553515	-2.9228168978570	-6.2015304028302
4.0956578445743	-2.8319202805583	-7.2587364209660
4.1161361337972	-3.4364763227323	-6.6946779453060
4.1366144230201	-2.3871014731847	-6.6709395393536
4.1570927122430	-2.8305554551891	-7.5152051721685
4.1775710014658	-2.9328631050968	-6.6871352097691
4.1980492906887	-2.0266307132774	-7.2201838024013
4.2185275799116	-2.7893398537281	-7.6098883795709
4.2390058691344	-2.3546044880583	-6.8846282729242
4.2594841583573	-1.9171411098679	-7.7793149685418
4.2799624475802	-2.6724079178861	-7.5846119825842
4.3004407368031	-1.8114645423595	-7.2519505397559
4.3209190260259	-1.9416039419396	-8.2453393272676
4.3413973152488	-2.4436211004013	-7.6288423496855
4.3618756044717	-1.5341887548595	-7.7719471229973
4.3823538936945	-2.1127416369794	-8.4252078248426
4.4028321829174	-2.0612007729257	-7.6350549126010
4.4233104721403	-1.3498626440754	-8.2741197088959
4.4437887613632	-2.1209558558283	-8.4590981211742
4.4642670505860	-1.5614065056494	-7.8727511706277
4.4847453398089	-1.3308701975828	-8.8114941667016
4.5052236290318	-2.0391870302402	-8.4954589050594
4.5257019182546	-1.2039052901479	-8.3011204839059
4.5461802074775	-1.4718692085529	-9.1624231595786
4.5666584967004	-1.7782438430203	-8.5192077613182
4.5871367859233	-0.94933079716673	-8.8641286821485
4.6076150751461	-1.6140991010646	-9.4032488765050
4.6280933643690	-1.4361549181246	-8.7187483387752
4.6485716535919	-0.92445905191116	-9.4843176294857
4.6690499428147	-1.7242952524907	-9.5397644958184
4.6895282320376	-1.1399533835855	-9.0990347835413
4.7100065212605	-1.1217481081247	-10.015700966854
4.7304848104834	-1.7454114018448	-9.6102602931654
4.7509630997062	-0.97303241142686	-9.6083723645387
4.7714413889291	-1.4401795147359	-10.375380175894
4.7919196781520	-1.6717542570444	-9.7119586800230
4.8123979673749	-1.0177026902480	-10.162397283394
4.8328762565977	-1.7847844206136	-10.513070387505
4.8533545458206	-1.5350746362306	-9.8668433554356
4.8738328350435	-1.2250331042847	-10.626228074020
4.8943111242663	-1.9901986774418	-10.483941862624
4.9147894134892	-1.3585741192541	-10.146635237214
4.9352677027121	-1.5112936131668	-10.990592847583
4.9557459919350	-2.0370696571219	-10.474318116684
4.9762242811578	-1.3213542652787	-10.571696484602
4.9967025703807	-1.8811467335857	-11.165087041707
5.0171808596036	-1.9486888555789	-10.481658504869
5.0376591488264	-1.3920624650677	-11.018302419549
5.0581374380493	-2.1522780005383	-11.212612522158
5.0786157272722	-1.7817782336004	-10.671002616975
5.0990940164951	-1.6291650878931	-11.473333876385
5.1195723057179	-2.3498885155241	-11.223502255643
5.1400505949408	-1.7222798334061	-11.015507602424
5.1605288841637	-2.0218647059989	-11.774974036517
5.1810071733865	-2.4262012282852	-11.212130654619
5.2014854626094	-1.7993524459369	-11.457746219951
5.2219637518323	-2.4811407036554	-11.922051037467
5.2424420410552	-2.4690308089382	-11.251843708805
5.2629203302780	-2.0815022325029	-11.831179827448
5.2833986195009	-2.8666486099492	-11.840059622335
5.3038769087238	-2.4366541188066	-11.348746905964
5.3243551979466	-2.4335586774709	-12.096403133045
5.3448334871695	-3.0713748977947	-11.714884914637
5.3653117763924	-2.4660666679226	-11.607706305604
5.3857900656153	-2.9073050395073	-12.217470009158
5.4062683548381	-3.1784048310427	-11.543555901188
5.4267466440610	-2.5861509838247	-11.832864592386
5.4472249332839	-3.2578244363045	-12.124922282322
5.4677032225067	-3.0761168179676	-11.492077834746
5.4881815117296	-2.7732886887728	-12.125711681281
5.5086598009525	-3.5000965964265	-12.021557164687
5.5291380901754	-3.0113834151813	-11.647386318153
5.5496163793982	-3.1417908137516	-12.343688527183
5.5700946686211	-3.6485451974481	-11.857035333618
5.5905729578440	-3.0149607531410	-11.884669011602
5.6110512470668	-3.5268818110159	-12.435193607247
5.6315295362897	-3.6880721308358	-11.793478308761
5.6520078255126	-3.2159220721724	-12.190677725659
5.6724861147355	-3.9375429327528	-12.349639186305
5.6929644039583	-3.6835781304759	-11.773496715192
5.7134426931812	-3.5308457109054	-12.407108399516
5.7339209824041	-4.2053501663303	-12.159934708216
5.7543992716269	-3.6770711274616	-11.893222930935
5.7748775608498	-3.9554514942605	-12.539021919147
5.7953558500727	-4.4042466934713	-11.958030281939
5.8158341392956	-3.8326598217099	-12.021107017139
5.8363124285184	-4.3852626033491	-12.379633306043
5.8567907177413	-4.3692752509539	-11.708096797980
5.8772690069642	-3.9463022613978	-12.164269317728
5.8977472961871	-4.6275178697254	-12.191058332432
5.9182255854099	-4.2594618415284	-11.698994386828
5.9387038746328	-4.2194593959031	-12.340559610930
5.9591821638557	-4.8218591989883	-11.973899099388
5.9796604530785	-4.2460735122243	-11.774912112426
6.0001387423014	-4.5502217636872	-12.328766326128
6.0206170315243	-4.8043528589174	-11.750180051122
6.0410953207472	-4.2579820025904	-11.992108213595
6.0615736099700	-4.8781617128743	-12.290822537059
6.0820518991929	-4.7793744827508	-11.674493708360
6.1025301884158	-4.4803880344814	-12.190463223783
6.1230084776386	-5.1533705975306	-12.097530417720
6.1434867668615	-4.7242017278911	-11.686214268101
6.1639650560844	-4.7875104621130	-12.311399152052
6.1844433453073	-5.3014250444428	-11.896440297887
6.2049216345301	-4.7728691641145	-11.842303948523
6.2253999237530	-5.2354234361857	-12.293652881399
6.2458782129759	-5.4112536511262	-11.625132783216
6.2663565021987	-4.9089819850795	-11.885177744169
6.2868347914216	-5.5067034184222	-12.037370191681
6.3073130806445	-5.2734111300723	-11.470235152062
6.3277913698674	-5.0605794480484	-12.023222038657
6.3482696590902	-5.6810028559326	-11.831400468986
6.3687479483131	-5.2177957146793	-11.516174812360
6.3892262375360	-5.4016265037361	-12.064283793467
6.4097045267588	-5.7852042945433	-11.522904739286
6.4301828159817	-5.1873399588885	-11.545362811009
6.4506611052046	-5.6273326301942	-11.946715781756
6.4711393944275	-5.6583627910569	-11.362566720509
6.4916176836503	-5.2516809244671	-11.755395990832
6.5120959728732	-5.8796994490305	-11.821193230143
6.5325742620961	-5.5846718894794	-11.329419390533
6.5530525513189	-5.4929500539954	-11.886776590266
6.5735308405418	-6.0410400577729	-11.587957917608
6.5940091297647	-5.5164101035556	-11.387414317980
6.6144874189876	-5.7790862408380	-11.938796985610
6.6349657082104	-6.1048398695462	-11.418689359524
6.6554439974333	-5.6262131789573	-11.543426336412
6.6759222866562	-6.1643399886964	-11.794963436778
6.6964005758790	-6.0925267496176	-11.180435114095
6.7168788651019	-5.7509740809608	-11.596353135111
6.7373571543248	-6.3359045240323	-11.545470153600
6.7578354435477	-5.9553692978899	-11.138406433734
6.7783137327705	-5.9642899432406	-11.704501363910
6.7987920219934	-6.4652600793055	-11.338849571090
6.8192703112163	-5.9719152051250	-11.200786345237
6.8397486004392	-6.2990702144352	-11.609091705706
6.8602268896620	-6.4472663169802	-11.027264933231
6.8807051788849	-5.9420001434814	-11.252819726625
6.9011834681078	-6.4576933747693	-11.460560320206
6.9216617573306	-6.2928599091027	-10.948437937209
6.9421400465535	-6.0632336749716	-11.429943843118
6.9626183357764	-6.6305754941934	-11.299885518020
6.9830966249993	-6.2265087678834	-10.972975695239
7.0035749142221	-6.3150192536519	-11.482765413307
7.0240532034450	-6.6808377809289	-11.074432834862
7.0445314926679	-6.1765245781340	-11.087674575343
7.0650097818907	-6.5754390749686	-11.484164672779
7.0854880711136	-6.6859362665328	-10.956651643631
7.1059663603365	-6.3172677836094	-11.231825708511
7.1264446495594	-6.8507290471860	-11.308678150902
7.1469229387822	-6.6225939052879	-10.841773318637
7.1674012280051	-6.4761677020322	-11.302993300940
7.1878795172280	-6.9515888670781	-11.112433498051
7.2083578064508	-6.5474251728715	-10.913228547359
7.2288360956737	-6.7368100957481	-11.372907778776
7.2493143848966	-7.0414969090783	-10.950790745353
7.2697926741195	-6.6252884699871	-10.990918305657
7.2902709633423	-6.9875012367985	-11.236250275872
7.3107492525652	-6.9577768964867	-10.791261043131
7.3312275417881	-6.6565564663341	-11.102854476516
7.3517058310109	-7.0614302382610	-11.165743472944
7.3721841202338	-6.8567533511263	-10.924783849144
7.3926624094567	-6.8332316958240	-11.316200915107
7.4131406986796	-7.1190955926647	-11.237370660564
7.4336189879024	-6.9359107760410	-11.290587264801
7.4540972771253	-7.0124081289006	-11.611016199900
7.4745755663482	-6.9649060951132	-12.311333076259
7.4950538555710	-10.916583456591	-15.843724522404
7.5155321447939	-9.6298977100690	-8.2287512616561
7.5360104340168	-7.2246482905925	-8.2481362613556
7.5564887232397	-6.6551407005714	-10.470497926986
7.5769670124625	-7.9898749843967	-10.700031325181
7.5974453016854	-8.8513166464775	-11.305085257935
7.6179235909083	-7.4413931866182	-11.089819378156
7.6384018801311	-8.7748080016163	-8.5956300727862
7.6588801693540	-7.4249779838616	-10.294204986613
7.6793584585769	-7.7937453334703	-10.036320612928
7.6998367477998	-8.0461471511709	-9.4767040697273
7.7203150370226	-7.2547485324524	-9.8924403305031
7.7407933262455	-7.9830007524184	-9.7950973500153
7.7612716154684	-7.5673462440960	-9.4570291486047
