#Parameters = {C_1=13.5; C_2=50.38268590218; Conductivity_W=18000000; Ip=52.15999461961; Pipe_lenght=40; Pipe_r=30; beta=1; cells_wave=20; conductivity_copper=59500000; d=-150.38268590218; half_gap_x=16.5; half_gap_y=30; half_gap_z=50; mu_copper=0.999994; offset=6.6; offset_x=1; offset_y=5; sigma_z=5; teta=15; thcoll=13.5; translate_z=-100.38268590218; wakelength=20000}
#"Frequency / GHz"	"X [Re / Ohm]"	"X [Im / Ohm]"
#-----------------------------------------------
0.0000000000000	-5.6247943549324e-12	33.821763374127
0.0020002000200020	14.525998537266	30.114213163388
0.0040004000400040	25.260113569574	20.108066038726
0.0060006000600060	29.658322735871	6.7552568631813
0.0080008000800080	27.203721489907	-6.1922294227883
0.010001000100010	19.440890123609	-15.450593751211
0.012001200120012	9.2895124113928	-19.223771654708
0.014001400140014	-0.059755093675181	-17.614612467457
0.016001600160016	-6.2230595794580	-12.328792254025
0.018001800180018	-8.2787763982848	-5.8552922162604
0.020002000200020	-6.8087443573597	-0.49208108596931
0.022002200220022	-3.3954294900650	2.3968927711308
0.024002400240024	0.15051611257287	2.6487474931298
0.026002600260026	2.4910585406730	1.0720088937372
0.028002800280028	3.1315709657684	-1.0986477602357
0.030003000300030	2.3811266984245	-2.7855360374224
0.032003200320032	1.0050748678315	-3.4467019589030
0.034003400340034	-0.21896765616347	-3.1403995250413
0.036003600360036	-0.83273190710891	-2.3213640485318
0.038003800380038	-0.80078269599443	-1.5213060496993
0.040004000400040	-0.39661025984029	-1.0836664357887
0.042004200420042	0.021965903235941	-1.0596226558715
0.044004400440044	0.21466960472324	-1.2729367059041
0.046004600460046	0.14636114254320	-1.4792866370470
0.048004800480048	-0.054230371900640	-1.5170861377246
0.050005000500050	-0.21159129107606	-1.3749097697723
0.052005200520052	-0.21670556560440	-1.1602940361063
0.054005400540054	-0.076673280421352	-1.0095086154748
0.056005600560056	0.11237073416744	-1.0006917497419
0.058005800580058	0.23787240400152	-1.1178554994048
0.060006000600060	0.23916284234641	-1.2757857286537
0.062006200620062	0.13368492009215	-1.3801428174185
0.064006400640064	-0.0059968715007500	-1.3821944023041
0.066006600660066	-0.10251394894751	-1.2980131736052
0.068006800680068	-0.11784088670544	-1.1874554155792
0.070007000700070	-0.067101089052348	-1.1119626990220
0.072007200720072	0.00063915286562092	-1.0991139284567
0.074007400740074	0.037786755428578	-1.1332792504021
0.076007600760076	0.026415426797844	-1.1733917949118
0.078007800780078	-0.016183120580750	-1.1828426402090
0.080008000800080	-0.054242311546389	-1.1517359769022
0.082008200820082	-0.059040012941508	-1.0993063858638
0.084008400840084	-0.026441289784243	-1.0579557488785
0.086008600860086	0.023103421788632	-1.0511952739757
0.088008800880088	0.059777812314710	-1.0797617753913
0.090009000900090	0.063619904500684	-1.1233410627755
0.092009200920092	0.035548777295942	-1.1549273162628
0.094009400940094	-0.0055017444798186	-1.1575693684238
0.096009600960096	-0.035924164189712	-1.1330773849230
0.098009800980098	-0.041910017299563	-1.0984101992419
0.10001000100010	-0.026164766026304	-1.0734521662108
0.10201020102010	-0.0037663810007540	-1.0686650634818
0.10401040104010	0.0089461475090669	-1.0801493182431
0.10601060106011	0.0047748885884265	-1.0942162756657
0.10801080108011	-0.010980101205886	-1.0974856472686
0.11001100110011	-0.025465878128544	-1.0855748664631
0.11201120112011	-0.027494454411294	-1.0650982681701
0.11401140114011	-0.014782640976857	-1.0484287378591
0.11601160116012	0.0051507615521638	-1.0452466583647
0.11801180118012	0.020393949062373	-1.0565035509532
0.12001200120012	0.022384088460421	-1.0743715039799
0.12201220122012	0.010929997442911	-1.0876734331606
0.12401240124012	-0.0063684085305268	-1.0889197473553
0.12601260126013	-0.019431041148307	-1.0784382642047
0.12801280128013	-0.022006125704777	-1.0633138463197
0.13001300130013	-0.014974734019534	-1.0522963475316
0.13201320132013	-0.0048987780457103	-1.0502347065328
0.13401340134013	0.00080698261850345	-1.0555522119266
0.13601360136014	-0.0012829433202143	-1.0620425184259
0.13801380138014	-0.0088051386187934	-1.0634331042527
0.14001400140014	-0.015709469179891	-1.0575598759283
0.14201420142014	-0.016577561059368	-1.0475216870471
0.14401440144014	-0.010209024175604	-1.0393236794096
0.14601460146015	-0.00023294736084427	-1.0377901122909
0.14801480148015	0.0074302988511592	-1.0434877805741
0.15001500150015	0.0084176259584608	-1.0525503176773
0.15201520152015	0.0025492345870002	-1.0593126636457
0.15401540154015	-0.0063390375317268	-1.0598932464325
0.15601560156016	-0.013046331882585	-1.0544018922857
0.15801580158016	-0.014287091077806	-1.0464939541435
0.16001600160016	-0.010493368733472	-1.0407626554330
0.16201620162016	-0.0051284084205688	-1.0397871762179
0.16401640164016	-0.0021535028832106	-1.0427286324419
0.16601660166017	-0.0034104669507752	-1.0462361760712
0.16801680168017	-0.0075991627039372	-1.0468967354653
0.17001700170017	-0.011384263266718	-1.0435342706594
0.17201720172017	-0.011762779031008	-1.0378842508345
0.17401740174017	-0.0080751465327861	-1.0333149595921
0.17601760176018	-0.0023796333437105	-1.0325443156838
0.17801780178018	0.0019565902311602	-1.0358854952596
0.18001800180018	0.0024429875413689	-1.0411199896128
0.18201820182018	-0.0010144914372494	-1.0449874261993
0.18401840184018	-0.0061879250878828	-1.0452494868873
0.18601860186019	-0.010051159939600	-1.0419842213014
0.18801880188019	-0.010694699042111	-1.0373422100208
0.19001900190019	-0.0083938565361896	-1.0340243719826
0.19201920192019	-0.0052135641774293	-1.0335375057093
0.19401940194019	-0.0035078053518330	-1.0353542331443
0.19601960196020	-0.0043543180849579	-1.0374498530175
0.19801980198020	-0.0069376395140783	-1.0377738957461
0.20002000200020	-0.0092177318910193	-1.0356410366323
0.20202020202020	-0.0093706045266689	-1.0321410084639
0.20402040204020	-0.0070183355500314	-1.0293548622297
0.20602060206021	-0.0034574556032970	-1.0289495203466
0.20802080208021	-0.00078525595013500	-1.0310939709692
0.21002100210021	-0.00054064253103269	-1.0343833758526
0.21202120212021	-0.0027570746486977	-1.0367724239737
0.21402140214021	-0.0060135368452035	-1.0368705700195
0.21602160216022	-0.0083983533277153	-1.0347542308551
0.21802180218022	-0.0087209389850415	-1.0318066426204
0.22002200220022	-0.0071856176258862	-1.0297459778557
0.22202220222022	-0.0051318002772332	-1.0295127490020
0.22402240224022	-0.0040671199687733	-1.0307381627882
0.22602260226023	-0.0046615517998490	-1.0320987370121
0.22802280228023	-0.0063568722573093	-1.0322727754728
0.23002300230023	-0.0078105535654745	-1.0308406533219
0.23202320232023	-0.0078397017211926	-1.0285427750225
0.23402340234023	-0.0062225538590217	-1.0267566775907
0.23602360236024	-0.0038388020406978	-1.0265694588180
0.23802380238024	-0.0020837990636039	-1.0280673812103
0.24002400240024	-0.0019657727870165	-1.0302956470192
0.24202420242024	-0.0034820998608591	-1.0318873759350
0.24402440244024	-0.0056636042529555	-1.0319288831691
0.24602460246025	-0.0072275127870400	-1.0304963433966
0.24802480248025	-0.0073911984274779	-1.0285375703393
0.25002500250025	-0.0063180160973067	-1.0272099533640
0.25202520252025	-0.0049305782648846	-1.0271296431798
0.25402540254025	-0.0042484107925420	-1.0280202775812
0.25602560256026	-0.0047059984905645	-1.0289656024930
0.25802580258026	-0.0058963259797501	-1.0290682809378
0.26002600260026	-0.0068860989002800	-1.0280629311000
0.26202620262026	-0.0068692181187731	-1.0264827400668
0.26402640264026	-0.0057147073365255	-1.0252883910250
0.26602660266027	-0.0040529692317377	-1.0252230074051
0.26802680268027	-0.0028597652373348	-1.0263249222450
0.27002700270027	-0.0028259032938558	-1.0279104033731
0.27202720272027	-0.0039285035956170	-1.0290211069675
0.27402740274027	-0.0054725749868528	-1.0290303021326
0.27602760276028	-0.0065566414222945	-1.0280120234446
0.27802780278028	-0.0066446123457438	-1.0266474302664
0.28002800280028	-0.0058719979423438	-1.0257513319373
0.28202820282028	-0.0049034908943540	-1.0257430933118
0.28402840284028	-0.0044578162399776	-1.0264065929811
0.28602860286029	-0.0048259846172814	-1.0270799764906
0.28802880288029	-0.0056981084575614	-1.0271297528581
0.29002900290029	-0.0063984312150958	-1.0263847776638
0.29202920292029	-0.0063569840331852	-1.0252456831242
0.29402940294029	-0.0054981332056412	-1.0244091974795
0.29602960296030	-0.0042926527845179	-1.0244012997596
0.29802980298030	-0.0034490772750031	-1.0252313380823
0.30003000300030	-0.0034564096812423	-1.0263894941629
0.30203020302030	-0.0042797001015938	-1.0271787556814
0.30403040304030	-0.0054000429176559	-1.0271557010443
0.30603060306031	-0.0061603269013881	-1.0263923245867
0.30803080308031	-0.0061818442965833	-1.0253981741012
0.31003100310031	-0.0055807518318331	-1.0247683298296
0.31203120312031	-0.0048545244344934	-1.0247973522527
0.31403140314031	-0.0045282086024411	-1.0253108707596
0.31603160316032	-0.0048025312040473	-1.0258139524717
0.31803180318032	-0.0054343539731350	-1.0258445268518
0.32003200320032	-0.0059185341647510	-1.0252905662394
0.32203220322032	-0.0058399654314298	-1.0244627698524
0.32403240324032	-0.0051575543935452	-1.0238824723196
0.32603260326033	-0.0042345429122485	-1.0239327897057
0.32803280328033	-0.0036017785813989	-1.0246059845847
0.33003300330033	-0.0036156476395904	-1.0255098873421
0.33203320332033	-0.0042360779061448	-1.0261221491644
0.33403340334033	-0.0050646558876709	-1.0261202322176
0.33603360336034	-0.0056093162813531	-1.0255717207872
0.33803380338034	-0.0055964101817028	-1.0248678317231
0.34003400340034	-0.0051270717402633	-1.0244538713922
0.34203420342034	-0.0045838476530789	-1.0245399699643
0.34403440344034	-0.0043596878309417	-1.0249808262521
0.34603460346035	-0.0045942774110910	-1.0253954135123
0.34803480348035	-0.0050906257861928	-1.0254379079266
0.35003500350035	-0.0054601657076156	-1.0250352511136
0.35203520352035	-0.0053927626190789	-1.0244351251518
0.35403540354035	-0.0048692059803918	-1.0240378853485
0.35603560356036	-0.0041770560984804	-1.0241288847430
0.35803580358036	-0.0037238197693474	-1.0246897425293
0.36003600360036	-0.0037743933591051	-1.0254104400284
0.36203620362036	-0.0042856417997406	-1.0258894997304
0.36403640364036	-0.0049426453199801	-1.0258873305666
0.36603660366037	-0.0053668024489365	-1.0254674543894
0.36803680368037	-0.0053554056757037	-1.0249386090629
0.37003700370037	-0.0049968406953951	-1.0246430386601
0.37203720372037	-0.0045921308754402	-1.0247345416984
0.37403740374037	-0.0044422563104233	-1.0250910885992
0.37603760376038	-0.0046460816951801	-1.0254134918550
0.37803780378038	-0.0050414788984491	-1.0254378596932
0.38003800380038	-0.0053235692387754	-1.0251173213001
0.38203820382038	-0.0052563168198463	-1.0246533897865
0.38403840384038	-0.0048346633872325	-1.0243599548694
0.38603860386039	-0.0042908767502899	-1.0244536287575
0.38803880388039	-0.0039440024992209	-1.0249102084229
0.39003900390039	-0.0039943048489544	-1.0254801241934
0.39203920392039	-0.0043979913289104	-1.0258493426085
0.39403940394039	-0.0049015153222454	-1.0258376356519
0.39603960396040	-0.0052085866950682	-1.0255048920828
0.39803980398040	-0.0051675630977477	-1.0250999206607
0.40004000400040	-0.0048573416848825	-1.0248907447729
0.40204020402040	-0.0045201310952659	-1.0249911628412
0.40404040404040	-0.0043911654259841	-1.0252967262099
0.40604060406041	-0.0045410597947850	-1.0255677401988
0.40804080408041	-0.0048342673132299	-1.0255991567875
0.41004100410041	-0.0050273849639654	-1.0253619942254
0.41204120412041	-0.0049381514456753	-1.0250231171171
0.41404140414041	-0.0045712076230746	-1.0248330088021
0.41604160416042	-0.0041180518071527	-1.0249585082827
0.41804180418042	-0.0038334181072531	-1.0253719319573
0.42004200420042	-0.0038714533000671	-1.0258684064469
0.42204220422042	-0.0041894653337399	-1.0261975645145
0.42404240424042	-0.0045802155632280	-1.0262213772934
0.42604260426043	-0.0048083094196480	-1.0259952010717
0.42804280428043	-0.0047591676610598	-1.0257220704746
0.43004300430043	-0.0045036922269320	-1.0256143286954
0.43204320432043	-0.0042398243788704	-1.0257559724813
0.43404340434043	-0.0041538851739259	-1.0260555257353
0.43604360436044	-0.0042957148780224	-1.0263169996851
0.43804380438044	-0.0045495706912740	-1.0263780413441
0.44004400440044	-0.0047172118127256	-1.0262216315154
0.44204420442044	-0.0046551020392939	-1.0259877224033
0.44404440444044	-0.0043733613335477	-1.0258791396879
0.44604460446045	-0.0040314642274970	-1.0260260180937
0.44804480448045	-0.0038351430862055	-1.0263989960811
0.45004500450045	-0.0039038273725130	-1.0268274368096
0.45204520452045	-0.0041957761221761	-1.0271088634868
0.45404540454045	-0.0045383343424364	-1.0271364684281
0.45604560456046	-0.0047409671280616	-1.0269615870880
0.45804580458046	-0.0047153839160662	-1.0267526728358
0.46004600460046	-0.0045246580754169	-1.0266808875424
0.46204620462046	-0.0043319831038155	-1.0268093816238
0.46404640464046	-0.0042862676597852	-1.0270584980832
0.46604660466047	-0.0044220373300556	-1.0272670836127
0.46804680468047	-0.0046393777627056	-1.0273062566156
0.47004700470047	-0.0047750164650014	-1.0271685968238
0.47204720472047	-0.0047151244621178	-1.0269739263087
0.47404740474047	-0.0044739621927792	-1.0268893656558
0.47604760476048	-0.0041866546432170	-1.0270180589998
0.47804780478048	-0.0040220522380910	-1.0273305700068
0.48004800480048	-0.0040741137227793	-1.0276834447118
0.48204820482048	-0.0043031796030465	-1.0279113518903
0.48404840484048	-0.0045643290891837	-1.0279313519637
0.48604860486049	-0.0047022721579999	-1.0277913664358
0.48804880488049	-0.0046493546130922	-1.0276330661159
0.49004900490049	-0.0044629850283763	-1.0275960558897
0.49204920492049	-0.0042802289471351	-1.0277277944854
0.49404940494049	-0.0042222162617755	-1.0279580047799
0.49604960496050	-0.0043129985833794	-1.0281522432823
0.49804980498050	-0.0044661485336939	-1.0282067415245
0.50005000500050	-0.0045462577335331	-1.0281203661709
0.50205020502050	-0.0044627656848178	-1.0279962025597
0.50405040504050	-0.0042330496950360	-1.0279728635151
0.50605060506051	-0.0039732488672236	-1.0281321146735
0.50805080508051	-0.0038237587338994	-1.0284442135413
0.51005100510051	-0.0038592372102809	-1.0287864386745
0.51205120512051	-0.0040422177148986	-1.0290215726181
0.51405140514051	-0.0042496898379486	-1.0290841054983
0.51605160516052	-0.0043536758231575	-1.0290180340106
0.51805180518052	-0.0043020442870947	-1.0289430972751
0.52005200520052	-0.0041470680618944	-1.0289736279586
0.52205220522052	-0.0040048619603569	-1.0291445033438
0.52405240524052	-0.0039746131975910	-1.0293924759930
0.52605260526053	-0.0040721304673805	-1.0296034085037
0.52805280528053	-0.0042213377418310	-1.0296922091368
0.53005300530053	-0.0043079623578379	-1.0296614728615
0.53205320532053	-0.0042583952494376	-1.0296001333026
0.53405340534053	-0.0040907609212528	-1.0296239374047
0.53605360536054	-0.0039045767314502	-1.0297980330426
0.53805380538054	-0.0038165182106305	-1.0300931068555
0.54005400540054	-0.0038852006379421	-1.0304035529699
0.54205420542054	-0.0040743654946716	-1.0306149023172
0.54405440544054	-0.0042777635516928	-1.0306757010703
0.54605460546055	-0.0043881894975364	-1.0306270556528
0.54805480548055	-0.0043646848491926	-1.0305718065837
0.55005500550055	-0.0042542852307486	-1.0306052003818
0.55205520552055	-0.0041555996514712	-1.0307535398338
0.55405540554055	-0.0041500118336848	-1.0309607909741
0.55605560556056	-0.0042469021791115	-1.0311305005750
0.55805580558056	-0.0043788544912779	-1.0311936913883
0.56005600560056	-0.0044489014710945	-1.0311569008635
0.56205620562056	-0.0043973339501700	-1.0310986446210
0.56405640564056	-0.0042432266731414	-1.0311173657190
0.56605660566057	-0.0040733227580088	-1.0312660198656
0.56805680568057	-0.0039861464036569	-1.0315167435124
0.57005700570057	-0.0040286192908515	-1.0317785525485
0.57205720572057	-0.0041667879288968	-1.0319557814215
0.57405740574057	-0.0043091651586597	-1.0320084722430
0.57605760576058	-0.0043663873967236	-1.0319754144092
0.57805780578058	-0.0043075025985739	-1.0319458231710
0.58005800580058	-0.0041763617808666	-1.0319995740471
0.58205820582058	-0.0040586465444123	-1.0321559972799
0.58405840584058	-0.0040227177736414	-1.0323645770284
0.58605860586059	-0.0040741138802391	-1.0325424577892
0.58805880588059	-0.0041535496480783	-1.0326326326756
0.59005900590059	-0.0041788084567097	-1.0326435740878
0.59205920592059	-0.0041018074907638	-1.0326441440624
0.59405940594059	-0.0039425458465767	-1.0327177399581
0.59605960596060	-0.0037775562764390	-1.0329065908008
0.59805980598060	-0.0036908994646870	-1.0331831948940
0.60006000600060	-0.0037203413536676	-1.0334674577378
0.60206020602060	-0.0038340336670112	-1.0336777439975
0.60406040604060	-0.0039524141923454	-1.0337819994312
0.60606060606061	-0.0040001513355542	-1.0338156879548
0.60806080608061	-0.0039536162615436	-1.0338557018709
0.61006100610061	-0.0038530848746041	-1.0339684700508
0.61206120612061	-0.0037727381843736	-1.0341669601079
0.61406140614061	-0.0037694281324914	-1.0344045697656
0.61606160616062	-0.0038446589059171	-1.0346089195076
0.61806180618062	-0.0039447149258769	-1.0347321259382
0.62006200620062	-0.0039980843867081	-1.0347837080497
0.62206220622062	-0.0039646076467942	-1.0348244221301
0.62406240624062	-0.0038634164573394	-1.0349255940091
0.62606260626063	-0.0037612651847229	-1.0351213201431
0.62806280628063	-0.0037293069774407	-1.0353852557700
0.63006300630063	-0.0037970797339907	-1.0356470550932
0.63206320632063	-0.0039338857883982	-1.0358372195193
0.63406340634063	-0.0040692810817455	-1.0359306465353
0.63606360636064	-0.0041385510797603	-1.0359605675514
0.63806380638064	-0.0041229816533007	-1.0359945313520
0.64006400640064	-0.0040588200750006	-1.0360891383370
0.64206420642064	-0.0040099816245922	-1.0362537769092
0.64406440644064	-0.0040235223146758	-1.0364469662683
0.64606460646065	-0.0040978240007743	-1.0366068485459
0.64806480648065	-0.0041843761612016	-1.0366947452250
0.65006500650065	-0.0042213506415466	-1.0367224400143
0.65206520652065	-0.0041760838294173	-1.0367451558779
0.65406540654065	-0.0040680013079511	-1.0368252419490
0.65606560656066	-0.0039568624967984	-1.0369909505747
0.65806580658066	-0.0039043408116343	-1.0372176391256
0.66006600660066	-0.0039344562753796	-1.0374435942197
0.66206620662066	-0.0040187912655734	-1.0376097273384
0.66406640664066	-0.0040957570363085	-1.0376968846349
0.66606660666067	-0.0041107043134723	-1.0377365359571
0.66806680668067	-0.0040502831004300	-1.0377885190182
0.67006700670067	-0.0039488018793758	-1.0379012364512
0.67206720672067	-0.0038632233779780	-1.0380808653456
0.67406740674067	-0.0038341479193428	-1.0382895895675
0.67606760676068	-0.0038589891270226	-1.0384732580033
0.67806780678068	-0.0038949231437062	-1.0385993858690
0.68006800680068	-0.0038891052209489	-1.0386799133139
0.68206820682068	-0.0038155695775016	-1.0387636816555
0.68406840684068	-0.0036940731270424	-1.0389039230132
0.68606860686069	-0.0035784300496764	-1.0391225833277
0.68806880688069	-0.0035222337132490	-1.0393951530638
0.69006900690069	-0.0035447106017589	-1.0396658670194
0.69206920692069	-0.0036190834752600	-1.0398830128110
0.69406940694069	-0.0036907188486498	-1.0400310251657
0.69606960696070	-0.0037126867176611	-1.0401385345012
0.69806980698070	-0.0036751851301177	-1.0402576831372
0.70007000700070	-0.0036097919356922	-1.0404289532364
0.70207020702070	-0.0035664522021625	-1.0406549495843
0.70407040704070	-0.0035791017123370	-1.0409001622137
0.70607060706071	-0.0036429828173127	-1.0411162139470
0.70807080708071	-0.0037185016244467	-1.0412752365967
0.71007100710071	-0.0037585949011059	-1.0413889402985
