#Parameters = {C_1=13.247618914885; C_2=49.440786869662; Conductivity=10000000; Conductivity_Mo=17900000; Conductivity_MoGr=1000000; Ip=51.184868986893; Pipe_lenght=40; Pipe_r=30; beta=1; cells_wave=20; conductivity_copper=59500000; d=-349.44078686966; half_gap_x=16.752381085115; half_gap_y=30; half_gap_z=150; mu_copper=0.999994; offset=6.7009524340459; offset_x=1; offset_y=5; sigma_z=5; teta=15; thcoll=13.247618914885; translate_z=-199.44078686966; wakelength=20000}
#"Frequency / GHz"	"X [Re / Ohm]"	"X [Im / Ohm]"
#-----------------------------------------------
0.0000000000000	1.4383781034459e-12	-10.902620629820
0.0020002000200020	-4.1389663884638	-9.8433184851603
0.0040004000400040	-7.1929082520006	-6.9852461074539
0.0060006000600060	-8.4345062423718	-3.1738698825406
0.0080008000800080	-7.7173886824028	0.51665169652447
0.010001000100010	-5.4856702094903	3.1470795757506
0.012001200120012	-2.5767964924692	4.2051924495362
0.014001400140014	0.095262710049748	3.7232190726016
0.016001600160016	1.8489801035388	2.1923540400434
0.018001800180018	2.4227975814104	0.32726765021242
0.020002000200020	1.9862984161867	-1.2134839428090
0.022002200220022	0.99534119497535	-2.0403281929058
0.024002400240024	-0.029901770149010	-2.1087196378035
0.026002600260026	-0.70598688807620	-1.6525978650715
0.028002800280028	-0.89221803221165	-1.0274423096478
0.030003000300030	-0.67870368688322	-0.54276456035366
0.032003200320032	-0.28615422739948	-0.35358432752946
0.034003400340034	0.061820164377371	-0.44231478104481
0.036003600360036	0.23387217203602	-0.67765933703076
0.038003800380038	0.22037959503576	-0.90660689400831
0.040004000400040	0.10042576923972	-1.0306334573189
0.042004200420042	-0.022925906432318	-1.0354188040843
0.044004400440044	-0.080675780453303	-0.97199799565438
0.046004600460046	-0.062962443890478	-0.91081488443266
0.048004800480048	-0.0070498036255376	-0.89833084879535
0.050005000500050	0.036448557337572	-0.93770399930916
0.052005200520052	0.036174766312386	-0.99786543841905
0.054005400540054	-0.0057465729437367	-1.0395495760457
0.056005600560056	-0.061571811420661	-1.0403016806335
0.058005800580058	-0.098884702287383	-1.0048010233052
0.060006000600060	-0.10026222976692	-0.95764336362530
0.062006200620062	-0.070795947751292	-0.92600695390970
0.064006400640064	-0.031435382837304	-0.92389347284595
0.066006600660066	-0.0044763465998937	-0.94662335772140
0.068006800680068	-0.00084811446885248	-0.97691802043938
0.070007000700070	-0.016155058628486	-0.99707035386773
0.072007200720072	-0.036229547005195	-0.99915492236857
0.074007400740074	-0.047346436707666	-0.98770835080270
0.076007600760076	-0.044346114814038	-0.97459600330812
0.078007800780078	-0.032227593150100	-0.97039122475231
0.080008000800080	-0.021317879341398	-0.97796204407728
0.082008200820082	-0.019916072132858	-0.99177663020672
0.084008400840084	-0.029238669746010	-1.0025036814972
0.086008600860086	-0.043419987463338	-1.0033664540501
0.088008800880088	-0.053894646358300	-0.99414064839303
0.090009000900090	-0.054930096317281	-0.98065758346926
0.092009200920092	-0.046798194172617	-0.97067076090430
0.094009400940094	-0.034947050632202	-0.96903824968666
0.096009600960096	-0.026160063027161	-0.97522198019996
0.098009800980098	-0.024393395808044	-0.98433330697094
0.10001000100010	-0.028850022482823	-0.99065396116354
0.10201020102010	-0.035179243102649	-0.99118796188049
0.10401040104010	-0.038679465644057	-0.98707651430952
0.10601060106011	-0.037291625940661	-0.98227394998724
0.10801080108011	-0.032560019358612	-0.98063566000910
0.11001100110011	-0.028201498292058	-0.98341603850089
0.11201120112011	-0.027446278731804	-0.98869673986500
0.11401140114011	-0.030951929814949	-0.99290055369819
0.11601160116012	-0.036547090585548	-0.99322937797567
0.11801180118012	-0.040792712667050	-0.98940433694351
0.12001200120012	-0.041214750576088	-0.98367975743331
0.12201220122012	-0.037752265961152	-0.97927758256044
0.12401240124012	-0.032590482272347	-0.97835927936962
0.12601260126013	-0.028630956656416	-0.98083561035104
0.12801280128013	-0.027674661288482	-0.98467171407082
0.13001300130013	-0.029470593726391	-0.98735320643529
0.13201320132013	-0.032134249160195	-0.98748821319414
0.13401340134013	-0.033537743402626	-0.98553312842365
0.13601360136014	-0.032703066896421	-0.98327419373556
0.13801380138014	-0.030318446480087	-0.98251294597547
0.14001400140014	-0.028131052448554	-0.98386485804895
0.14201420142014	-0.027702257965728	-0.98642868391554
0.14401440144014	-0.029375007522504	-0.98846721555812
0.14601460146015	-0.032098932707381	-0.98858585302781
0.14801480148015	-0.034162992627411	-0.98661913345202
0.15001500150015	-0.034305248172233	-0.98368089996517
0.15201520152015	-0.032469908834978	-0.98140468387401
0.15401540154015	-0.029759200602636	-0.98091117703515
0.15601560156016	-0.027669831610643	-0.98217178656065
0.15801580158016	-0.027148095097326	-0.98413672615847
0.16001600160016	-0.028070728723040	-0.98548573661463
0.16201620162016	-0.029442485172869	-0.98547783710675
0.16401640164016	-0.030125309024371	-0.98435523111870
0.16601660166017	-0.029591497859590	-0.98308209603351
0.16801680168017	-0.028217347101410	-0.98263926146375
0.17001700170017	-0.026963792733122	-0.98336274460941
0.17201720172017	-0.026694510773249	-0.98475050890638
0.17401740174017	-0.027597328756365	-0.98583159184551
0.17601760176018	-0.029077436740412	-0.98582396742741
0.17801780178018	-0.030164177318171	-0.98463938800414
0.18001800180018	-0.030141015158883	-0.98291897203887
0.18201820182018	-0.028983067291476	-0.98160304418587
0.18401840184018	-0.027334830123557	-0.98133599319559
0.18601860186019	-0.026070276485906	-0.98209342744242
0.18801880188019	-0.025740502725285	-0.98325295440745
0.19001900190019	-0.026265755064494	-0.98403347637015
0.19201920192019	-0.027049474409048	-0.98399845305916
0.19401940194019	-0.027411065411575	-0.98329834333624
0.19601960196020	-0.027037369794648	-0.98251605212640
0.19801980198020	-0.026160817809576	-0.98224286487205
0.20002000200020	-0.025367043825822	-0.98267752513034
0.20202020202020	-0.025179972634563	-0.98350795688121
0.20402040204020	-0.025707550390615	-0.98413692764321
0.20602060206021	-0.026576084905309	-0.98408682717900
0.20802080208021	-0.027182127435480	-0.98331169654602
0.21002100210021	-0.027084162919149	-0.98221873080601
0.21202120212021	-0.026275398795741	-0.98139889161102
0.21402140214021	-0.025168736487808	-0.98125325708373
0.21602160216022	-0.024318463270927	-0.98175872605115
0.21802180218022	-0.024070356918256	-0.98251422753953
0.22002200220022	-0.024366860978270	-0.98302124399301
0.22202220222022	-0.024821609441053	-0.98300522752294
0.22402240224022	-0.024998196399104	-0.98256972954580
0.22602260226023	-0.024700711040886	-0.98209493637571
0.22802280228023	-0.024087278246114	-0.98196226697002
0.23002300230023	-0.023543105419466	-0.98229453608769
0.23202320232023	-0.023409015345967	-0.98288072153872
0.23402340234023	-0.023750385692308	-0.98332560654842
0.23602360236024	-0.024316024669902	-0.98331631424141
0.23802380238024	-0.024705998338449	-0.98282683257276
0.24002400240024	-0.024630924523082	-0.98213002880351
0.24202420242024	-0.024091300334146	-0.98161720756673
0.24402440244024	-0.023364879147749	-0.98154959734027
0.24602460246025	-0.022819060190402	-0.98190423582787
0.24802480248025	-0.022677063575515	-0.98240814032659
0.25002500250025	-0.022889973601024	-0.98272884371553
0.25202520252025	-0.023190789324552	-0.98269035926422
0.25402540254025	-0.023285301110638	-0.98237405893463
0.25602560256026	-0.023048522482224	-0.98204565623067
0.25802580258026	-0.022598524875812	-0.98196522060327
0.26002600260026	-0.022205561283342	-0.98221036701912
0.26202620262026	-0.022103664868034	-0.98262802958153
0.26402640264026	-0.022332520110318	-0.98294117471867
0.26602660266027	-0.022712219308665	-0.98293459334820
0.26802680268027	-0.022962710528168	-0.98259545210529
0.27002700270027	-0.022885123678023	-0.98211866584760
0.27202720272027	-0.022485279061573	-0.98177847603541
0.27402740274027	-0.021961965838766	-0.98175420711144
0.27602760276028	-0.021573212396865	-0.98202410514165
0.27802780278028	-0.021471945315388	-0.98239225405556
0.28002800280028	-0.021618045833447	-0.98262474304189
0.28202820282028	-0.021819473605010	-0.98260180720243
0.28402840284028	-0.021869111039563	-0.98238674710962
0.28602860286029	-0.021683452730846	-0.98217111349708
0.28802880288029	-0.021352401200301	-0.98213803032042
0.29002900290029	-0.021071459806888	-0.98233708536568
0.29202920292029	-0.021005716513170	-0.98265272670706
0.29402940294029	-0.021177707063857	-0.98288365734871
0.29602960296030	-0.021452182426777	-0.98287741908760
0.29802980298030	-0.021624855064965	-0.98263027075277
0.30003000300030	-0.021554126833175	-0.98228824268281
0.30203020302030	-0.021248979284571	-0.98205179372963
0.30403040304030	-0.020857793117536	-0.98204896096836
0.30603060306031	-0.020569105823140	-0.98225983665223
0.30803080308031	-0.020491830216898	-0.98253870867334
0.31003100310031	-0.020592916047413	-0.98271510580539
0.31203120312031	-0.020729871383223	-0.98270471604100
0.31403140314031	-0.020752363448622	-0.98255777748664
0.31603160316032	-0.020603290722488	-0.98241640154217
0.31803180318032	-0.020353023396600	-0.98241296043938
0.32003200320032	-0.020146955949153	-0.98257896718605
0.32203220322032	-0.020104162210229	-0.98282436654377
0.32403240324032	-0.020235749666134	-0.98299879596638
0.32603260326033	-0.020436341043613	-0.98299215461383
0.32803280328033	-0.020552507957218	-0.98280734661275
0.33003300330033	-0.020481523235463	-0.98255827528636
0.33203320332033	-0.020235430128586	-0.98239633097035
0.33403340334033	-0.019930016259789	-0.98241500507058
0.33603360336034	-0.019708325798496	-0.98259479266631
0.33803380338034	-0.019650379656081	-0.98282224393055
0.34003400340034	-0.019727734087157	-0.98296775397214
0.34203420342034	-0.019830126487495	-0.98296925121350
0.34403440344034	-0.019843550991402	-0.98286728398501
0.34603460346035	-0.019726476294356	-0.98277088685174
0.34803480348035	-0.019534273744971	-0.98277965223867
0.35003500350035	-0.019377775769537	-0.98291515992277
0.35203520352035	-0.019345666077790	-0.98310687032514
0.35403540354035	-0.019443224551761	-0.98324026806246
0.35603560356036	-0.019587597647227	-0.98323384365999
0.35803580358036	-0.019661479135201	-0.98309349554811
0.36003600360036	-0.019588739044823	-0.98290914437981
0.36203620362036	-0.019382193782925	-0.98279709077302
0.36403640364036	-0.019133287659096	-0.98282689937438
0.36603660366037	-0.018952127275383	-0.98298046276595
0.36803680368037	-0.018898237416129	-0.98316845570996
0.37003700370037	-0.018946997545389	-0.98329129260027
0.37203720372037	-0.019011890913158	-0.98330330554023
0.37403740374037	-0.019005635479796	-0.98323835513630
0.37603760376038	-0.018898565346114	-0.98318185298574
0.37803780378038	-0.018736004262245	-0.98320980881247
0.38003800380038	-0.018604671458854	-0.98333642424960
0.38203820382038	-0.018572044911653	-0.98350474274180
0.38403840384038	-0.018639706613393	-0.98362542190100
0.38603860386039	-0.018741328437614	-0.98363681644920
0.38803880388039	-0.018785755550204	-0.98354621482798
0.39003900390039	-0.018715988743092	-0.98342545574542
0.39203920392039	-0.018545167487768	-0.98336471485968
0.39403940394039	-0.018346682810140	-0.98341549052216
0.39603960396040	-0.018206071799539	-0.98356000971056
0.39803980398040	-0.018166985856372	-0.98372599040183
0.40004000400040	-0.018206358086900	-0.98383560986763
0.40204020402040	-0.018253729434446	-0.98385565033153
0.40404040404040	-0.018240406594405	-0.98381616626286
0.40604060406041	-0.018145139872870	-0.98378671162748
0.40804080408041	-0.018006424283823	-0.98382733516739
0.41004100410041	-0.017894421340368	-0.98394756194722
0.41204120412041	-0.017862288931697	-0.98410031026991
0.41404140414041	-0.017909718803782	-0.98421391222536
0.41604160416042	-0.017982581833991	-0.98424021219144
0.41804180418042	-0.018008225491193	-0.98418667170323
0.42004200420042	-0.017942553458287	-0.98411167765054
0.42204220422042	-0.017797864246847	-0.98408686385336
0.42404240424042	-0.017633774830289	-0.98415172643184
0.42604260426043	-0.017518104603443	-0.98429017157125
0.42804280428043	-0.017483969794638	-0.98444350366781
0.43004300430043	-0.017511010505224	-0.98455018885837
0.43204320432043	-0.017542053487704	-0.98458558399250
0.43404340434043	-0.017523004974696	-0.98457571937571
0.43604360436044	-0.017438958523444	-0.98457705446872
0.43804380438044	-0.017322843278582	-0.98463671967710
0.44004400440044	-0.017231720462865	-0.98476016613597
0.44204420442044	-0.017207305434943	-0.98490751335434
0.44404440444044	-0.017247282810425	-0.98502040220779
0.44604460446045	-0.017306239447692	-0.98506098976236
0.44804480448045	-0.017325110443648	-0.98503712510918
0.45004500450045	-0.017269310632088	-0.98499738693783
0.45204520452045	-0.017150461160142	-0.98499978138940
0.45404540454045	-0.017017926798547	-0.98507503708033
0.45604560456046	-0.016926422864910	-0.98520844009242
0.45804580458046	-0.016901378471171	-0.98535142405206
0.46004600460046	-0.016924577644494	-0.98545441791440
0.46204620462046	-0.016948688536461	-0.98549884932324
0.46404640464046	-0.016930145514322	-0.98550744599635
0.46604660466047	-0.016858156672047	-0.98552684763634
0.46804680468047	-0.016760831434447	-0.98559491281107
0.47004700470047	-0.016685039783318	-0.98571482865685
0.47204720472047	-0.016664039894617	-0.98585305173794
0.47404740474047	-0.016694647259885	-0.98596194968308
0.47604760476048	-0.016738926241791	-0.98601167895377
0.47804780478048	-0.016748889979273	-0.98601006750408
0.48004800480048	-0.016697575292412	-0.98599760609539
0.48204820482048	-0.016596017748485	-0.98602127326600
0.48404840484048	-0.016485341816577	-0.98610471162231
0.48604860486049	-0.016409716165142	-0.98623425062407
0.48804880488049	-0.016388288072481	-0.98636942219080
0.49004900490049	-0.016404394306806	-0.98647037282421
0.49204920492049	-0.016418530707121	-0.98652373016378
0.49404940494049	-0.016395802806100	-0.98655001591609
0.49604960496050	-0.016329321278058	-0.98658829443562
0.49804980498050	-0.016244170037960	-0.98666885689953
0.50005000500050	-0.016179778553944	-0.98679237108878
0.50205020502050	-0.016162850489216	-0.98692923717213
0.50405040504050	-0.016188992166817	-0.98703925249870
0.50605060506051	-0.016225095142326	-0.98709827744122
0.50805080508051	-0.016230631734757	-0.98711422374022
0.51005100510051	-0.016183626454813	-0.98712202888697
0.51205120512051	-0.016094278386585	-0.98716125259406
0.51405140514051	-0.015997643741178	-0.98725121454368
0.51605160516052	-0.015930654279484	-0.98737984680033
0.51805180518052	-0.015908826095628	-0.98751307289749
0.52005200520052	-0.015917787436593	-0.98761794228882
0.52205220522052	-0.015924625291822	-0.98768395579440
0.52405240524052	-0.015900911805326	-0.98772866595456
0.52605260526053	-0.015841827735085	-0.98778438307503
0.52805280528053	-0.015768805092946	-0.98787537301541
0.53005300530053	-0.015714335226497	-0.98800098922894
0.53205320532053	-0.015699445994618	-0.98813590082720
0.53405340534053	-0.015719011480191	-0.98824701416753
0.53605360536054	-0.015744601807118	-0.98831562007572
0.53805380538054	-0.015742815932146	-0.98835001838038
0.54005400540054	-0.015696847754354	-0.98838038172447
0.54205420542054	-0.015617097823332	-0.98843944016799
0.54405440544054	-0.015534072052734	-0.98854181384053
0.54605460546055	-0.015478533635692	-0.98867546480065
0.54805480548055	-0.015462103856361	-0.98881053319566
0.55005500550055	-0.015470910388935	-0.98891934012370
0.55205520552055	-0.015476038548034	-0.98899418891225
0.55405540554055	-0.015453437347050	-0.98905137827714
0.55605560556056	-0.015399910149346	-0.98911918811292
0.55805580558056	-0.015334723826586	-0.98921820291586
0.56005600560056	-0.015286096005613	-0.98934720036129
0.56205620562056	-0.015271823440788	-0.98948387916411
0.56405640564056	-0.015287008656200	-0.98959971855243
0.56605660566057	-0.015306927174931	-0.98967894408686
0.56805680568057	-0.015302962969223	-0.98972903699334
0.57005700570057	-0.015260981859744	-0.98977599769907
0.57205720572057	-0.015190104175251	-0.98984769524172
0.57405740574057	-0.015116356666076	-0.98995636510517
0.57605760576058	-0.015065682699126	-0.99009163370522
0.57805780578058	-0.015047631178073	-0.99022830138130
0.58005800580058	-0.015050308219778	-0.99034336320881
0.58205820582058	-0.015049516336923	-0.99043085012222
0.58405840584058	-0.015025613937261	-0.99050481735238
0.58605860586059	-0.014976718311844	-0.99058887097885
0.58805880588059	-0.014919577768893	-0.99069955617272
0.59005900590059	-0.014877804385421	-0.99083482833400
0.59205920592059	-0.014865550746133	-0.99097522872641
0.59405940594059	-0.014877595107733	-0.99109681863283
0.59605960596060	-0.014892377696258	-0.99118714262362
0.59805980598060	-0.014885863796297	-0.99125361292236
0.60006000600060	-0.014846992782817	-0.99131886162011
0.60206020602060	-0.014784568402416	-0.99140626753862
0.60406040604060	-0.014721234173952	-0.99152526035638
0.60606060606061	-0.014678721790511	-0.99166596885322
0.60806080608061	-0.014664184915783	-0.99180646075186
0.61006100610061	-0.014666493592384	-0.99192750030070
0.61206120612061	-0.014664614811696	-0.99202494177410
0.61406140614061	-0.014642204132819	-0.99211167541902
0.61606160616062	-0.014598576899872	-0.99220812778761
0.61806180618062	-0.014548842337411	-0.99232791390294
0.62006200620062	-0.014513316164003	-0.99246832342532
0.62206220622062	-0.014503448250861	-0.99261194546101
0.62406240624062	-0.014513712710773	-0.99273824359133
0.62606260626063	-0.014524833255915	-0.99283730303274
0.62806280628063	-0.014516150621788	-0.99291662032862
0.63006300630063	-0.014478928550420	-0.99299649904417
0.63206320632063	-0.014421875576885	-0.99309716233986
0.63406340634063	-0.014365383220080	-0.99322608025790
0.63606360636064	-0.014328415191275	-0.99337373069262
0.63806380638064	-0.014316704012155	-0.99352035192137
0.64006400640064	-0.014319871211401	-0.99364901799058
0.64206420642064	-0.014319079579916	-0.99375635014789
0.64406440644064	-0.014299894738017	-0.99385394139456
0.64606460646065	-0.014261750258705	-0.99395983958777
0.64806480648065	-0.014217858072645	-0.99408599327868
0.65006500650065	-0.014185854894369	-0.99423009240010
0.65206520652065	-0.014175597536731	-0.99437715055731
0.65406540654065	-0.014182287120285	-0.99450962213405
0.65606560656066	-0.014189433400644	-0.99461921409588
0.65806580658066	-0.014179587789628	-0.99471253747353
0.66006600660066	-0.014145672439253	-0.99480693152883
0.66206620662066	-0.014095450110903	-0.99491932844475
0.66406640664066	-0.014046314757279	-0.99505555755864
0.66606660666067	-0.014013991595373	-0.99520706579110
0.66806680668067	-0.014002662326824	-0.99535702440983
0.67006700670067	-0.014002934722810	-0.99549158604057
0.67206720672067	-0.013998773224654	-0.99560876309127
0.67406740674067	-0.013978574521256	-0.99571913596570
0.67606760676068	-0.013942935920267	-0.99583812636652
0.67806780678068	-0.013904005425320	-0.99597516857046
0.68006800680068	-0.013876985916310	-0.99612707942949
0.68206820682068	-0.013869577497239	-0.99628002610425
0.68406840684068	-0.013876442851034	-0.99641871638385
0.68606860686069	-0.013882370087484	-0.99653665202970
0.68806880688069	-0.013872009588230	-0.99664063842269
0.69006900690069	-0.013839739202376	-0.99674660142302
0.69206920692069	-0.013793195855842	-0.99686951455872
0.69406940694069	-0.013748248126811	-0.99701406762141
0.69606960696070	-0.013718818943141	-0.99717212098987
0.69806980698070	-0.013708270933207	-0.99732844598302
0.70007000700070	-0.013707906578291	-0.99747080558781
0.70207020702070	-0.013703353500911	-0.99759767902866
0.70407040704070	-0.013684413854773	-0.99771863791999
