#Parameters = {C_1=13.8; C_2=51.50230114445; Conductivity_W=18000000; Ip=53.319105611157; Pipe_lenght=40; Pipe_r=30; beta=1; cells_wave=20; conductivity_copper=59500000; d=-151.50230114445; half_gap_x=16.2; half_gap_y=30; half_gap_z=50; mu_copper=0.999994; offset=6.48; offset_x=1; offset_y=5; sigma_z=5; teta=15; thcoll=13.8; translate_z=-101.50230114445; wakelength=20000}
#"Frequency / GHz"	"X [Re / Ohm]"	"X [Im / Ohm]"
#-----------------------------------------------
0.0000000000000	2.3304985492731e-11	-148.91271352697
0.0020002000200020	-61.643589819763	-133.16746504074
0.0040004000400040	-107.17721234711	-90.676661187911
0.0060006000600060	-125.79506878960	-33.984912579104
0.0080008000800080	-115.30730432416	20.965077804791
0.010001000100010	-82.284836371549	60.223560954453
0.012001200120012	-39.140202154828	76.166817653342
0.014001400140014	0.56690590981079	69.243193686781
0.016001600160016	26.710953791274	46.712103170383
0.018001800180018	35.385142298678	19.158242322127
0.020002000200020	29.074103693430	-3.6511104058683
0.022002200220022	14.513606843050	-15.923939954041
0.024002400240024	-0.59502142274188	-16.976633014639
0.026002600260026	-10.564469167213	-10.254951386883
0.028002800280028	-13.296544010511	-1.0137043163157
0.030003000300030	-10.111202203755	6.1634653232231
0.032003200320032	-4.2673032589611	8.9739359376507
0.034003400340034	0.92650822173193	7.6687999534080
0.036003600360036	3.5219409762443	4.1849308700454
0.038003800380038	3.3702661211652	0.78518350247591
0.040004000400040	1.6367397412803	-1.0698729614710
0.042004200420042	-0.15546872365380	-1.1637737909496
0.044004400440044	-0.98417229600852	-0.24758655615545
0.046004600460046	-0.70050174142920	0.63841561449180
0.048004800480048	0.14711218648141	0.80652895287448
0.050005000500050	0.81140941993890	0.20831408741762
0.052005200520052	0.82837323909768	-0.69842134296221
0.054005400540054	0.22824361071642	-1.3337297790410
0.056005600560056	-0.57988245378308	-1.3651692412626
0.058005800580058	-1.1171432057838	-0.86087814048869
0.060006000600060	-1.1255549072383	-0.18350661693597
0.062006200620062	-0.67952702393880	0.26558508611240
0.064006400640064	-0.087938278994614	0.27920263347729
0.066006600660066	0.32002221651979	-0.074075612379085
0.068006800680068	0.38268559151454	-0.53943970179498
0.070007000700070	0.16457157490248	-0.85545733897639
0.072007200720072	-0.12542122813483	-0.90489507575974
0.074007400740074	-0.28476615566942	-0.75442298003912
0.076007600760076	-0.23727117286462	-0.57891808485854
0.078007800780078	-0.056650921397802	-0.53420905761539
0.080008000800080	0.10477939131712	-0.66237483592266
0.082008200820082	0.12473411548169	-0.88149398012916
0.084008400840084	-0.014390086114004	-1.0536173982145
0.086008600860086	-0.22554677696114	-1.0786613705570
0.088008800880088	-0.38183604862135	-0.95349001710458
0.090009000900090	-0.39831339447211	-0.76456345015024
0.092009200920092	-0.27891228946808	-0.62681036736505
0.094009400940094	-0.10423169822371	-0.61235345658097
0.096009600960096	0.025252919331318	-0.71346213736369
0.098009800980098	0.050785068034306	-0.85793992197242
0.10001000100010	-0.016102742162404	-0.96115334216919
0.10201020102010	-0.11122516026143	-0.97858425709474
0.10401040104010	-0.16504007629466	-0.92684180522220
0.10601060106011	-0.14691836217314	-0.86419481172546
0.10801080108011	-0.079424878339989	-0.84759357553164
0.11001100110011	-0.017266561727615	-0.89569035275405
0.11201120112011	-0.0080602434286888	-0.98033626888783
0.11401140114011	-0.061523794785736	-1.0488795952210
0.11601160116012	-0.14566348167354	-1.0601325282957
0.11801180118012	-0.20979799472709	-1.0100564798637
0.12001200120012	-0.21750660152951	-0.93197056738681
0.12201220122012	-0.16799947577996	-0.87343649356147
0.12401240124012	-0.093639449911146	-0.86631174003215
0.12601260126013	-0.037333968973014	-0.90917839612453
0.12801280128013	-0.025686270632619	-0.97186322669120
0.13001300130013	-0.054935645106648	-1.0171144740558
0.13201320132013	-0.097143051615446	-1.0242912672670
0.13401340134013	-0.12074339278475	-1.0001061822871
0.13601360136014	-0.11115471783360	-0.97097735286084
0.13801380138014	-0.078435932912999	-0.96360350621408
0.14001400140014	-0.048337509434191	-0.98719630602077
0.14201420142014	-0.043920801161467	-1.0285679515652
0.14401440144014	-0.070295656600107	-1.0621624466808
0.14601460146015	-0.11201949750119	-1.0674505475340
0.14801480148015	-0.14390091919542	-1.0420219937574
0.15001500150015	-0.14737844641639	-1.0023309792890
0.15201520152015	-0.12169435785821	-0.97248257767274
0.15401540154015	-0.083178215745608	-0.96898778528483
0.15601560156016	-0.053964077147710	-0.99136936346686
0.15801580158016	-0.048029890194832	-1.0240627536443
0.16001600160016	-0.063529319177851	-1.0475164676087
0.16201620162016	-0.085716343796551	-1.0507555398457
0.16401640164016	-0.097728673565929	-1.0373551993511
0.16601660166017	-0.091728531184421	-1.0215818461446
0.16801680168017	-0.073253214406817	-1.0179648369600
0.17001700170017	-0.056502879934698	-1.0315100855157
0.17201720172017	-0.054262884509246	-1.0548299598961
0.17401740174017	-0.069344064973153	-1.0735863419713
0.17601760176018	-0.092989486559912	-1.0762084037563
0.17801780178018	-0.11087109892288	-1.0613591277423
0.18001800180018	-0.11239106430435	-1.0384751532724
0.18201820182018	-0.097149314326480	-1.0214260814412
0.18401840184018	-0.074625420054621	-1.0197313156721
0.18601860186019	-0.057693299653988	-1.0330530995446
0.18801880188019	-0.054472401121344	-1.0522359460332
0.19001900190019	-0.063783567028093	-1.0657858744796
0.19201920192019	-0.076833065686593	-1.0672942339325
0.19401940194019	-0.083600278212005	-1.0590112266947
0.19601960196020	-0.079499518317614	-1.0495589675907
0.19801980198020	-0.068004511234555	-1.0476670781265
0.20002000200020	-0.057800990700765	-1.0562526794212
0.20202020202020	-0.056654116709183	-1.0706765996303
0.20402040204020	-0.066173154023583	-1.0820801875248
0.20602060206021	-0.080839967669152	-1.0833677813376
0.20802080208021	-0.091728230065642	-1.0738195371995
0.21002100210021	-0.092288376865927	-1.0594139836318
0.21202120212021	-0.082378114575726	-1.0488551568121
0.21402140214021	-0.068044903833350	-1.0480599996307
0.21602160216022	-0.057423515599187	-1.0567021831694
0.21802180218022	-0.055578951626986	-1.0688944906152
0.22002200220022	-0.061639450840770	-1.0773256983144
0.22202220222022	-0.069903331450406	-1.0779956385772
0.22402240224022	-0.073954689848776	-1.0724770243577
0.22602260226023	-0.070944401529399	-1.0664050448978
0.22802280228023	-0.063251489321246	-1.0654057519410
0.23002300230023	-0.056592799557732	-1.0712643086741
0.23202320232023	-0.056004731104149	-1.0808277141464
0.23402340234023	-0.062431832671935	-1.0882311937777
0.23602360236024	-0.072130012796872	-1.0888467085016
0.23802380238024	-0.079160428903707	-1.0823066239853
0.24002400240024	-0.079232355389423	-1.0726745763229
0.24202420242024	-0.072357935086162	-1.0657679443602
0.24402440244024	-0.062663374716406	-1.0654747373521
0.24602460246025	-0.055609494285080	-1.0714694041983
0.24802480248025	-0.054528048951894	-1.0797161498878
0.25002500250025	-0.058724093386432	-1.0852869720547
0.25202520252025	-0.064270693701635	-1.0855573560644
0.25402540254025	-0.066827891178963	-1.0817014223523
0.25602560256026	-0.064545052028924	-1.0776169047454
0.25802580258026	-0.059152312433362	-1.0771215409005
0.26002600260026	-0.054619154759227	-1.0813444116106
0.26202620262026	-0.054373734891958	-1.0880172076977
0.26402640264026	-0.058971712436087	-1.0930535290434
0.26602660266027	-0.065729942185641	-1.0932936863921
0.26802680268027	-0.070497420510340	-1.0885773013277
0.27002700270027	-0.070337533443382	-1.0818156503423
0.27202720272027	-0.065351696437160	-1.0770865118434
0.27402740274027	-0.058501039119222	-1.0770540520168
0.27602760276028	-0.053623569962774	-1.0813984982264
0.27802780278028	-0.052999846516041	-1.0872159410378
0.28002800280028	-0.056050070799393	-1.0910346664752
0.28202820282028	-0.059941122672438	-1.0910677126044
0.28402840284028	-0.061609810427757	-1.0882345625167
0.28602860286029	-0.059813913497391	-1.0853531336407
0.28802880288029	-0.055869543999152	-1.0851214414177
0.29002900290029	-0.052650825022219	-1.0882701163734
0.29202920292029	-0.052582389887952	-1.0930964418393
0.29402940294029	-0.055985674974531	-1.0966375391929
0.29602960296030	-0.060857327809835	-1.0966570955893
0.29802980298030	-0.064182771026162	-1.0931171455595
0.30003000300030	-0.063882182954055	-1.0881885470364
0.30203020302030	-0.060105643503657	-1.0848379742327
0.30403040304030	-0.055062396629518	-1.0849521414034
0.30603060306031	-0.051549052681315	-1.0882239835124
0.30803080308031	-0.051176611596183	-1.0924846249400
0.31003100310031	-0.053449669376272	-1.0952019469628
0.31203120312031	-0.056250239779615	-1.0951235892037
0.31403140314031	-0.057343665104561	-1.0929933194444
0.31603160316032	-0.055876250934603	-1.0909190915399
0.31803180318032	-0.052883724890488	-1.0908685912279
0.32003200320032	-0.050516863050570	-1.0933193944773
0.32203220322032	-0.050543072049209	-1.0969499653838
0.32403240324032	-0.053138019271491	-1.0995426371489
0.32603260326033	-0.056757051488914	-1.0994683440324
0.32803280328033	-0.059143110770727	-1.0967614307362
0.33003300330033	-0.058782591391215	-1.0930916619960
0.33203320332033	-0.055849700033851	-1.0906815385118
0.33403340334033	-0.052043454384827	-1.0909016706958
0.33603360336034	-0.049460411693533	-1.0934611396497
0.33803380338034	-0.049266097491223	-1.0966911731599
0.34003400340034	-0.051029578285827	-1.0986930786367
0.34203420342034	-0.053121289252948	-1.0985698789988
0.34403440344034	-0.053867012579734	-1.0969382703576
0.34603460346035	-0.052670490557814	-1.0954190066294
0.34803480348035	-0.050368644495897	-1.0954835657923
0.35003500350035	-0.048614091232608	-1.0974428646296
0.35203520352035	-0.048726000887675	-1.1002429367101
0.35403540354035	-0.050785777915199	-1.1021800916011
0.35603560356036	-0.053569640519426	-1.1020399287761
0.35803580358036	-0.055343631181359	-1.0999002996697
0.36003600360036	-0.054980735166386	-1.0970796139951
0.36203620362036	-0.052664446117065	-1.0952849060100
0.36403640364036	-0.049734096610102	-1.0955339518837
0.36603660366037	-0.047799065004565	-1.0975547951013
0.36803680368037	-0.047719442642138	-1.1000327167667
0.37003700370037	-0.049116353293293	-1.1015115298659
0.37203720372037	-0.050706495501778	-1.1013380209981
0.37403740374037	-0.051207672489582	-1.1000333165321
0.37603760376038	-0.050198739672652	-1.0988723386502
0.37803780378038	-0.048369766506404	-1.0989792341988
0.38003800380038	-0.047018294385195	-1.1005539742284
0.38203820382038	-0.047148497139000	-1.1027392077502
0.38403840384038	-0.048781178070114	-1.1041995056695
0.38603860386039	-0.050927049281259	-1.1040138496541
0.38803880388039	-0.052227780312243	-1.1022864297399
0.39003900390039	-0.051830963442901	-1.1000806027773
0.39203920392039	-0.049923116433358	-1.0987338393462
0.39403940394039	-0.047583383116571	-1.0990138808827
0.39603960396040	-0.046072530640398	-1.1006665379706
0.39803980398040	-0.046035490443709	-1.1026339445635
0.40004000400040	-0.047136161855141	-1.1037770338652
0.40204020402040	-0.048343981101256	-1.1036135839083
0.40404040404040	-0.048658930709007	-1.1025902816567
0.40604060406041	-0.047782404669753	-1.1017289625303
0.40804080408041	-0.046293635873054	-1.1019032086448
0.41004100410041	-0.045230823820992	-1.1032364571987
0.41204120412041	-0.045371546049631	-1.1050180990631
0.41404140414041	-0.046697478872740	-1.1061814965226
0.41604160416042	-0.048394791984917	-1.1060160991500
0.41804180418042	-0.049380548379526	-1.1046393389657
0.42004200420042	-0.049000068558404	-1.1029226704277
0.42204220422042	-0.047436498831208	-1.1019308663160
0.42404240424042	-0.045573165633079	-1.1022502236129
0.42604260426043	-0.044412921518501	-1.1036437515655
0.42804280428043	-0.044444110387531	-1.1052459020201
0.43004300430043	-0.045365494234725	-1.1061515898504
0.43204320432043	-0.046335152227633	-1.1060019915122
0.43404340434043	-0.046560650811693	-1.1051849191001
0.43604360436044	-0.045830281379940	-1.1045326433455
0.43804380438044	-0.044636629238325	-1.1047339516103
0.44004400440044	-0.043822738763587	-1.1058590133325
0.44204420442044	-0.043998186098919	-1.1073102220693
0.44404440444044	-0.045118207955672	-1.1082229585082
0.44604460446045	-0.046502396015814	-1.1080425772908
0.44804480448045	-0.047273759219996	-1.1068936045106
0.45004500450045	-0.046922914449593	-1.1055018311260
0.45204520452045	-0.045626466235160	-1.1047283184809
0.45404540454045	-0.044117882869926	-1.1050267622385
0.45604560456046	-0.043206209892792	-1.1061779089666
0.45804580458046	-0.043264896427658	-1.1074645461681
0.46004600460046	-0.044023074646032	-1.1081586633372
0.46204620462046	-0.044784053969117	-1.1079926240877
0.46404640464046	-0.044912474014915	-1.1073069655272
0.46604660466047	-0.044260298951260	-1.1067891174680
0.46804680468047	-0.043251951412449	-1.1069890241423
0.47004700470047	-0.042581549944971	-1.1079396174079
0.47204720472047	-0.042732765738406	-1.1091324341749
0.47404740474047	-0.043644280813217	-1.1098580356306
0.47604760476048	-0.044740830071839	-1.1096795549409
0.47804780478048	-0.045304264998665	-1.1087243938762
0.48004800480048	-0.044935770059936	-1.1076048369593
0.48204820482048	-0.043805481565091	-1.1070256422722
0.48404840484048	-0.042531377255727	-1.1073402954010
0.48604860486049	-0.041775119081695	-1.1083450217957
0.48804880488049	-0.041824927237537	-1.1094371411922
0.49004900490049	-0.042436542053833	-1.1100231504672
0.49204920492049	-0.043026827384435	-1.1099021455601
0.49404940494049	-0.043080873577094	-1.1093745394626
0.49604960496050	-0.042497393818647	-1.1090137970708
0.49804980498050	-0.041645640129788	-1.1092626031894
0.50005000500050	-0.041103520328934	-1.1101265702515
0.50205020502050	-0.041258214949132	-1.1111675601655
0.50405040504050	-0.042037739118223	-1.1117960473937
0.50605060506051	-0.042950082031208	-1.1116641341585
0.50805080508051	-0.043400251416145	-1.1108979432343
0.51005100510051	-0.043073027098524	-1.1100185529281
0.51205120512051	-0.042129987311093	-1.1096079788334
0.51405140514051	-0.041096043887461	-1.1099425694068
0.51605160516052	-0.040516421799474	-1.1108325780100
0.51805180518052	-0.040612937866919	-1.1117662494799
0.52005200520052	-0.041162862530683	-1.1122553119249
0.52205220522052	-0.041671895252473	-1.1121499342566
0.52405240524052	-0.041717990499985	-1.1117178139063
0.52605260526053	-0.041233929907581	-1.1114428570117
0.52805280528053	-0.040543126667188	-1.1116849711593
0.53005300530053	-0.040130838246875	-1.1124308014141
0.53205320532053	-0.040308553561662	-1.1132999180665
0.53405340534053	-0.040996970887130	-1.1137984770040
0.53605360536054	-0.041770463594690	-1.1136486871668
0.53805380538054	-0.042130771341571	-1.1129751780691
0.54005400540054	-0.041827112416623	-1.1122272594170
0.54205420542054	-0.041012548022651	-1.1118916946135
0.54405440544054	-0.040137687110686	-1.1121868701940
0.54605460546055	-0.039656673017231	-1.1129374204117
0.54805480548055	-0.039741306186043	-1.1137058468642
0.55005500550055	-0.040188902350221	-1.1140877929050
0.55205520552055	-0.040577754948447	-1.1139730183707
0.55405540554055	-0.040560183135952	-1.1136020045623
0.55605560556056	-0.040095575758713	-1.1133871275154
0.55805580558056	-0.039470457674817	-1.1136234811957
0.56005600560056	-0.039097067908646	-1.1142845174610
0.56205620562056	-0.039228883779351	-1.1150373957513
0.56405640564056	-0.039784030856196	-1.1154647907682
0.56605660566057	-0.040392897782280	-1.1153433643525
0.56805680568057	-0.040636247613071	-1.1147939511857
0.57005700570057	-0.040315015040802	-1.1142059251261
0.57205720572057	-0.039574701723674	-1.1139882601185
0.57405740574057	-0.038805770669553	-1.1143125143986
0.57605760576058	-0.038389605448187	-1.1150149690742
0.57805780578058	-0.038459041304845	-1.1157173831506
0.58005800580058	-0.038828865866543	-1.1160814032259
0.58205820582058	-0.039136390685578	-1.1160262872627
0.58405840584058	-0.039093222831670	-1.1157681192930
0.58605860586059	-0.038678662615779	-1.1156598611615
0.58805880588059	-0.038147794397133	-1.1159436252769
0.59005900590059	-0.037852819778406	-1.1165822231296
0.59205920592059	-0.038000056211323	-1.1172812138850
0.59405940594059	-0.038505603199432	-1.1176843988492
0.59605960596060	-0.039044793885086	-1.1176110125259
0.59805980598060	-0.039261012683226	-1.1171771554961
0.60006000600060	-0.038994814143250	-1.1167226125880
0.60206020602060	-0.038383022897168	-1.1165934041126
0.60406040604060	-0.037765317151319	-1.1169242206196
0.60606060606061	-0.037463045172418	-1.1175622368030
0.60806080608061	-0.037577244388886	-1.1181783001513
0.61006100610061	-0.037936858395482	-1.1184877877737
0.61206120612061	-0.038226483980914	-1.1184334438361
0.61406140614061	-0.038204283984902	-1.1182111787467
0.61606160616062	-0.037863466446046	-1.1181262079801
0.61806180618062	-0.037431400142729	-1.1183793342595
0.62006200620062	-0.037210220511630	-1.1189273798274
0.62206220622062	-0.037367888746652	-1.1195099250600
0.62406240624062	-0.037819806818855	-1.1198226461234
0.62606260626063	-0.038279052432163	-1.1197206115937
0.62806280628063	-0.038440677873690	-1.1193166120625
0.63006300630063	-0.038177493172655	-1.1189106551149
0.63206320632063	-0.037618934375477	-1.1187987661863
0.63406340634063	-0.037063397810180	-1.1190876853674
0.63606360636064	-0.036784420570489	-1.1196358928418
0.63806380638064	-0.036859344763951	-1.1201562418701
0.64006400640064	-0.037131501647777	-1.1204088527215
0.64206420642064	-0.037326743748993	-1.1203554029083
0.64406440644064	-0.037243156939634	-1.1201744327966
0.64606460646065	-0.036886423335959	-1.1201313031743
0.64806480648065	-0.036462052585143	-1.1203927234537
0.65006500650065	-0.036232355254967	-1.1209107458280
0.65206520652065	-0.036335706013717	-1.1214528386857
0.65406540654065	-0.036689231207639	-1.1217564926841
0.65606560656066	-0.037039114345659	-1.1217044766263
0.65806580658066	-0.037124196007063	-1.1214044594727
0.66006600660066	-0.036844164673020	-1.1211212864278
0.66206620662066	-0.036322060466695	-1.1211078864510
0.66406640664066	-0.035821874950256	-1.1214466545810
0.66606660666067	-0.035577683190234	-1.1220043495217
0.66806680668067	-0.035647579506056	-1.1225271808077
0.67006700670067	-0.035886994709120	-1.1228103243077
0.67206720672067	-0.036055460955085	-1.1228287557345
0.67406740674067	-0.035982758041966	-1.1227443653561
0.67606760676068	-0.035682855569042	-1.1227878812523
0.67806780678068	-0.035340959786238	-1.1230970212672
0.68006800680068	-0.035184564206697	-1.1236198050630
0.68206820682068	-0.035326287858804	-1.1241468937793
0.68406840684068	-0.035683803534755	-1.1244502007994
0.68606860686069	-0.036029704461503	-1.1244347631242
0.68806880688069	-0.036137500169290	-1.1242031387245
0.69006900690069	-0.035926832753700	-1.1239905276457
0.69206920692069	-0.035512739093693	-1.1240144744865
0.69406940694069	-0.035128186100426	-1.1243384862804
0.69606960696070	-0.034972716783553	-1.1248381214425
0.69806980698070	-0.035087466192433	-1.1252892821559
0.70007000700070	-0.035337431932549	-1.1255179075560
0.70207020702070	-0.035509663850052	-1.1255112767581
0.70407040704070	-0.035459520927472	-1.1254186326137
0.70607060706071	-0.035206868505349	-1.1254434879809
0.70807080708071	-0.034919208846493	-1.1257016630303
0.71007100710071	-0.034794913891991	-1.1261405270905
0.71207120712071	-0.034925922675386	-1.1265727689409
0.71407140714071	-0.035231873857822	-1.1268011921533
0.71607160716072	-0.035509163207911	-1.1267508651941
0.71807180718072	-0.035561814506640	-1.1265209711170
0.72007200720072	-0.035327356387875	-1.1263227001622
