#Parameters = {C_1=25.412767459909; C_2=94.841739321315; Conductivity=10000000; Conductivity_Mo=17900000; Conductivity_MoGr=1000000; Ip=98.18739362802; Pipe_lenght=40; Pipe_r=30; beta=1; cells_wave=20; conductivity_copper=59500000; d=-394.84173932132; half_gap_x=4.5872325400905; half_gap_y=30; half_gap_z=150; mu_copper=0.999994; offset=1.8348930160362; offset_x=1; offset_y=5; sigma_z=5; teta=15; thcoll=25.412767459909; translate_z=-244.84173932132; wakelength=20000}
#"Frequency / GHz"	"X [Re / Ohm]"	"X [Im / Ohm]"
#-----------------------------------------------
0.0000000000000	3.2267304320642e-12	-49.410967097650
0.0020002000200020	-8.1283870339688	-47.418818273411
0.0040004000400040	-14.228577573167	-42.039447068279
0.0060006000600060	-16.939949149816	-34.851276712200
0.0080008000800080	-15.986111415014	-27.859955234301
0.010001000100010	-12.192779301771	-22.819809356209
0.012001200120012	-7.1199420228113	-20.688734892234
0.014001400140014	-2.4707529264143	-21.409010423585
0.016001600160016	0.48495523720277	-24.066748268601
0.018001800180018	1.2605525648265	-27.331246135726
0.020002000200020	0.17342657937140	-29.976613139804
0.022002200220022	-1.9253499622807	-31.278879482896
0.024002400240024	-4.0651794876336	-31.157780472086
0.026002600260026	-5.5310266886403	-30.052483035043
0.028002800280028	-6.0611568297404	-28.628645697959
0.030003000300030	-5.8247376607233	-27.465809921547
0.032003200320032	-5.2347500209283	-26.854901269355
0.034003400340034	-4.7096080049107	-26.764473387531
0.036003600360036	-4.4955353279411	-26.950676149878
0.038003800380038	-4.6115781909572	-27.128983772102
0.040004000400040	-4.9112380654864	-27.116431396921
0.042004200420042	-5.2032779905332	-26.887081227827
0.044004400440044	-5.3600523398195	-26.536839945158
0.046004600460046	-5.3642951127664	-26.197698009752
0.048004800480048	-5.2866805825463	-25.956740094475
0.050005000500050	-5.2227600744228	-25.820087051965
0.052005200520052	-5.2320808765474	-25.729847918144
0.054005400540054	-5.3116106187960	-25.612725768511
0.056005600560056	-5.4104002886272	-25.426723167511
0.058005800580058	-5.4686789183557	-25.180443545191
0.060006000600060	-5.4545720540372	-24.919650226537
0.062006200620062	-5.3781638118690	-24.694932846837
0.064006400640064	-5.2791001244602	-24.532298296776
0.066006600660066	-5.1995259026358	-24.422886369517
0.068006800680068	-5.1603677140310	-24.334302291116
0.070007000700070	-5.1539412529434	-24.233311549486
0.072007200720072	-5.1542982900324	-24.104883210882
0.074007400740074	-5.1362679115117	-23.957192369352
0.076007600760076	-5.0905963341281	-23.812052996410
0.078007800780078	-5.0269086391476	-23.688852223766
0.080008000800080	-4.9646947629162	-23.592608122151
0.082008200820082	-4.9195953706921	-23.512696613122
0.084008400840084	-4.8939911688162	-23.431450406861
0.086008600860086	-4.8770285610502	-23.336018101703
0.088008800880088	-4.8528187039218	-23.225814783859
0.090009000900090	-4.8107733662496	-23.111577720883
0.092009200920092	-4.7515240165268	-23.007634828019
0.094009400940094	-4.6853681537430	-22.922901283969
0.096009600960096	-4.6250893446282	-22.856207843651
0.098009800980098	-4.5781783356320	-22.798254757025
0.10001000100010	-4.5432325346226	-22.738190057637
0.10201020102010	-4.5121936851241	-22.670246836746
0.10401040104010	-4.4763283530724	-22.596390766664
0.10601060106011	-4.4318199813788	-22.523853156843
0.10801080108011	-4.3815681293056	-22.459697441080
0.11001100110011	-4.3325236760582	-22.406148473503
0.11201120112011	-4.2907302759890	-22.359522556871
0.11401140114011	-4.2574338345923	-22.313048624341
0.11601160116012	-4.2286046596420	-22.261413596757
0.11801180118012	-4.1978494023389	-22.204005953734
0.12001200120012	-4.1605744292851	-22.144939620158
0.12201220122012	-4.1166845549263	-22.090132459162
0.12401240124012	-4.0702688809694	-22.043523858256
0.12601260126013	-4.0267454998679	-22.004856933304
0.12801280128013	-3.9894727448591	-21.970250501351
0.13001300130013	-3.9579767669102	-21.934935625569
0.13201320132013	-3.9287347502748	-21.896243640241
0.13401340134013	-3.8977692447197	-21.854958024564
0.13601360136014	-3.8632462127116	-21.814345543151
0.13801380138014	-3.8264360782829	-21.777704193099
0.14001400140014	-3.7905795115615	-21.746124719981
0.14201420142014	-3.7585668099803	-21.717877469925
0.14401440144014	-3.7310160089855	-21.689684580550
0.14601460146015	-3.7059524456920	-21.658917280764
0.14801480148015	-3.6801797285111	-21.625244501686
0.15001500150015	-3.6513502016428	-21.590719250180
0.15201520152015	-3.6193728032582	-21.558355505024
0.15401540154015	-3.5863160658279	-21.530199961900
0.15601560156016	-3.5549769540295	-21.506147485245
0.15801580158016	-3.5271147040925	-21.484186111437
0.16001600160016	-3.5024833465932	-21.461803904426
0.16201620162016	-3.4792045541520	-21.437578115836
0.16401640164016	-3.4551329746872	-21.411929022443
0.16601660166017	-3.4292646970031	-21.386630219768
0.16801680168017	-3.4022858968691	-21.363489677471
0.17001700170017	-3.3759760247051	-21.343113700635
0.17201720172017	-3.3519343497390	-21.324546059293
0.17401740174017	-3.3305001808499	-21.305957180456
0.17601760176018	-3.3105543127861	-21.285871652408
0.17801780178018	-3.2902787224667	-21.264109179341
0.18001800180018	-3.2683316509511	-21.241849384915
0.18201820182018	-3.2446623522385	-21.220828153839
0.18401840184018	-3.2204674703376	-21.202227644564
0.18601860186019	-3.1973690839454	-21.185982545360
0.18801880188019	-3.1763847551315	-21.170914422890
0.19001900190019	-3.1573551426638	-21.155552518743
0.19201920192019	-3.1391593073067	-21.139071864784
0.19401940194019	-3.1205233762550	-21.121743087188
0.19601960196020	-3.1008619304388	-21.104641277092
0.19801980198020	-3.0806077217465	-21.088853428668
0.20002000200020	-3.0608498590879	-21.074731277463
0.20202020202020	-3.0425582270496	-21.061673167077
0.20402040204020	-3.0259231782629	-21.048547788805
0.20602060206021	-3.0102352164231	-21.034450762324
0.20802080208021	-2.9943571850049	-21.019286278019
0.21002100210021	-2.9774560385400	-21.003805498860
0.21202120212021	-2.9595112013062	-20.989102429993
0.21402140214021	-2.9412852015939	-20.975916524218
0.21602160216022	-2.9238036877961	-20.964196547418
0.21802180218022	-2.9077032772913	-20.953188001896
0.22002200220022	-2.8928697651744	-20.941956610770
0.22202220222022	-2.8785785816054	-20.929986426225
0.22402240224022	-2.8640146542184	-20.917464865101
0.22602260226023	-2.8488121645951	-20.905091543718
0.22802280228023	-2.8332630401006	-20.893564762784
0.23002300230023	-2.8180776307547	-20.883099520025
0.23202320232023	-2.8038783109252	-20.873291202689
0.23402340234023	-2.7907713434171	-20.863397944525
0.23602360236024	-2.7782746673244	-20.852838354896
0.23802380238024	-2.7656348223523	-20.841570438966
0.24002400240024	-2.7523118956401	-20.830109520642
0.24202420242024	-2.7383121596878	-20.819187506325
0.24402440244024	-2.7241606425213	-20.809287453067
0.24602460246025	-2.7105473501513	-20.800357083439
0.24802480248025	-2.6978891250265	-20.791875385024
0.25002500250025	-2.6860913292886	-20.783210930139
0.25202520252025	-2.6746504829376	-20.774026189034
0.25402540254025	-2.6630120330352	-20.764465425179
0.25602560256026	-2.6509372702741	-20.755017361638
0.25802580258026	-2.6386403368888	-20.746160116929
0.26002600260026	-2.6266177425414	-20.738031926403
0.26202620262026	-2.6152968665057	-20.730342608017
0.26402640264026	-2.6047422782706	-20.722573820945
0.26602660266027	-2.5946106734122	-20.714325546217
0.26802680268027	-2.5843751989753	-20.705576677088
0.27002700270027	-2.5736636918578	-20.696692787816
0.27202720272027	-2.5624875243935	-20.688184993265
0.27402740274027	-2.5512176433862	-20.680384911901
0.27602760276028	-2.5403338100159	-20.673248064741
0.27802780278028	-2.5301183048820	-20.666405844814
0.28002800280028	-2.5204933755824	-20.659420302404
0.28202820282028	-2.5110994538917	-20.652067151461
0.28402840284028	-2.5015506752315	-20.644462518160
0.28602860286029	-2.4916921814828	-20.636959213140
0.28802880288029	-2.4816907292221	-20.629891869667
0.29002900290029	-2.4719065465474	-20.623345466282
0.29202920292029	-2.4626398005555	-20.617099095132
0.29402940294029	-2.4539235671426	-20.610775987864
0.29602960296030	-2.4454983930131	-20.604094474969
0.29802980298030	-2.4369799600147	-20.597052167685
0.30003000300030	-2.4281048808990	-20.589924965628
0.30203020302030	-2.4188927267937	-20.583087098364
0.30403040304030	-2.4096224881803	-20.576774348633
0.30603060306031	-2.4006456094408	-20.570944835393
0.30803080308031	-2.3921625033799	-20.565322561498
0.31003100310031	-2.3841077460631	-20.559587264522
0.31203120312031	-2.3762125206537	-20.553581063148
0.31403140314031	-2.3681949140182	-20.547397283505
0.31603160316032	-2.3599477382685	-20.541299474310
0.31803180318032	-2.3516008481129	-20.535531692036
0.32003200320032	-2.3434222112688	-20.530149779436
0.32203220322032	-2.3356292255196	-20.524984526048
0.32403240324032	-2.3282382011041	-20.519756902662
0.32603260326033	-2.3210505654081	-20.514264901468
0.32803280328033	-2.3137814753070	-20.508517010370
0.33003300330033	-2.3062430466872	-20.502726089215
0.33203320332033	-2.2984613792198	-20.497171208266
0.33403340334033	-2.2906534272307	-20.492020759684
0.33603360336034	-2.2830832194435	-20.487232238018
0.33803380338034	-2.2758944541114	-20.482590342794
0.34003400340034	-2.2690281773008	-20.477853162950
0.34203420342034	-2.2622748498254	-20.472907350947
0.34403440344034	-2.2554208813254	-20.467831375387
0.34603460346035	-2.2483898718364	-20.462829885668
0.34803480348035	-2.2412862808856	-20.458087836195
0.35003500350035	-2.2343167072049	-20.453643652444
0.35203520352035	-2.2276451918382	-20.449364570195
0.35403540354035	-2.2212803766991	-20.445037262095
0.35603560356036	-2.2150682525943	-20.440510639954
0.35803580358036	-2.2087926050192	-20.435795364750
0.36003600360036	-2.2023145578097	-20.431055816299
0.36203620362036	-2.1956590466260	-20.426502558793
0.36403640364036	-2.1889935003889	-20.422258079483
0.36603660366037	-2.1825160051365	-20.418283701404
0.36803680368037	-2.1763285954724	-20.414412814460
0.37003700370037	-2.1703783728477	-20.410464768173
0.37203720372037	-2.1645019705008	-20.406362112507
0.37403740374037	-2.1585401023559	-20.402174492463
0.37603760376038	-2.1524442410784	-20.398063270170
0.37803780378038	-2.1463053278570	-20.394167005731
0.38003800380038	-2.1402879880372	-20.390505528933
0.38203820382038	-2.1345164741353	-20.386965741700
0.38403840384038	-2.1289890774348	-20.383376677773
0.38603860386039	-2.1235770126018	-20.379622394972
0.38803880388039	-2.1181068910482	-20.375717706944
0.39003900390039	-2.1124711669049	-20.371797970003
0.39203920392039	-2.1066941103604	-20.368031521987
0.39403940394039	-2.1009118199902	-20.364513493258
0.39603960396040	-2.0952818748317	-20.361210051121
0.39803980398040	-2.0898833778615	-20.357987164154
0.40004000400040	-2.0846722587769	-20.354701927520
0.40204020402040	-2.0795184077190	-20.351294632221
0.40404040404040	-2.0742968871875	-20.347821598659
0.40604060406041	-2.0689711488600	-20.344409769373
0.40804080408041	-2.0636136742488	-20.341166084974
0.41004100410041	-2.0583525149535	-20.338103311855
0.41204120412041	-2.0532814759390	-20.335131198069
0.41404140414041	-2.0483946348416	-20.332117267351
0.41604160416042	-2.0435882294285	-20.328975432403
0.41804180418042	-2.0387274456531	-20.325723264681
0.42004200420042	-2.0337329684450	-20.322470780325
0.42204220422042	-2.0286302523369	-20.319349440996
0.42404240424042	-2.0235302925794	-20.316428990810
0.42604260426043	-2.0185562526137	-20.313676424811
0.42804280428043	-2.0137652088701	-20.310982337362
0.43004300430043	-2.0091159408587	-20.308235173872
0.43204320432043	-2.0045019843995	-20.305393260236
0.43404340434043	-1.9998258271525	-20.302507592177
0.43604360436044	-1.9950639163119	-20.299682215500
0.43804380438044	-1.9902797765887	-20.297000519878
0.44004400440044	-1.9855780344608	-20.294467435021
0.44204420442044	-1.9810314102211	-20.292005666890
0.44404440444044	-1.9766298514648	-20.289507437101
0.44604460446045	-1.9722852647386	-20.286906459066
0.44804480448045	-1.9678879265356	-20.284222252635
0.45004500450045	-1.9633767257870	-20.281548064120
0.45204520452045	-1.9587771032671	-20.278991245340
0.45404540454045	-1.9541827064286	-20.276605832882
0.45604560456046	-1.9496940781799	-20.274361178600
0.45804580458046	-1.9453553187562	-20.272165815406
0.46004600460046	-1.9411297727247	-20.269929213813
0.46204620462046	-1.9369290722559	-20.267619932483
0.46404640464046	-1.9326745548383	-20.265282363558
0.46604660466047	-1.9283495469578	-20.263002618432
0.46804680468047	-1.9240083100366	-20.260847814379
0.47004700470047	-1.9197370129656	-20.258819831362
0.47204720472047	-1.9155938970269	-20.256853934200
0.47404740474047	-1.9115688737751	-20.254862249458
0.47604760476048	-1.9075890389731	-20.252792455753
0.47804780478048	-1.9035657292855	-20.250662651863
0.48004800480048	-1.8994515076634	-20.248549872326
0.48204820482048	-1.8952696446147	-20.246540629228
0.48404840484048	-1.8910975450664	-20.244676511142
0.48604860486049	-1.8870161283341	-20.242930245941
0.48804880488049	-1.8830590474175	-20.241226756234
0.49004900490049	-1.8791947095495	-20.239493921506
0.49204920492049	-1.8753515559227	-20.237708819608
0.49404940494049	-1.8714683435888	-20.235909295771
0.49604960496050	-1.8675352933676	-20.234164493478
0.49804980498050	-1.8635990300179	-20.232525293433
0.50005000500050	-1.8597289897620	-20.230988356197
0.50205020502050	-1.8559686343441	-20.229497610728
0.50405040504050	-1.8523044295622	-20.227981627716
0.50605060506051	-1.8486731429412	-20.226401496048
0.50805080508051	-1.8450022702498	-20.224777270963
0.51005100510051	-1.8412565883016	-20.223175728429
0.51205120512051	-1.8374602443433	-20.221667919504
0.51405140514051	-1.8336803995980	-20.220284671431
0.51605160516052	-1.8299838800226	-20.218998935764
0.51805180518052	-1.8263956360814	-20.217745668578
0.52005200520052	-1.8228858679162	-20.216465149194
0.52205220522052	-1.8193931721398	-20.215140732155
0.52405240524052	-1.8158672511002	-20.213806536732
0.52605260526053	-1.8123023559375	-20.212521064128
0.52805280528053	-1.8087395656734	-20.211325322570
0.53005300530053	-1.8052372012752	-20.210213807968
0.53205320532053	-1.8018298268533	-20.209137500756
0.53405340534053	-1.7985034511864	-20.208036393209
0.53605360536054	-1.7952032995764	-20.206879512539
0.53805380538054	-1.7918686919789	-20.205685801964
0.54005400540054	-1.7884717568373	-20.204512283283
0.54205420542054	-1.7850345769146	-20.203417674942
0.54405440544054	-1.7816139762916	-20.202425579614
0.54605460546055	-1.7782645455107	-20.201511127520
0.54805480548055	-1.7750044585006	-20.200619074874
0.55005500550055	-1.7718061619068	-20.199700606084
0.55205520552055	-1.7686171264897	-20.198744220576
0.55405540554055	-1.7653959888735	-20.197780686184
0.55605560556056	-1.7621397146565	-20.196859685257
0.55805580558056	-1.7588840185353	-20.196014536462
0.56005600560056	-1.7556774436738	-20.195238858591
0.56205620562056	-1.7525469821517	-20.194490578254
0.56405640564056	-1.7494783912316	-20.193720213950
0.56605660566057	-1.7464242095972	-20.192904302065
0.56805680568057	-1.7433339259529	-20.192061719199
0.57005700570057	-1.7401862091674	-20.191242285600
0.57205720572057	-1.7370020775009	-20.190495439141
0.57405740574057	-1.7338307633728	-20.189839688700
0.57605760576058	-1.7307180501374	-20.189252607184
0.57805780578058	-1.7276780570077	-20.188687237483
0.58005800580058	-1.7246866218606	-20.188103383829
0.58205820582058	-1.7216997689382	-20.187492869910
0.58405840584058	-1.7186841820497	-20.186882448806
0.58605860586059	-1.7156390911084	-20.186313275879
0.58805880588059	-1.7125952572958	-20.185811406772
0.59005900590059	-1.7095923405748	-20.185369380698
0.59205920592059	-1.7066503285594	-20.184951116511
0.59405940594059	-1.7037543959995	-20.184516556205
0.59605960596060	-1.7008633214529	-20.184049354759
0.59805980598060	-1.6979357779990	-20.183569082588
0.60006000600060	-1.6949570186013	-20.183119882769
0.60206020602060	-1.6919484184578	-20.182743164822
0.60406040604060	-1.6889538432462	-20.182452303593
0.60606060606061	-1.6860120842074	-20.182225695771
0.60806080608061	-1.6831335096879	-20.182022203429
0.61006100610061	-1.6802958952194	-20.181808308473
0.61206120612061	-1.6774614631654	-20.181578937189
0.61406140614061	-1.6746032093607	-20.181358574290
0.61606160616062	-1.6717228265879	-20.181182633436
0.61806180618062	-1.6688485689659	-20.181072095469
0.62006200620062	-1.6660149940358	-20.181018569090
0.62206220622062	-1.6632385315285	-20.180989629131
0.62406240624062	-1.6605053558151	-20.180950608050
0.62606260626063	-1.6577796035437	-20.180888127109
0.62806280628063	-1.6550263679011	-20.180819696536
0.63006300630063	-1.6522342047995	-20.180783130698
0.63206320632063	-1.6494224280033	-20.180812902213
0.63406340634063	-1.6466286933737	-20.180919000919
0.63606360636064	-1.6438853481696	-20.181081908408
0.63806380638064	-1.6412001500404	-20.181266451700
0.64006400640064	-1.6385536781796	-20.181444894849
0.64206420642064	-1.6359144635272	-20.181613867470
0.64406440644064	-1.6332611853721	-20.181794255330
0.64606460646065	-1.6305969331235	-20.182014763813
0.64806480648065	-1.6279462190306	-20.182290692112
0.65006500650065	-1.6253371632843	-20.182612376325
0.65206520652065	-1.6227811529015	-20.182951005421
0.65406540654065	-1.6202637846067	-20.183277757060
0.65606560656066	-1.6177531946503	-20.183583333084
0.65806580658066	-1.6152202285730	-20.183884826630
0.66006600660066	-1.6126570970634	-20.184215374262
0.66206620662066	-1.6100823015068	-20.184603452812
0.66406640664066	-1.6075287895217	-20.185055385765
0.66606660666067	-1.6050233175641	-20.185552288264
0.66806680668067	-1.6025705583787	-20.186063014675
0.67006700670067	-1.6001520430674	-20.186564193048
0.67206720672067	-1.5977400343101	-20.187054057543
0.67406740674067	-1.5953166212370	-20.187551270653
0.67606760676068	-1.5928851752556	-20.188080105035
0.67806780678068	-1.5904667435640	-20.188652374571
0.68006800680068	-1.5880841958194	-20.189258419102
0.68206820682068	-1.5857450905091	-20.189873134963
0.68406840684068	-1.5834349207995	-20.190472854583
0.68606860686069	-1.5811253100287	-20.191051650662
0.68806880688069	-1.5787916952561	-20.191626123612
0.69006900690069	-1.5764287688107	-20.192225479531
0.69206920692069	-1.5740535385685	-20.192873468327
0.69406940694069	-1.5716941393294	-20.193574032685
0.69606960696070	-1.5693719013752	-20.194309900725
0.69806980698070	-1.5670884485523	-20.195054704223
0.70007000700070	-1.5648260350410	-20.195790339576
0.70207020702070	-1.5625604388729	-20.196518063722
0.70407040704070	-1.5602774858237	-20.197256248088
0.70607060706071	-1.5579821121625	-20.198026718654
0.70807080708071	-1.5556940975430	-20.198839142746
0.71007100710071	-1.5534336069615	-20.199684026884
0.71207120712071	-1.5512064339324	-20.200538956702
0.71407140714071	-1.5489989014843	-20.201383800664
0.71607160716072	-1.5467858281140	-20.202214671005
0.71807180718072	-1.5445462538694	-20.203047364091
0.72007200720072	-1.5422765498539	-20.203908057530
0.72207220722072	-1.5399923931934	-20.204817453202
0.72407240724072	-1.5377185276078	-20.205778744430
0.72607260726073	-1.5354732343271	-20.206777067257
0.72807280728073	-1.5332577184377	-20.207790400186
0.73007300730073	-1.5310571065786	-20.208804384321
0.73207320732073	-1.5288519165530	-20.209821188140
0.73407340734073	-1.5266319717159	-20.210856777216
0.73607360736074	-1.5244033322411	-20.211928821517
0.73807380738074	-1.5221837152820	-20.213043684673
0.74007400740074	-1.5199896974680	-20.214191398337
0.74207420742074	-1.5178244826526	-20.215352031430
