#Parameters = {offset=1.5024408476923; Conductivity_Mo=17900000; C_1=26.243897880769; C_2=97.94356027968; Conductivity=10000000; Conductivity_MoGr=1000000; Ip=101.39863498211; Pipe_lenght=40; Pipe_r=30; beta=1; cells_wave=20; conductivity_copper=59500000; d=-397.94356027968; half_gap_x=3.7561021192308; half_gap_y=30; half_gap_z=150; mu_copper=0.999994; offset_x=1; offset_y=5; sigma_z=5; teta=15; thcoll=26.243897880769; translate_z=-247.94356027968; wakelength=20000}
#"Frequency / GHz"	"X [Re / Ohm]"	"X [Im / Ohm]"
#-----------------------------------------------
0.0000000000000	-4.1808671875676e-12	-11.208616799693
0.0020002000200020	10.018322390100	-13.822341728339
0.0040004000400040	17.357448434854	-20.874485343020
0.0060006000600060	20.219958618314	-30.278844677168
0.0080008000800080	18.240960102873	-39.383583889380
0.010001000100010	12.512600864252	-45.867393904339
0.012001200120012	5.0993184575931	-48.460110580720
0.014001400140014	-1.7422286886267	-47.233642889397
0.016001600160016	-6.3248723459016	-43.393213740231
0.018001800180018	-7.9944963386515	-38.698614876281
0.020002000200020	-7.1597757779914	-34.775778914039
0.022002200220022	-4.9374166000766	-32.591427949944
0.024002400240024	-2.6066098141438	-32.263767028057
0.026002600260026	-1.1137050593465	-33.224104126574
0.028002800280028	-0.80972471153670	-34.601680973598
0.030003000300030	-1.4777863534799	-35.635644640149
0.032003200320032	-2.5780691459837	-35.942971961057
0.034003400340034	-3.5613363451208	-35.564552346945
0.036003600360036	-4.1034037989914	-34.821737674773
0.038003800380038	-4.1786649463095	-34.090849895684
0.040004000400040	-3.9800482667909	-33.615709532260
0.042004200420042	-3.7606003012529	-33.433849247836
0.044004400440044	-3.6908555160297	-33.421949273144
0.046004600460046	-3.7967168103988	-33.408141906720
0.048004800480048	-3.9882879492877	-33.278522539031
0.050005000500050	-4.1423438434802	-33.024949367651
0.052005200520052	-4.1822921510791	-32.723262484191
0.054005400540054	-4.1133379430978	-32.469755373074
0.056005600560056	-4.0035562457477	-32.319881350708
0.058005800580058	-3.9327709621901	-32.262743530711
0.060006000600060	-3.9443649976275	-32.238516960575
0.062006200620062	-4.0266839685833	-32.180752534662
0.064006400640064	-4.1291287176923	-32.054983057111
0.066006600660066	-4.1975592451515	-31.872341371256
0.068006800680068	-4.2054179449733	-31.674840879083
0.070007000700070	-4.1635198137106	-31.505697417198
0.072007200720072	-4.1065927001638	-31.384356692487
0.074007400740074	-4.0683750623502	-31.299873345275
0.076007600760076	-4.0617676132417	-31.223381464989
0.078007800780078	-4.0749070630958	-31.129114558574
0.080008000800080	-4.0829308309726	-31.010063256311
0.082008200820082	-4.0659234270352	-30.879677606705
0.084008400840084	-4.0212512818453	-30.760634665115
0.086008600860086	-3.9635485035987	-30.669319067406
0.088008800880088	-3.9139923593659	-30.606063439761
0.090009000900090	-3.8867690233647	-30.556381285616
0.092009200920092	-3.8813181774871	-30.501096396366
0.094009400940094	-3.8843687583415	-30.428146122731
0.096009600960096	-3.8793534912360	-30.338712221246
0.098009800980098	-3.8566154963651	-30.244665884718
0.10001000100010	-3.8181415025979	-30.159944160865
0.10201020102010	-3.7746392430055	-30.091841182849
0.10401040104010	-3.7377007901035	-30.037525936943
0.10601060106011	-3.7124674542323	-29.987267442311
0.10801080108011	-3.6952637913847	-29.931555775950
0.11001100110011	-3.6770865618019	-29.867229222058
0.11201120112011	-3.6501066021519	-29.798882443208
0.11401140114011	-3.6127748633230	-29.735169791071
0.11601160116012	-3.5704539688831	-29.682842680257
0.11801180118012	-3.5316007763985	-29.642490589641
0.12001200120012	-3.5023024342142	-29.608505265820
0.12201220122012	-3.4827302352713	-29.572912726999
0.12401240124012	-3.4675467544572	-29.530340433971
0.12601260126013	-3.4496519379686	-29.480935454089
0.12801280128013	-3.4246357874346	-29.429621243089
0.13001300130013	-3.3931144900336	-29.382508427933
0.13201320132013	-3.3597120226751	-29.342968068424
0.13401340134013	-3.3296588904133	-29.309847055625
0.13601360136014	-3.3053778489452	-29.278729823467
0.13801380138014	-3.2852125098430	-29.245152914957
0.14001400140014	-3.2649062934345	-29.207547803441
0.14201420142014	-3.2406448900540	-29.168056464358
0.14401440144014	-3.2115842923195	-29.130872321366
0.14601460146015	-3.1802833899588	-29.099360665448
0.14801480148015	-3.1509170351494	-29.073890101804
0.15001500150015	-3.1265652134512	-29.051707370541
0.15201520152015	-3.1073629642613	-29.028791939986
0.15401540154015	-3.0906179786268	-29.002378263861
0.15601560156016	-3.0726767784083	-28.972509923163
0.15801580158016	-3.0512336372665	-28.941724702733
0.16001600160016	-3.0265976262772	-28.913217976308
0.16201620162016	-3.0012067052383	-28.888765343201
0.16401640164016	-2.9778424602939	-28.867737164303
0.16601660166017	-2.9577878814614	-28.847740627157
0.16801680168017	-2.9401109970102	-28.826347593529
0.17001700170017	-2.9224491216476	-28.802713561407
0.17201720172017	-2.9026798175143	-28.778049335737
0.17401740174017	-2.8803378575963	-28.754715682861
0.17601760176018	-2.8568763651334	-28.734611485236
0.17801780178018	-2.8346703821480	-28.717937071422
0.18001800180018	-2.8154742039279	-28.703106659985
0.18201820182018	-2.7993499553522	-28.687800927199
0.18401840184018	-2.7847215547246	-28.670423224331
0.18601860186019	-2.7694503972563	-28.651011669516
0.18801880188019	-2.7521856527128	-28.631065987137
0.19001900190019	-2.7331162935450	-28.612473564498
0.19201920192019	-2.7136910775512	-28.596280231387
0.19401940194019	-2.6955602564438	-28.582099924351
0.19601960196020	-2.6794735034897	-28.568495103324
0.19801980198020	-2.6648478521902	-28.554014586002
0.20002000200020	-2.6502418216571	-28.538172168078
0.20202020202020	-2.6343718350697	-28.521731909758
0.20402040204020	-2.6169773247267	-28.506152039244
0.20602060206021	-2.5989775893118	-28.492592758388
0.20802080208021	-2.5818516787622	-28.481154007963
0.21002100210021	-2.5666783037820	-28.470826245593
0.21202120212021	-2.5534696744266	-28.460152973703
0.21402140214021	-2.5412116435712	-28.448146200184
0.21602160216022	-2.5285478719139	-28.434857885230
0.21802180218022	-2.5146367588318	-28.421263036431
0.22002200220022	-2.4996257242400	-28.408569833457
0.22202220222022	-2.4844643497435	-28.397432337669
0.22402240224022	-2.4702181420675	-28.387576000069
0.22602260226023	-2.4573562562279	-28.378050889166
0.22802280228023	-2.4454759475154	-28.367910347704
0.23002300230023	-2.4336180627471	-28.356848983082
0.23202320232023	-2.4209363433446	-28.345385380139
0.23402340234023	-2.4072657375002	-28.334491867420
0.23602360236024	-2.3932228008590	-28.324937657854
0.23802380238024	-2.3797922849353	-28.316785181378
0.24002400240024	-2.3676890683741	-28.309359882403
0.24202420242024	-2.3569165222256	-28.301692922617
0.24402440244024	-2.3467959963629	-28.293131234534
0.24602460246025	-2.3364255635453	-28.283716374225
0.24802480248025	-2.3252521815233	-28.274102251484
0.25002500250025	-2.3133848249325	-28.265090320403
0.25202520252025	-2.3014627366398	-28.257103044570
0.25402540254025	-2.2901901674182	-28.249939128574
0.25602560256026	-2.2798591206667	-28.242953238153
0.25802580258026	-2.2701728367181	-28.235519590994
0.26002600260026	-2.2604712076823	-28.227460543133
0.26202620262026	-2.2501918122711	-28.219158895432
0.26402640264026	-2.2392531274755	-28.211291806003
0.26602660266027	-2.2281099717363	-28.204374390321
0.26802680268027	-2.2174549330368	-28.198418348929
0.27002700270027	-2.2077712546796	-28.192924752442
0.27202720272027	-2.1990315811234	-28.187204964942
0.27402740274027	-2.1907313669213	-28.180811483579
0.27602760276028	-2.1822222115542	-28.173798233581
0.27802780278028	-2.1731186661178	-28.166651578611
0.28002800280028	-2.1635149203749	-28.159952343855
0.28202820282028	-2.1538825816662	-28.153999530270
0.28402840284028	-2.1447327254395	-28.148639948664
0.28602860286029	-2.1362738377316	-28.143402840878
0.28802880288029	-2.1282887429430	-28.137835778536
0.29002900290029	-2.1203005206755	-28.131811866355
0.29202920292029	-2.1119054876991	-28.125607260142
0.29402940294029	-2.1030470469335	-28.119706790754
0.29602960296030	-2.0940518230897	-28.114475296283
0.29802980298030	-2.0854118197657	-28.109915124717
0.30003000300030	-2.0774630242039	-28.105666052132
0.30203020302030	-2.0701731831407	-28.101240159097
0.30403040304030	-2.0631728357075	-28.096331487355
0.30603060306031	-2.0560007263265	-28.090997568876
0.30803080308031	-2.0483967228358	-28.085600772385
0.31003100310031	-2.0404511598123	-28.080557605472
0.31203120312031	-2.0325204775870	-28.076066753012
0.31403140314031	-2.0249746150960	-28.071993373377
0.31603160316032	-2.0179484575757	-28.067978096449
0.31803180318032	-2.0112600281745	-28.063689754062
0.32003200320032	-2.0045427377388	-28.059050019061
0.32203220322032	-1.9974970589321	-28.054282870171
0.32403240324032	-1.9900920324860	-28.049761728853
0.32603260326033	-1.9825855064943	-28.045760536159
0.32803280328033	-1.9753547760114	-28.042274438562
0.33003300330033	-1.9686532784506	-28.039025026564
0.33203320332033	-1.9624533488271	-28.035641182090
0.33403340334033	-1.9564736812877	-28.031892851723
0.33603360336034	-1.9503668201113	-28.027825182595
0.33803380338034	-1.9439392533806	-28.023710859961
0.34003400340034	-1.9372606625176	-28.019859659651
0.34203420342034	-1.9305968298112	-28.016415362918
0.34403440344034	-1.9242183292105	-28.013272971185
0.34603460346035	-1.9182161972067	-28.010165037375
0.34803480348035	-1.9124460372974	-28.006853026271
0.35003500350035	-1.9066329920849	-28.003292815751
0.35203520352035	-1.9005627660045	-27.999664904003
0.35403540354035	-1.8942293027165	-27.996252576989
0.35603560356036	-1.8878418953056	-27.993252137631
0.35803580358036	-1.8816896230673	-27.990641928914
0.36003600360036	-1.8759548129183	-27.988195135550
0.36203620362036	-1.8705983307629	-27.985625091177
0.36403640364036	-1.8653894389475	-27.982765643995
0.36603660366037	-1.8600568617501	-27.979669053119
0.36803680368037	-1.8544597129523	-27.976561002080
0.37003700370037	-1.8486673717386	-27.973686977810
0.37203720372037	-1.8429003227086	-27.971153563796
0.37403740374037	-1.8373760423210	-27.968867769426
0.37603760376038	-1.8321642303180	-27.966609916637
0.37803780378038	-1.8271458118198	-27.964187141252
0.38003800380038	-1.8220989249274	-27.961563677311
0.38203820382038	-1.8168510870580	-27.958882792752
0.38403840384038	-1.8113952389941	-27.956369054825
0.38603860386039	-1.8058941740995	-27.954178487916
0.38803880388039	-1.8005732731155	-27.952296379015
0.39003900390039	-1.7955746192127	-27.950548386266
0.39203920392039	-1.7908686706652	-27.948714588087
0.39403940394039	-1.7862791598501	-27.946669211157
0.39603960396040	-1.7816012496529	-27.944454479798
0.39803980398040	-1.7767328009115	-27.942243048201
0.40004000400040	-1.7717327920830	-27.940217800191
0.40204020402040	-1.7667715897484	-27.938450867776
0.40404040404040	-1.7620099378586	-27.936861411026
0.40604060406041	-1.7574892124944	-27.935277232919
0.40804080408041	-1.7531054824235	-27.933556005447
0.41004100410041	-1.7486824282829	-27.931683727094
0.41204120412041	-1.7440923464826	-27.929785222302
0.41404140414041	-1.7393438176138	-27.928041211197
0.41604160416042	-1.7345783737097	-27.926568326568
0.41804180418042	-1.7299796354423	-27.925341728604
0.42004200420042	-1.7256558057936	-27.924210363835
0.42204220422042	-1.7215725250071	-27.922993200336
0.42404240424042	-1.7175784089127	-27.921592220762
0.42604260426043	-1.7135041515599	-27.920048739602
0.42804280428043	-1.7092687997333	-27.918508596094
0.43004300430043	-1.7049242357890	-27.917122124560
0.43204320432043	-1.7006114548299	-27.915946430795
0.43404340434043	-1.6964607442700	-27.914913695988
0.43604360436044	-1.6925035668850	-27.913883794899
0.43804380438044	-1.6886540595819	-27.912743446194
0.44004400440044	-1.6847703695452	-27.911484523354
0.44204420442044	-1.6807529410600	-27.910209763818
0.44404440444044	-1.6766134167481	-27.909063453099
0.44604460446045	-1.6724686967308	-27.908134397570
0.44804480448045	-1.6684650703198	-27.907395894579
0.45004500450045	-1.6646833510537	-27.906721797702
0.45204520452045	-1.6610874597581	-27.905967013742
0.45404540454045	-1.6575491635985	-27.905058791515
0.45604560456046	-1.6539311879228	-27.904039307764
0.45804580458046	-1.6501732819321	-27.903033286243
0.46004600460046	-1.6463253829888	-27.902163956573
0.46204620462046	-1.6425081286595	-27.901473680738
0.46404640464046	-1.6388290102970	-27.900900843049
0.46604660466047	-1.6353106476507	-27.900326207821
0.46804680468047	-1.6318780344472	-27.899655961502
0.47004700470047	-1.6284114760817	-27.898885447877
0.47204720472047	-1.6248284578806	-27.898101820180
0.47404740474047	-1.6211395003963	-27.897425171248
0.47604760476048	-1.6174414894027	-27.896928307735
0.47804780478048	-1.6138539883317	-27.896588530494
0.48004800480048	-1.6104414487574	-27.896302565016
0.48204820482048	-1.6071725534759	-27.895953615864
0.48404840484048	-1.6039423940561	-27.895485592497
0.48604860486049	-1.6006413989804	-27.894935960553
0.48804880488049	-1.5972247395838	-27.894407029826
0.49004900490049	-1.5937368974187	-27.893996376510
0.49204920492049	-1.5902767760434	-27.893733328933
0.49404940494049	-1.5869282557058	-27.893563136266
0.49604960496050	-1.5837031994468	-27.893387859108
0.49804980498050	-1.5805344830940	-27.893135286196
0.50005000500050	-1.5773226017632	-27.892809283940
0.50205020502050	-1.5740037965719	-27.892488274728
0.50405040504050	-1.5705939709687	-27.892273562942
0.50605060506051	-1.5671794788945	-27.892222419643
0.50805080508051	-1.5638614486079	-27.892310349164
0.51005100510051	-1.5606908255271	-27.892447007406
0.51205120512051	-1.5576367807873	-27.892534559609
0.51405140514051	-1.5546084575704	-27.892529653299
0.51605160516052	-1.5515147082677	-27.892468624892
0.51805180518052	-1.5483219885398	-27.892440522617
0.52005200520052	-1.5450727655089	-27.892527035145
0.52205220522052	-1.5418536286378	-27.892749586400
0.52405240524052	-1.5387355733924	-27.893058088124
0.52605260526053	-1.5357266355271	-27.893367545356
0.52805280528053	-1.5327678998621	-27.893617015099
0.53005300530053	-1.5297745290901	-27.893811262723
0.53205320532053	-1.5266936567559	-27.894017772791
0.53405340534053	-1.5235404089921	-27.894321856865
0.53605360536054	-1.5203885210121	-27.894770249040
0.53805380538054	-1.5173224326153	-27.895340617658
0.54005400540054	-1.5143830166104	-27.895956639184
0.54205420542054	-1.5115426688901	-27.896537908330
0.54405440544054	-1.5087254604560	-27.897051267489
0.54605460546055	-1.5058581013809	-27.897529917698
0.54805480548055	-1.5029175298192	-27.898048602495
0.55005500550055	-1.4999439423821	-27.898672327143
0.55205520552055	-1.4970115700806	-27.899413114858
0.55405540554055	-1.4941775702717	-27.900223226104
0.55605560556056	-1.4914434465562	-27.901028553259
0.55805580558056	-1.4887544406398	-27.901779227168
0.56005600560056	-1.4860367277065	-27.902483476186
0.56205620562056	-1.4832472076798	-27.903202422253
0.56405640564056	-1.4804027297077	-27.904009680807
0.56605660566057	-1.4775696520366	-27.904942818976
0.56805680568057	-1.4748210548457	-27.905978689863
0.57005700570057	-1.4721900658188	-27.907048463092
0.57205720572057	-1.4696498103803	-27.908081866897
0.57405740574057	-1.4671324758369	-27.909051239444
0.57605760576058	-1.4645741263034	-27.909986747303
0.57805780578058	-1.4619553756710	-27.910953664966
0.58005800580058	-1.4593114884029	-27.912007682930
0.58205820582058	-1.4567062242626	-27.913158214002
0.58405840584058	-1.4541877416843	-27.914363624632
0.58605860586059	-1.4517562449096	-27.915560649635
0.58805880588059	-1.4493645772198	-27.916707582247
0.59005900590059	-1.4469506470220	-27.917812152061
0.59205920592059	-1.4444794555990	-27.918925759504
0.59405940594059	-1.4419665176652	-27.920108430036
0.59605960596060	-1.4394672974682	-27.921388240742
0.59805980598060	-1.4370400890865	-27.922742282295
0.60006000600060	-1.4347072790086	-27.924111540207
0.60206020602060	-1.4324406430768	-27.925439431203
0.60406040604060	-1.4301800543664	-27.926708231081
0.60606060606061	-1.4278727562317	-27.927949414644
0.60806080608061	-1.4255069755006	-27.929221536496
0.61006100610061	-1.4231178154523	-27.930570819029
0.61206120612061	-1.4207620418693	-27.932000784821
0.61406140614061	-1.4184789867810	-27.933470860791
0.61606160616062	-1.4162636962294	-27.934924407113
0.61806180618062	-1.4140699473294	-27.936327156689
0.62006200620062	-1.4118407461603	-27.937690447259
0.62206220622062	-1.4095457876045	-27.939064045222
0.62406240624062	-1.4072010486743	-27.940503653870
0.62606260626063	-1.4048578230145	-27.942034822556
0.62806280628063	-1.4025688188953	-27.943637021800
0.63006300630063	-1.4003539099120	-27.945258008410
0.63206320632063	-1.3981879708293	-27.946848525168
0.63406340634063	-1.3960183101649	-27.948394202183
0.63606360636064	-1.3937996138812	-27.949923815579
0.63806380638064	-1.3915230389440	-27.951489032957
0.64006400640064	-1.3892204269367	-27.953129659292
0.64206420642064	-1.3869414106172	-27.954847684187
0.64406440644064	-1.3847191502125	-27.956607163436
0.64606460646065	-1.3825476800588	-27.958359556204
0.64806480648065	-1.3803857696249	-27.960077277188
0.65006500650065	-1.3781844011263	-27.961773043617
0.65206520652065	-1.3759193643066	-27.963492329792
0.65406540654065	-1.3736073425305	-27.965284212729
0.65606560656066	-1.3712950782621	-27.967170093720
0.65806580658066	-1.3690291213497	-27.969130890637
0.66006600660066	-1.3668263382281	-27.971120792858
0.66206620662066	-1.3646645083686	-27.973098034830
0.66406640664066	-1.3624987419685	-27.975052109034
0.66606660666067	-1.3602923122394	-27.977009585367
0.66806680668067	-1.3580411952997	-27.979015186680
0.67006700670067	-1.3557761718436	-27.981101217099
0.67206720672067	-1.3535415241368	-27.983265934121
0.67406740674067	-1.3513649399941	-27.985475174627
0.67606760676068	-1.3492388834012	-27.987685858053
0.67806780678068	-1.3471258071262	-27.989875430384
0.68006800680068	-1.3449835764997	-27.992057518040
0.68206820682068	-1.3427940601652	-27.994273407996
0.68406840684068	-1.3405758783445	-27.996565104025
0.68606860686069	-1.3383729452814	-27.998947865118
0.68806880688069	-1.3362265063094	-28.001400317075
0.69006900690069	-1.3341491694590	-28.003878465740
0.69206920692069	-1.3321179028079	-28.006344146589
0.69406940694069	-1.3300902825924	-28.008789092308
0.69606960696070	-1.3280329509693	-28.011238964151
0.69806980698070	-1.3259434136661	-28.013735107362
0.70007000700070	-1.3238510201651	-28.016306462093
0.70207020702070	-1.3217969196155	-28.018950303137
0.70407040704070	-1.3198066305281	-28.021634318238
0.70607060706071	-1.3178734757958	-28.024318235162
0.70807080708071	-1.3159636289073	-28.026980340996
0.71007100710071	-1.3140390509725	-28.029631270632
0.71207120712071	-1.3120828420725	-28.032306166445
0.71407140714071	-1.3101102066594	-28.035040765387
0.71607160716072	-1.3081580416522	-28.037847500468
0.71807180718072	-1.3062604232866	-28.040707408969
0.72007200720072	-1.3044264760222	-28.043582891828
0.72207220722072	-1.3026352348979	-28.046442456048
0.72407240724072	-1.3008505756494	-28.049280768859
0.72607260726073	-1.2990458857948	-28.052120745051
0.72807280728073	-1.2972218109550	-28.054996563830
0.73007300730073	-1.2954052509141	-28.057929259919
0.73207320732073	-1.2936304405879	-28.060911372788
0.73407340734073	-1.2919149221609	-28.063910942646
0.73607360736074	-1.2902465446016	-28.066892151053
0.73807380738074	-1.2885901907784	-28.069838819969
0.74007400740074	-1.2869097734784	-28.072765147740
0.74207420742074	-1.2851909446383	-28.075706602444
