#Parameters = {C_1=23.329215416694; C_2=534.32688033279; Conductivity_MoGr=1000000; Ip=534.83592562405; Pipe_lenght=40; Pipe_r=30; beta=1; cells_wave=30; d=-784.32688033279; half_gap_x=6.6707845833065; half_gap_y=30; half_gap_z=125; offset=2.6683138333226; offset_x=1; offset_y=5; sigma_z=5; teta=2.5; thcoll=23.329215416694; translate_z=-659.32688033279; wakelength=20000}
#"Frequency / GHz"	"Z [Re / Ohm]"	"Z [Im / Ohm]"
#-----------------------------------------------
0.0000000000000	-0.073906013545466	-2.7271614139078e-13
0.0020478289222872	-0.064566731503324	0.051270823876994
0.0040956578445743	-0.040236558509309	0.092072600741404
0.0061434867668615	-0.010147522240502	0.11671191973272
0.0081913156891487	0.015426779990657	0.12656739600450
0.010239144611436	0.029937938421974	0.12880141304026
0.012286973533723	0.033125728635862	0.13233642726606
0.014334802456010	0.030209558362628	0.14336517045847
0.016382631378297	0.028421960385104	0.16276867863355
0.018430460300585	0.032974984116264	0.18660503050524
0.020478289222872	0.044673356522123	0.20906008025407
0.022526118145159	0.060266338775355	0.22595875874409
0.024573947067446	0.074990734980552	0.23682467155872
0.026621775989733	0.085581445564723	0.24451912602116
0.028669604912020	0.091955535477570	0.25298934471543
0.030717433834308	0.096756249518802	0.26469505287343
0.032765262756595	0.10330260959770	0.27929135866822
0.034813091678882	0.11338444118386	0.29421296099891
0.036860920601169	0.12627722027399	0.30657788033629
0.038908749523456	0.13945410387605	0.31507983600955
0.040956578445743	0.15036920830374	0.32068238269052
0.043004407368031	0.15807679231835	0.32579591942456
0.045052236290318	0.16367164558319	0.33260661323692
0.047100065212605	0.16937724892295	0.34170420562575
0.049147894134892	0.17698738767858	0.35186431729470
0.051195723057179	0.18672253832831	0.36102744221980
0.053243551979466	0.19720854587345	0.36774155868695
0.055291380901754	0.20650279399101	0.37209254551420
0.057339209824041	0.21341782849619	0.37555342718757
0.059387038746328	0.21825323154183	0.37993025426262
0.061434867668615	0.22249650940683	0.38616086565281
0.063482696590902	0.22776011938299	0.39376761326978
0.065530525513189	0.23470643353341	0.40128205041209
0.067578354435477	0.24267216102785	0.40729854096140
0.069626183357764	0.25019746084955	0.41141970634600
0.071674012280051	0.25605386052234	0.41447278854076
0.073721841202338	0.26005826037415	0.41789588189695
0.075769670124625	0.26314311391447	0.42275006332927
0.077817499046912	0.26667711437538	0.42903692476236
0.079865327969200	0.27153029225315	0.43576078169664
0.081913156891487	0.27752186891481	0.44165493493758
0.083960985813774	0.28360075587952	0.44605200109048
0.086008814736061	0.28860114395973	0.44930807926312
0.088056643658348	0.29203837473120	0.45251809490023
0.090104472580635	0.29440888016952	0.45674722015063
0.092152301502923	0.29681571027356	0.46231736556561
0.094200130425210	0.30020214285033	0.46862612944630
0.096247959347497	0.30472662458063	0.47459643112053
0.098295788269784	0.30969391958529	0.47942656720003
0.10034361719207	0.31406518951343	0.48312234337646
0.10239144611436	0.31717879342818	0.48646146276686
0.10443927503665	0.31918667355577	0.49043744118251
0.10648710395893	0.32092298790510	0.49557951064053
0.10853493288122	0.32331607845807	0.50161302679202
0.11058276180351	0.32675900807309	0.50767691687367
0.11263059072579	0.33086612112089	0.51293000724162
0.11467841964808	0.33476610273721	0.51712137289443
0.11672624857037	0.33771351375980	0.52073975237747
0.11877407749266	0.33959303389155	0.52465586412314
0.12082190641494	0.34097836020118	0.52951794848343
0.12286973533723	0.34272121502063	0.53531902870175
0.12491756425952	0.34536529741476	0.54142368171576
0.12696539318180	0.34878883511344	0.54702080194689
0.12901322210409	0.35231095606018	0.55168091456430
0.13106105102638	0.35517462778161	0.55563607611792
0.13310887994867	0.35706600105990	0.55960098932489
0.13515670887095	0.35831597542001	0.56427131724810
0.13720453779324	0.35965672584835	0.56985032040544
0.13925236671553	0.36171234146180	0.57592496585948
0.14130019563781	0.36457814327313	0.58176535510393
0.14334802456010	0.36777241849308	0.58683117596012
0.14539585348239	0.37058261428056	0.59113433252975
0.14744368240468	0.37255891055255	0.59521489923984
0.14949151132696	0.37381476078721	0.59975770566774
0.15153934024925	0.37493498007992	0.60512084073132
0.15358716917154	0.37656481584027	0.61109987948708
0.15563499809382	0.37896881989510	0.61708219343646
0.15768282701611	0.38186116409661	0.62247568014243
0.15973065593840	0.38461598374734	0.62711222532989
0.16177848486069	0.38670433925418	0.63135128338538
0.16382631378297	0.38805377482504	0.63582060256536
0.16587414270526	0.38908701490527	0.64098028464256
0.16792197162755	0.39042142724722	0.64681223604939
0.16996980054984	0.39244288179590	0.65284396819349
0.17201762947212	0.39504813467228	0.65848231237218
0.17406545839441	0.39772765216562	0.66342158753974
0.17611328731670	0.39992415579342	0.66784555728503
0.17816111623898	0.40141535714711	0.67229002765106
0.18020894516127	0.40245871577246	0.67726791781278
0.18225677408356	0.40360474725897	0.68291859428107
0.18430460300585	0.40531408835951	0.68892068334387
0.18635243192813	0.40764461821081	0.69472204840187
0.18840026085042	0.41022107666447	0.69992256570884
0.19044808977271	0.41250173832928	0.70454448104146
0.19249591869499	0.41415321281333	0.70900782355075
0.19454374761728	0.41527456855210	0.71383406136097
0.19659157653957	0.41632060788641	0.71928661221428
0.19863940546186	0.41778316280331	0.72519560845308
0.20068723438414	0.41985364726612	0.73108303034015
0.20273506330643	0.42229829763312	0.73649632168456
0.20478289222872	0.42462718149145	0.74131777162070
0.20683072115100	0.42643527808196	0.74583827021263
0.20887855007329	0.42767855870637	0.75054964379700
0.21092637899558	0.42869723422449	0.75580341385984
0.21297420791787	0.42997521313962	0.76157239473326
0.21502203684015	0.43180572457348	0.76747648063237
0.21706986576244	0.43409405662664	0.77304985721860
0.21911769468473	0.43642998656723	0.77806189251766
0.22116552360701	0.43837515588902	0.78267074282673
0.22321335252930	0.43976436513313	0.78730751037462
0.22526118145159	0.44081396849697	0.79237537449016
0.22730901037388	0.44196659604752	0.79797339158359
0.22935683929616	0.44358348803148	0.80383391127847
0.23140466821845	0.44569818976250	0.80951266949600
0.23345249714074	0.44799944045743	0.81469665710877
0.23550032606302	0.45005092674519	0.81941649798707
0.23754815498531	0.45159298541688	0.82401932529116
0.23959598390760	0.45271784079270	0.82892493977404
0.24164381282989	0.45380032821160	0.83433630094015
0.24369164175217	0.45523583005969	0.84010379009913
0.24573947067446	0.45716854013188	0.84583378165982
0.24778729959675	0.45939671303608	0.85116289387610
0.24983512851903	0.46151697551614	0.85600691546244
0.25188295744132	0.46320468085607	0.86061395917198
0.25393078636361	0.46443561415900	0.86538857054684
0.25597861528590	0.46549779667040	0.87061128006171
0.25802644420818	0.46678867821697	0.87624784103430
0.26007427313047	0.46854041602846	0.88197770004321
0.26212210205276	0.47066303392468	0.88741866121248
0.26416993097504	0.47281131135907	0.89239035990011
0.26621775989733	0.47462595951174	0.89703498458753
0.26826558881962	0.47598072499265	0.90171454726405
0.27031341774191	0.47706559484843	0.90675871208324
0.27236124666419	0.47825145316538	0.91223869670974
0.27440907558648	0.47983248762448	0.91792217870096
0.27645690450877	0.48182516519715	0.92343746044601
0.27850473343106	0.48396105185175	0.92853096752340
0.28055256235334	0.48587553236027	0.93323975990978
0.28260039127563	0.48735985983864	0.93786176317509
0.28464822019792	0.48850239556282	0.94274713668375
0.28669604912020	0.48962357995402	0.94805676127929
0.28874387804249	0.49105230406707	0.95365431300113
0.29079170696478	0.49289966275794	0.95920419289387
0.29283953588707	0.49498564629966	0.96440507055951
0.29488736480935	0.49696700605363	0.96919658234045
0.29693519373164	0.49857557066380	0.97379746149381
0.29898302265393	0.49980163071127	0.97855123165172
0.30103085157621	0.50089706515039	0.98368821674874
0.30307868049850	0.50219853425587	0.98916865517787
0.30512650942079	0.50389476925717	0.99471369119724
0.30717433834308	0.50589874200294	1.0000003879660
0.30922216726536	0.50791121306372	1.0048844457841
0.31126999618765	0.50962939734845	1.0094970840260
0.31331782510994	0.51095530721754	1.0141511239943
0.31536565403222	0.51206047758942	1.0191233848060
0.31741348295451	0.51326443339712	1.0244646893005
0.31946131187680	0.51481292222063	1.0299678130232
0.32150914079909	0.51670976383376	1.0353133826843
0.32355696972137	0.51871730602203	1.0402910686150
0.32560479864366	0.52052302142326	1.0449429351418
0.32765262756595	0.52195551861280	1.0495313095864
0.32970045648823	0.52310072041520	1.0543554883741
0.33174828541052	0.52423952040917	1.0595452923402
0.33379611433281	0.52565203773650	1.0649738145113
0.33584394325510	0.52742481874489	1.0703479276114
0.33789177217738	0.52939362617770	1.0754120826201
0.33993960109967	0.53125953192883	1.0801237616006
0.34198743002196	0.53279631167427	1.0846801781081
0.34403525894424	0.53400529975451	1.0893796434509
0.34608308786653	0.53511175071059	1.0944150008258
0.34813091678882	0.53640710144117	1.0997421185338
0.35017874571111	0.53804753716987	1.1051130738247
0.35222657463339	0.53994803624162	1.1102492445220
0.35427440355568	0.54184371430524	1.1150335148576
0.35632223247797	0.54347428943804	1.1195890547464
0.35837006140025	0.54476324877640	1.1241917502707
0.36041789032254	0.54586842652673	1.1290784890688
0.36246571924483	0.54707064211121	1.1342844874098
0.36451354816712	0.54857891636078	1.1396213324510
0.36656137708940	0.55038732767935	1.1448092663895
0.36860920601169	0.55228149211654	1.1496708896769
0.37065703493398	0.55398853102183	1.1542522124100
0.37270486385627	0.55536565856268	1.1587885035230
0.37475269277855	0.55649709147046	1.1635401729701
0.37680052170084	0.55763355083668	1.1686131403286
0.37884835062313	0.55901774336277	1.1738875709254
0.38089617954541	0.56071725736442	1.1791028808776
0.38294400846770	0.56257988483374	1.1840387730491
0.38499183738999	0.56434082418215	1.1886665789178
0.38703966631228	0.56580629750541	1.1931669819916
0.38908749523456	0.56698629124978	1.1978033378784
0.39113532415685	0.56808552342890	1.2027393819994
0.39318315307914	0.56936035385088	1.2079274836159
0.39523098200142	0.57094161376933	1.2131436855153
0.39727881092371	0.57274576243218	1.2181438597372
0.39932663984600	0.57453465999978	1.2228321442540
0.40137446876829	0.57608124306180	1.2273254911912
0.40342229769057	0.57732587157729	1.2318709220770
0.40547012661286	0.57841572249208	1.2366740041499
0.40751795553515	0.57960127627751	1.2417576298581
0.40956578445743	0.58106266414731	1.2469480970112
0.41161361337972	0.58278623526528	1.2519968003414
0.41366144230201	0.58457589383990	1.2567523243808
0.41570927122430	0.58619005172815	1.2612638501195
0.41775710014658	0.58750857791636	1.2657452988071
0.41980492906887	0.58861440132477	1.2704262953307
0.42185275799116	0.58973436899225	1.2753937683147
0.42390058691344	0.59108149185997	1.2805334404720
0.42594841583573	0.59270825645386	1.2856105619159
0.42799624475802	0.59447199198020	1.2904328992715
0.43004407368031	0.59613508405999	1.2949828552601
0.43209190260259	0.59752967380288	1.2994279536655
0.43413973152488	0.59867270956078	1.3040036218815
0.43618756044717	0.59975252115547	1.3088502756088
0.43823538936945	0.60099738312121	1.3139174311828
0.44028321829174	0.60251777422256	1.3190003109570
0.44233104721403	0.60423131155474	1.3238824705147
0.44437887613632	0.60592133482141	1.3284851441318
0.44642670505860	0.60738751790191	1.3329202959200
0.44847453398089	0.60858383343811	1.3374116934555
0.45052236290318	0.60964887713979	1.3421396255843
0.45257019182546	0.61080863038037	1.3471170126392
0.45461802074775	0.61221985813777	1.3521820340653
0.45666584967004	0.61386264541005	1.3571113006548
0.45871367859233	0.61555571882405	1.3617744587315
0.46076150751461	0.61708288760842	1.3662232613329
0.46280933643690	0.61834243323735	1.3706542797968
0.46485716535919	0.61941624107292	1.3752720898163
0.46690499428147	0.62051171824069	1.3801481472024
0.46895282320376	0.62181766815520	1.3851726992516
0.47100065212605	0.62337425647715	1.3901320737700
0.47304848104834	0.62504661020383	1.3948569553668
0.47509630997062	0.62661935319774	1.3993387852974
0.47714413889291	0.62794584065093	1.4037342941785
0.47919196781520	0.62904870951239	1.4082560068664
0.48123979673749	0.63010282263716	1.4130252076147
0.48328762565977	0.63131337450442	1.4179890851004
0.48533545458206	0.63277411398714	1.4229586507069
0.48738328350435	0.63440362958284	1.4277402557781
0.48943111242663	0.63600298003365	1.4322692148924
0.49147894134892	0.63739390384855	1.4366533603115
0.49352677027121	0.63854161137730	1.4410972422024
0.49557459919350	0.63957759761844	1.4457602487214
0.49762242811578	0.64070757104443	1.4506470513742
0.49967025703807	0.64206895211919	1.4556056716001
0.50171808596036	0.64363664585853	1.4604336163204
0.50376591488264	0.64524168648714	1.4650179890560
0.50581374380493	0.64668897212000	1.4694126551729
0.50786157272722	0.64789207263349	1.4737997461301
0.50990940164951	0.64893198296481	1.4783629936276
0.51195723057179	0.64999990702012	1.4831609797246
0.51400505949408	0.65126447263617	1.4880877379883
0.51605288841637	0.65275558151084	1.4929471852548
0.51810071733865	0.65434488688758	1.4975891305726
0.52014854626094	0.65583559960318	1.5020125460306
0.52219637518323	0.65709880390138	1.5063651150692
0.52424420410552	0.65816187528577	1.5108401865998
0.52629203302780	0.65918837734412	1.5155430300237
0.52833986195009	0.66036415452574	1.5204189020401
0.53038769087238	0.66176893701873	1.5252920720401
0.53243551979466	0.66332215314264	1.5299880214628
0.53448334871695	0.66483976238586	1.5344538650935
0.53653117763924	0.66616204341740	1.5387939235159
0.53857900656153	0.66726362496208	1.5431965532078
0.54062683548381	0.66826997704173	1.5478035492354
0.54267466440610	0.66936969511381	1.5526126668186
0.54472249332839	0.67068388962383	1.5574802702403
0.54677032225067	0.67218312620020	1.5622215258108
0.54881815117296	0.67370887142747	1.5667382711108
0.55086598009525	0.67508386344728	1.5710861203489
0.55291380901754	0.67623458434063	1.5754349541154
0.55496163793982	0.67724123278896	1.5799508498465
0.55700946686211	0.67828124990154	1.5846815093148
0.55905729578440	0.67950615439045	1.5895242199815
0.56110512470668	0.68093717036681	1.5942978527132
0.56315295362897	0.68245153592497	1.5988684493991
0.56520078255126	0.68386827922960	1.6032413419817
0.56724861147355	0.68507354437182	1.6075564744188
0.56929644039583	0.68609869118600	1.6119908572605
0.57134426931812	0.68709761131920	1.6166361438397
0.57339209824041	0.68823964054106	1.6214359960546
0.57543992716269	0.68959257840188	1.6262260379217
0.57748775608498	0.69107662058659	1.6308480900482
0.57953558500727	0.69252049370006	1.6352593156722
0.58158341392956	0.69378032499025	1.6395609843407
0.58363124285184	0.69483876163251	1.6439275687610
0.58567907177413	0.69581606691387	1.6484858133530
0.58772690069642	0.69688615200650	1.6532275928034
0.58977472961871	0.69815616368726	1.6580164706910
0.59182255854099	0.69959299304842	1.6626827787529
0.59387038746328	0.70104710555139	1.6671409758023
0.59591821638557	0.70235657088869	1.6714481264098
0.59796604530785	0.70345893340385	1.6757635403568
0.60001387423014	0.70443364981958	1.6802381109838
0.60206170315243	0.70544627627910	1.6849102197448
0.60410953207472	0.70663360137889	1.6896800167066
0.60615736099700	0.70800941766303	1.6943792978383
0.60820518991929	0.70945583710518	1.6988880954102
0.61025301884158	0.71080556786025	1.7032171833042
0.61230084776386	0.71195774349817	1.7074997721493
0.61434867668615	0.71294712030136	1.7118987362567
0.61639650560844	0.71391918523565	1.7164939808505
0.61844433453073	0.71502898505651	1.7212278366031
0.62049216345301	0.71633402573676	1.7259457931206
0.62253999237530	0.71775521880423	1.7305038203179
0.62458782129759	0.71913238724805	1.7348677481683
0.62663565021987	0.72033539018606	1.7391361482357
0.62868347914216	0.72135378416242	1.7434714210326
0.63073130806445	0.72230326039163	1.7479872645887
0.63277913698674	0.72334495520969	1.7526704988489
0.63482696590902	0.72457390685284	1.7573909955087
0.63687479483131	0.72595386831794	1.7619922880624
0.63892262375360	0.72734318377981	1.7663997835717
0.64097045267588	0.72859327793161	1.7706717511800
0.64301828159817	0.72965129322409	1.7749582497317
0.64506611052046	0.73059598382626	1.7793969400402
0.64711393944275	0.73158250810345	1.7840181193763
0.64916176836503	0.73273481562551	1.7887244889681
0.65120959728732	0.73406026259708	1.7933591517915
0.65325742620961	0.73544527096740	1.7978143342686
0.65530525513189	0.73673451932740	1.8021055063253
0.65735308405418	0.73783846244296	1.8063599378812
0.65940091297647	0.73879476133931	1.8107281276609
0.66144874189876	0.73974149349586	1.8152797426372
0.66349657082104	0.74082118911615	1.8199560185938
0.66554439974333	0.74208238561201	1.8246111405372
0.66759222866562	0.74344669426921	1.8291134801719
0.66964005758790	0.74476371774357	1.8334364151034
0.67168788651019	0.74591535751286	1.8376760796783
0.67373571543248	0.74689718074979	1.8419842360776
0.67578354435477	0.74782079835247	1.8464631384076
0.67783137327705	0.74883609140786	1.8510952228755
0.67987920219934	0.75002747868094	1.8557559667629
0.68192703112163	0.75135601633060	1.8603005344680
0.68397486004391	0.75268703879433	1.8646639311052
0.68602268896620	0.75388373957177	1.8689054182864
0.68807051788849	0.75490167175478	1.8731668522635
0.69011834681078	0.75581890112552	1.8775742290905
0.69216617573306	0.75678137047832	1.8821507675679
0.69421400465535	0.75790170957494	1.8868014873586
0.69626183357764	0.75918164932688	1.8913795104616
0.69830966249993	0.76051148375521	1.8957878152900
0.70035749142221	0.76174649884212	1.9000459607108
0.70240532034450	0.76280713307873	1.9042759030650
0.70445314926679	0.76373355600483	1.9086171738074
0.70650097818907	0.76465723540449	1.9131304113483
0.70854880711136	0.76570961211003	1.9177559408729
0.71059663603365	0.76693132103146	1.9223556909017
0.71264446495594	0.76824465323499	1.9268090153927
0.71469229387822	0.76950791487058	1.9310959295633
0.71674012280051	0.77061366851422	1.9353103424799
0.71878795172280	0.77156275207788	1.9395945474180
0.72083578064508	0.77246308932200	1.9440406661685
0.72288360956737	0.77345454144837	1.9486273074373
0.72493143848966	0.77461212463507	1.9532349898171
0.72697926741195	0.77589456449995	1.9577292309497
0.72902709633423	0.77717346601699	1.9620535301520
0.73107492525652	0.77832249713588	1.9662679636650
0.73312275417881	0.77930464783523	1.9705070387026
0.73517058310109	0.78019730249721	1.9748863694930
0.73721841202338	0.78113815383930	1.9794229233589
0.73926624094567	0.78222975829572	1.9840238511509
0.74131406986796	0.78346889075819	1.9885512372090
0.74336189879024	0.78474936037156	1.9929176225709
0.74540972771253	0.78593593735935	1.9971461477973
0.74745755663482	0.78695793355926	2.0013539650792
0.74950538555710	0.78785768581789	2.0056707987614
0.75155321447939	0.78876069736959	2.0101492656160
0.75360104340168	0.78978849017616	2.0147289493043
0.75564887232397	0.79097468051088	2.0192787538864
0.75769670124625	0.79224223502254	2.0236878543737
0.75974453016854	0.79345728807893	2.0279421528084
0.76179235909083	0.79452193021792	2.0321335016593
0.76384018801311	0.79544165880761	2.0363956844575
0.76588801693540	0.79632103079359	2.0408117721555
0.76793584585769	0.79729090481792	2.0453570085784
0.76998367477998	0.79841790086338	2.0499164916599
0.77203150370226	0.79965872029144	2.0543650376166
