#Parameters = {C_1=13.5; C_2=309.20083490382; Conductivity_W=18000000; Ip=309.49540595172; Pipe_lenght=40; Pipe_r=30; beta=1; cells_wave=30; conductivity_copper=59500000; d=-409.20083490382; half_gap_x=16.5; half_gap_y=30; half_gap_z=50; mu_copper=0.999994; offset=6.6; offset_x=1; offset_y=5; sigma_z=5; teta=2.5; thcoll=13.5; translate_z=-359.20083490382; wakelength=20000}
#"Frequency / GHz"	"Z [Re / Ohm]"	"Z [Im / Ohm]"
#-----------------------------------------------
0.0000000000000	-0.043835925880253	-5.7265624460704e-14
0.0020478289222872	-0.038609921025261	0.020291586459005
0.0040956578445743	-0.025113134396571	0.034447193150244
0.0061434867668615	-0.0088037079981527	0.039160734589500
0.0081913156891487	0.0042527931626563	0.035315867217475
0.010239144611436	0.010209086879583	0.027220357923229
0.012286973533723	0.0089547990979412	0.020218545282987
0.014334802456010	0.0036354923200293	0.018027597056254
0.016382631378297	-0.0014047999223239	0.021205382235433
0.018430460300585	-0.0030176453039817	0.027439737261101
0.020478289222872	-0.00066788354656832	0.033298365791591
0.022526118145159	0.0037729591276412	0.036311893702333
0.024573947067446	0.0075331770652483	0.036196620486087
0.026621775989733	0.0087253914233479	0.034642034599768
0.028669604912020	0.0073450733480890	0.033976817741038
0.030717433834308	0.0050002736654757	0.035643644171067
0.032765262756595	0.0036957275311312	0.039418577738595
0.034813091678882	0.0045249837580963	0.043757909904651
0.036860920601169	0.0070857158615313	0.046927771735594
0.038908749523456	0.0099016538561126	0.048127413732276
0.040956578445743	0.011480284409148	0.047902105094513
0.043004407368031	0.011273812753755	0.047656133830903
0.045052236290318	0.0099413840662562	0.048662309436632
0.047100065212605	0.0088092612531716	0.051248090729282
0.049147894134892	0.0089470878332224	0.054666031310394
0.051195723057179	0.010489594037881	0.057674020332728
0.053243551979466	0.012623634566969	0.059390913290587
0.055291380901754	0.014196644622896	0.059848851551516
0.057339209824041	0.014501993741679	0.059904505942073
0.059387038746328	0.013713830075884	0.060614253824383
0.061434867668615	0.012710545593486	0.062521542996019
0.063482696590902	0.012444845187224	0.065331654354028
0.065530525513189	0.013306080932244	0.068162872113312
0.067578354435477	0.014897005233008	0.070171043792044
0.069626183357764	0.016347096090349	0.071110544787120
0.071674012280051	0.016922140976015	0.071463173315715
0.073721841202338	0.016507481975889	0.072074596799085
0.075769670124625	0.015650370579793	0.073568440056802
0.077817499046912	0.015157608736861	0.075940979279902
0.079865327969200	0.015541071064005	0.078597292304620
0.081913156891487	0.016689727462731	0.080781514471101
0.083960985813774	0.017976049944815	0.082093092066144
0.086008814736061	0.018703819548522	0.082738885252417
0.088056643658348	0.018580381182282	0.083364935302812
0.090104472580635	0.017895172859292	0.084600837690448
0.092152301502923	0.017298240456858	0.086636216262065
0.094200130425210	0.017345864010827	0.089112643948409
0.096247959347497	0.018129446642874	0.091389723156936
0.098295788269784	0.019233995675776	0.092989836788361
0.10034361719207	0.020040142457603	0.093914191630099
0.10239144611436	0.020151662703907	0.094622357311818
0.10443927503665	0.019654820557018	0.095702864621720
0.10648710395893	0.019041122762599	0.097469704798877
0.10853493288122	0.018858904096102	0.099760314017385
0.11058276180351	0.019339774513709	0.10206387539753
0.11263059072579	0.020253597611359	0.10388065197655
0.11467841964808	0.021081682876042	0.10506055172313
0.11672624857037	0.021379307122271	0.10589239784922
0.11877407749266	0.021075162707922	0.10689234250048
0.12082190641494	0.020506965837720	0.10844543121918
0.12286973533723	0.020178196078628	0.11054847281972
0.12491756425952	0.020410484530517	0.11282522415725
0.12696539318180	0.021131073790174	0.11479448453894
0.12901322210409	0.021935225604347	0.11620075087385
0.13106105102638	0.022372293923280	0.11718080993187
0.13310887994867	0.022253955949864	0.11815828880847
0.13515670887095	0.021774387713045	0.11954636635989
0.13720453779324	0.021366468993720	0.12146671429391
0.13925236671553	0.021399848037863	0.12367535223116
0.14130019563781	0.021931042052610	0.12573967360586
0.14334802456010	0.022674127721411	0.12733874672104
0.14539585348239	0.023205565644840	0.12847885457393
0.14744368240468	0.023256960905749	0.12947991405224
0.14949151132696	0.022893843865992	0.13074849774227
0.15153934024925	0.022461825710570	0.13249806445739
0.15358716917154	0.022343218799447	0.13460853233115
0.15563499809382	0.022695181784650	0.13671715351219
0.15768282701611	0.023348445850439	0.13847253677688
0.15973065593840	0.023931460988573	0.13977425047905
0.16177848486069	0.024129394680149	0.14083491668087
0.16382631378297	0.023897779153753	0.14202698847758
0.16587414270526	0.023486137383760	0.14362425609766
0.16792197162755	0.023260222595932	0.14561718863423
0.16996980054984	0.023449235417805	0.14772637116230
0.17201762947212	0.023992492504352	0.14960001555586
0.17406545839441	0.024587882323523	0.15105618055565
0.17611328731670	0.024904184976493	0.15220314528467
0.17816111623898	0.024808303265171	0.15335855481955
0.18020894516127	0.024451753264695	0.15482729123023
0.18225677408356	0.024160535134016	0.15669317007717
0.18430460300585	0.024208160098241	0.15876656427950
0.18635243192813	0.024629673449384	0.16072025751753
0.18840026085042	0.025202954272491	0.16231641988118
0.19044808977271	0.025606397485518	0.16356743929761
0.19249591869499	0.025641257750275	0.16472201966761
0.19454374761728	0.025365124572813	0.16608982534584
0.19659157653957	0.025047081947692	0.16782811882141
0.19863940546186	0.024979006649479	0.16983722714371
0.20068723438414	0.025275182705663	0.17183412089792
0.20273506330643	0.025797663136380	0.17355004986536
0.20478289222872	0.026255912624214	0.17491437232096
0.20683072115100	0.026408965472004	0.17609896963410
0.20887855007329	0.026229586345306	0.17739562188826
0.21092637899558	0.025918740990974	0.17901365571369
0.21297420791787	0.025763405797346	0.18093805584228
0.21502203684015	0.025938186921596	0.18294407793578
0.21706986576244	0.026387768193401	0.18475533265531
0.21911769468473	0.026869203652264	0.18623426564725
0.22116552360701	0.027122044969529	0.18747386899910
0.22321335252930	0.027047293344159	0.18872961033001
0.22526118145159	0.026772334754061	0.19024121030613
0.22730901037388	0.026559435638569	0.19206848471177
0.22935683929616	0.026623392373518	0.19405355393642
0.23140466821845	0.026985021343530	0.19593305239866
0.23345249714074	0.027460326747543	0.19752069837650
0.23550032606302	0.027790368938219	0.19883375487978
0.23754815498531	0.027820276558362	0.20007762268730
0.23959598390760	0.027603741555987	0.20150160763606
0.24164381282989	0.027362593309691	0.20322704257323
0.24369164175217	0.027331672211278	0.20516616940725
0.24573947067446	0.027597398354060	0.20708590260604
0.24778729959675	0.028040924991203	0.20877027583214
0.24983512851903	0.028423144783526	0.21016843379321
0.25188295744132	0.028550853298180	0.21142683095730
0.25393078636361	0.028408676933101	0.21278543701933
0.25597861528590	0.028166756365065	0.21441141828806
0.25802644420818	0.028060918395740	0.21628548991712
0.26007427313047	0.028229653659201	0.21821812453212
0.26212210205276	0.028620525895180	0.21998242250744
0.26416993097504	0.029029185962774	0.22147056138889
0.26621775989733	0.029242121937817	0.22276601377191
0.26826558881962	0.029183493311082	0.22408324274772
0.27031341774191	0.028965133451984	0.22561833756825
0.27236124666419	0.028806854824237	0.22741454964668
0.27440907558648	0.028883771546101	0.22933487209532
0.27645690450877	0.029206626925499	0.23115888789782
0.27850473343106	0.029616852077455	0.23273549030037
0.28055256235334	0.029898048138979	0.23408571453821
0.28260039127563	0.029925574475346	0.23538575715001
0.28464822019792	0.029750892748706	0.23684360348918
0.28669604912020	0.029563651343652	0.23855559134423
0.28874387804249	0.029559329838049	0.24044177766270
0.29079170696478	0.029804762714699	0.24230340334208
0.29283953588707	0.030194003533090	0.24396122364260
0.29488736480935	0.030523593386965	0.24537847776607
0.29693519373164	0.030633819978499	0.24668418084788
0.29898302265393	0.030517939323638	0.24808211256105
0.30103085157621	0.030324712804421	0.24970965163605
0.30307868049850	0.030253978941811	0.25154420100766
0.30512650942079	0.030418519765818	0.25342089489972
0.30717433834308	0.030767660479252	0.25514790611392
0.30922216726536	0.031124309250756	0.25663875039179
0.31126999618765	0.031308450606124	0.25797037693448
0.31331782510994	0.031261016501887	0.25932807929282
0.31536565403222	0.031082936802687	0.26087660588730
0.31741348295451	0.030963620820621	0.26264708541700
0.31946131187680	0.031049500120818	0.26451733722942
0.32150914079909	0.031343831237940	0.26629790381487
0.32355696972137	0.031706282115583	0.26786326703278
0.32560479864366	0.031951314024587	0.26923740459990
0.32765262756595	0.031976424086819	0.27057540616006
0.32970045648823	0.031831642618841	0.27205510593857
0.33174828541052	0.031683204735175	0.27375441731620
0.33379611433281	0.031697708248806	0.27559894757271
0.33584394325510	0.031927449815961	0.27741506965195
0.33789177217738	0.032275826786868	0.27905063608072
0.33993960109967	0.032565635854876	0.28047944055920
0.34198743002196	0.032662018579491	0.28181773659864
0.34403525894424	0.032564783145356	0.28324250561914
0.34608308786653	0.032406930606681	0.28486890285010
0.34813091678882	0.032361517582540	0.28667171667189
0.35017874571111	0.032522046521403	0.28850437874501
0.35222657463339	0.032839024611436	0.29020129130986
0.35427440355568	0.033155703141417	0.29169206002051
0.35632223247797	0.033317241207370	0.29304885922924
0.35837006140025	0.033277296280661	0.29443509722540
0.36041789032254	0.033128691797952	0.29599185682406
0.36246571924483	0.033037917036338	0.29774100287073
0.36451354816712	0.033129648094206	0.29957147517364
0.36656137708940	0.033401362462613	0.30131726353874
0.36860920601169	0.033726498845502	0.30287234623007
0.37065703493398	0.033942996495619	0.30426303765213
0.37270486385627	0.033965298783924	0.30562840201121
0.37475269277855	0.033842435978133	0.30712323661117
0.37680052170084	0.033722782978356	0.30881128417054
0.37884835062313	0.033750782042235	0.31062232004090
0.38089617954541	0.033967494436947	0.31240197242008
0.38294400846770	0.034283429052262	0.31401896165580
0.38499183738999	0.034541583806396	0.31545528344984
0.38703966631228	0.034626315477120	0.31681740576785
0.38908749523456	0.034542564869882	0.31826160810205
0.39113532415685	0.034411182161512	0.31988579709170
0.39318315307914	0.034384455838364	0.32166266950085
0.39523098200142	0.034540867031269	0.32345982859684
0.39727881092371	0.034831784022668	0.32513209075581
0.39932663984600	0.035116279067045	0.32662164680978
0.40137446876829	0.035259173866349	0.32799699697422
0.40342229769057	0.035224120492753	0.32940446477164
0.40547012661286	0.035097642115104	0.33096658574372
0.40751795553515	0.035028271719981	0.33269791558630
0.40956578445743	0.035123578250439	0.33449608743452
0.41161361337972	0.035376451499765	0.33621352329074
0.41366144230201	0.035671143541190	0.33775958296984
0.41570927122430	0.035864110176801	0.33916246400136
0.41775710014658	0.035883207935078	0.34054859904350
0.41980492906887	0.035776712267348	0.34205456041186
0.42185275799116	0.035678871201956	0.34373283899600
0.42390058691344	0.035716546074998	0.34551648562785
0.42594841583573	0.035921847550756	0.34726640982910
0.42799624475802	0.036210915265151	0.34886794162794
0.43004407368031	0.036442829297643	0.35030963607924
0.43209190260259	0.036517286086548	0.35169017998934
0.43413973152488	0.036443351678570	0.35314932548283
0.43618756044717	0.036332180723112	0.35477117207667
0.43823538936945	0.036319436766027	0.35652671916306
0.44028321829174	0.036471545590953	0.35829491583338
0.44233104721403	0.036740549068899	0.35994696557580
0.44437887613632	0.036998225959537	0.36143518771284
0.44642670505860	0.037125226379734	0.36282514120670
0.44847453398089	0.037093271144086	0.36424939015235
0.45052236290318	0.036983816838843	0.36581550059919
0.45257019182546	0.036930899864875	0.36753210886831
0.45461802074775	0.037028249766743	0.36930386310799
0.45666584967004	0.037265029368360	0.37099810231006
0.45871367859233	0.037534244493257	0.37253665855599
0.46076150751461	0.037707374122916	0.37394926772512
0.46280933643690	0.037723178007343	0.37535210846024
0.46485716535919	0.037629328050925	0.37686693069198
0.46690499428147	0.037548577663821	0.37853705662288
0.46895282320376	0.037593458869465	0.38029819671538
0.47100065212605	0.037788773688808	0.38202372213245
0.47304848104834	0.038055254133268	0.38361252829210
0.47509630997062	0.038265125949572	0.38505853599463
0.47714413889291	0.038330641026202	0.38645406577382
0.47919196781520	0.038264247273966	0.38792532835825
0.48123979673749	0.038169148486743	0.38954509672068
0.48328762565977	0.038167358344321	0.39128297371941
0.48533545458206	0.038315393204735	0.39302723049829
0.48738328350435	0.038565846791059	0.39466254983695
0.48943111242663	0.038800958642755	0.39614959005863
0.49147894134892	0.038914422118007	0.39755148460044
0.49352677027121	0.038884610354335	0.39898944563353
0.49557459919350	0.038788790901750	0.40055868019013
0.49762242811578	0.038749014859456	0.40226293789476
0.49967025703807	0.038847563926188	0.40401267776517
0.50171808596036	0.039070521446598	0.40568759537423
0.50376591488264	0.039318156715238	0.40721985789035
0.50581374380493	0.039474415469549	0.40864046915950
0.50786157272722	0.039487106645131	0.41005708465298
0.50990940164951	0.039403390353703	0.41157913272558
0.51195723057179	0.039336448956033	0.41324231487233
0.51400505949408	0.039386882596084	0.41498456749966
0.51605288841637	0.039573410959500	0.41668965521077
0.51810071733865	0.039820608775166	0.41826778697184
0.52014854626094	0.040011683117583	0.41971735211676
0.52219637518323	0.040069372214897	0.42112533860552
0.52424420410552	0.040008938131932	0.42260662723542
0.52629203302780	0.039926915329866	0.42422451806146
0.52833986195009	0.039933878254043	0.42594746067137
0.53038769087238	0.040078044436163	0.42767155724950
0.53243551979466	0.040312488614934	0.42929280484582
0.53448334871695	0.040528250210078	0.43077885406408
0.53653117763924	0.040629987093601	0.43219078145509
0.53857900656153	0.040601655594594	0.43364023702897
0.54062683548381	0.040516978523975	0.43521202441399
0.54267466440610	0.040487898140484	0.43690579080087
0.54472249332839	0.040587047772084	0.43863691296336
0.54677032225067	0.040797929113063	0.44029552205852
0.54881815117296	0.041026963341607	0.44182250563102
0.55086598009525	0.041168638434506	0.44324992011145
0.55291380901754	0.041178406242836	0.44467819469190
0.55496163793982	0.041102972845519	0.44620632492177
0.55700946686211	0.041047396483863	0.44786357067641
0.55905729578440	0.041102161563715	0.44958977722826
0.56110512470668	0.041280843563810	0.45127754173569
0.56315295362897	0.041511301183824	0.45284667647656
0.56520078255126	0.041686083764260	0.45429935021926
0.56724861147355	0.041736840143456	0.45571799707011
0.56929644039583	0.041681208122346	0.45720784962754
0.57134426931812	0.041610025342958	0.45882415204776
0.57339209824041	0.041624115607791	0.46053439243758
0.57543992716269	0.041764634980450	0.46224136743858
0.57748775608498	0.041985092278676	0.46385072835221
0.57953558500727	0.042184057116446	0.46533607809865
0.58158341392956	0.042275553270812	0.46675671114501
0.58363124285184	0.042248290530202	0.46821608738672
0.58567907177413	0.042172934782132	0.46979011556206
0.58772690069642	0.042152762674770	0.47147495324866
0.58977472961871	0.042252152323007	0.47319021392542
0.59182255854099	0.042452418073270	0.47483498244941
0.59387038746328	0.042665282023229	0.47635761209796
0.59591821638557	0.042794286422855	0.47779103459273
0.59796604530785	0.042801430153868	0.47922944932546
0.60001387423014	0.042733000231848	0.48076288305543
0.60206170315243	0.042687047708202	0.48241507613814
0.60410953207472	0.042745354382092	0.48412754535952
0.60615736099700	0.042917090411636	0.48580051048154
0.60820518991929	0.043132973904145	0.48736205057427
0.61025301884158	0.043293623519701	0.48881756438118
0.61230084776386	0.043338364072605	0.49024552630707
0.61434867668615	0.043286853635262	0.49174282702115
0.61639650560844	0.043224979062939	0.49335776531586
0.61844433453073	0.043245126630091	0.49505702831538
0.62049216345301	0.043382361125189	0.49674922830748
0.62253999237530	0.043590596369909	0.49834837509731
0.62458782129759	0.043774943778541	0.49983320517548
0.62663565021987	0.043857539507211	0.50126143863088
0.62868347914216	0.043831188822553	0.50272941651283
0.63073130806445	0.043763874302539	0.50430533845495
0.63277913698674	0.043751334785383	0.50598236120879
0.63482696590902	0.043850788578271	0.50768380816687
0.63687479483131	0.044041677611714	0.50931655718903
0.63892262375360	0.044240359856355	0.51083543952026
0.64097045267588	0.044358260888440	0.51227411960582
0.64301828159817	0.044363059938494	0.51372135095686
0.64506611052046	0.044300648665124	0.51525934870238
0.64711393944275	0.044262951307115	0.51690706691852
0.64916176836503	0.044324165999018	0.51860751146945
0.65120959728732	0.044489646394788	0.52026756999395
0.65325742620961	0.044692637383533	0.52182252928827
0.65530525513189	0.044840818679545	0.52328058060478
0.65735308405418	0.044880209606111	0.52471670979824
0.65940091297647	0.044832204188775	0.52622050612958
0.66144874189876	0.044778332430681	0.52783421141080
0.66349657082104	0.044803593061104	0.52952384448501
0.66554439974333	0.044937740258359	0.53120313455947
0.66759222866562	0.045135076941056	0.53279341322073
0.66964005758790	0.045306470871758	0.53427789032639
0.67168788651019	0.045381167601688	0.53571287123367
0.67373571543248	0.045355537126253	0.53718843231957
0.67578354435477	0.045295173951443	0.53876601549106
0.67783137327705	0.045289182970787	0.54043617305194
0.67987920219934	0.045388506194067	0.54212551912452
0.68192703112163	0.045570973214338	0.54374779132735
0.68397486004391	0.045757048750271	0.54526349840488
0.68602268896620	0.045865099722666	0.54670691358648
0.68807051788849	0.045867781873422	0.54816196837350
0.69011834681078	0.045810601543186	0.54970399715959
0.69216617573306	0.045780058956016	0.55134776374303
0.69421400465535	0.045843670137735	0.55303762350078
0.69626183357764	0.046003452228414	0.55468636652228
0.69830966249993	0.046194914953725	0.55623563144675
0.70035749142221	0.046331988039207	0.55769604285877
0.70240532034450	0.046366589774742	0.55913947226015
0.70445314926679	0.046321613617530	0.56064904605780
0.70650097818907	0.046274706572270	0.56226167059149
0.70854880711136	0.046304327082316	0.56394281028938
0.71059663603365	0.046435553467065	0.56561075136193
0.71264446495594	0.046623070237045	0.56719330916336
0.71469229387822	0.046782869068639	0.56867762932087
0.71674012280051	0.046850491913473	0.57011872776611
0.71878795172280	0.046825439759373	0.57160110697367
0.72083578064508	0.046771154976447	0.57318022494648
0.72288360956737	0.046770841426569	0.57484435582260
0.72493143848966	0.046869885322733	0.57652306807378
0.72697926741195	0.047044720268798	0.57813620180582
0.72902709633423	0.047219491766768	0.57964929025094
0.73107492525652	0.047318743382900	0.58109711100867
0.73312275417881	0.047319533766079	0.58255927881627
0.73517058310109	0.047266991094116	0.58410500502667
0.73721841202338	0.047242764870370	0.58574534950625
0.73926624094567	0.047308426543823	0.58742590300826
0.74131406986796	0.047463050941004	0.58906473082457
0.74336189879024	0.047644199303757	0.59060912009201
0.74540972771253	0.047771386328806	0.59207183106597
