#Parameters = {C_1=13.8; C_2=316.07196456835; Conductivity_W=18000000; Ip=316.37308163954; Pipe_lenght=40; Pipe_r=30; beta=1; cells_wave=30; conductivity_copper=59500000; d=-416.07196456835; half_gap_x=16.2; half_gap_y=30; half_gap_z=50; mu_copper=0.999994; offset=6.48; offset_x=1; offset_y=5; sigma_z=5; teta=2.5; thcoll=13.8; translate_z=-366.07196456835; wakelength=20000}
#"Frequency / GHz"	"Z [Re / Ohm]"	"Z [Im / Ohm]"
#-----------------------------------------------
0.0000000000000	-0.068547430062785	1.9370876212780e-15
0.0020478289222872	-0.060400836506775	0.030214183017484
0.0040956578445743	-0.039370610286287	0.050841225939796
0.0061434867668615	-0.013988379932390	0.056717879246088
0.0081913156891487	0.0062653815286222	0.049230530019670
0.010239144611436	0.015378782460017	0.035118154007130
0.012286973533723	0.013182537578633	0.022739712081547
0.014334802456010	0.0045979578627657	0.017909753702219
0.016382631378297	-0.0035796625786458	0.021503108799943
0.018430460300585	-0.0064239249187421	0.029907040056524
0.020478289222872	-0.0030937977456207	0.037756899081507
0.022526118145159	0.0034891616020658	0.041192687099224
0.024573947067446	0.0089958388097578	0.039770741487184
0.026621775989733	0.010479274662806	0.036131699016106
0.028669604912020	0.0079356953813797	0.033915140780320
0.030717433834308	0.0038820288644564	0.035375263096407
0.032765262756595	0.0014550766710236	0.040160550381906
0.034813091678882	0.0023668520037016	0.045856001082375
0.036860920601169	0.0059904576110301	0.049749123606860
0.038908749523456	0.010019657170551	0.050586086493492
0.040956578445743	0.012122419058730	0.049217338524120
0.043004407368031	0.011443293360512	0.047836367415177
0.045052236290318	0.0090134609990406	0.048431260071099
0.047100065212605	0.0069069018862425	0.051512315228166
0.049147894134892	0.0067963124904334	0.055909438289255
0.051195723057179	0.0088926674820718	0.059679206859079
0.053243551979466	0.011924893799717	0.061442527217326
0.055291380901754	0.014091065053889	0.061248173232068
0.057339209824041	0.014286217811853	0.060434120057036
0.059387038746328	0.012782262473543	0.060650777567214
0.061434867668615	0.010952107628955	0.062746863003907
0.063482696590902	0.010284917795608	0.066260848981034
0.065530525513189	0.011389196824673	0.069813530554853
0.067578354435477	0.013643692013963	0.072084386074446
0.069626183357764	0.015687148067867	0.072688597362065
0.071674012280051	0.016371277032006	0.072378647213339
0.073721841202338	0.015516295893228	0.072476037450929
0.075769670124625	0.013977243007877	0.073955317077547
0.077817499046912	0.013015031306182	0.076810382982835
0.079865327969200	0.013429615446367	0.080110894841865
0.081913156891487	0.015047184395448	0.082674843522998
0.083960985813774	0.016886421245761	0.083875637219677
0.086008814736061	0.017858527590140	0.084036295753559
0.088056643658348	0.017505542946825	0.084166529445757
0.090104472580635	0.016279528578959	0.085250474975392
0.092152301502923	0.015196393510817	0.087584541464195
0.094200130425210	0.015125580799516	0.090608357347623
0.096247959347497	0.016209847760157	0.093320665786566
0.098295788269784	0.017800269775287	0.094974604844029
0.10034361719207	0.018928331408829	0.095571845028875
0.10239144611436	0.018974283474706	0.095830687651680
0.10443927503665	0.018072649930389	0.096671154921716
0.10648710395893	0.016991551589236	0.098584169216229
0.10853493288122	0.016588062689640	0.10131566157541
0.11058276180351	0.017224197234606	0.10406706832541
0.11263059072579	0.018540113781123	0.10605705414040
0.11467841964808	0.019724796895704	0.10705083841726
0.11672624857037	0.020082778128013	0.10749983478537
0.11877407749266	0.019502321215159	0.10821093823759
0.12082190641494	0.018511171946847	0.10978617729458
0.12286973533723	0.017896319224839	0.11222067486942
0.12491756425952	0.018160554757955	0.11492630392620
0.12696539318180	0.019190134016099	0.11715075949542
0.12901322210409	0.020352258540950	0.11849450292824
0.13106105102638	0.020942265702659	0.11917127654129
0.13310887994867	0.020665529825676	0.11984332896959
0.13515670887095	0.019825418575627	0.12115667967916
0.13720453779324	0.019098567124814	0.12330168420866
0.13925236671553	0.019062866490757	0.12589703396062
0.14130019563781	0.019806730455982	0.12826643840450
0.14334802456010	0.020883185802256	0.12990809347319
0.14539585348239	0.021630020664038	0.13083170802051
0.14744368240468	0.021627476917696	0.13153736142466
0.14949151132696	0.020977818086304	0.13266071165780
0.15153934024925	0.020221239424535	0.13453559942980
0.15358716917154	0.019955424121710	0.13697443303517
0.15563499809382	0.020426141456629	0.13941017224632
0.15768282701611	0.021368835551502	0.14129342208163
0.15973065593840	0.022202628989337	0.14246705900245
0.16177848486069	0.022435208016679	0.14326339488343
0.16382631378297	0.021996882064950	0.14426471031269
0.16587414270526	0.021277611024128	0.14589914580643
0.16792197162755	0.020849169415235	0.14815195201496
0.16996980054984	0.021069953206069	0.15058640438083
0.17201762947212	0.021845196225170	0.15265252480989
0.17406545839441	0.022702632718488	0.15406577402855
0.17611328731670	0.023124381284356	0.15499531742671
0.17816111623898	0.022902216508998	0.15593770839404
0.18020894516127	0.022272869271701	0.15736965731084
0.18225677408356	0.021745937866542	0.15942233824586
0.18430460300585	0.021749071262745	0.16179941758066
0.18635243192813	0.022337168604550	0.16398936585691
0.18840026085042	0.023163052844829	0.16562029173729
0.19044808977271	0.023723916889674	0.16671144133584
0.19249591869499	0.023708929776386	0.16765155622184
0.19454374761728	0.023207977306216	0.16892478751468
0.19659157653957	0.022641650623115	0.17077711788615
0.19863940546186	0.022466284440957	0.17305285932614
0.20068723438414	0.022860653515847	0.17530959667868
0.20273506330643	0.023609201631350	0.17712712834232
0.20478289222872	0.024257737294288	0.17839489873453
0.20683072115100	0.024429457195998	0.17938152290315
0.20887855007329	0.024081641146091	0.18054315507061
0.21092637899558	0.023528365842574	0.18220714814366
0.21297420791787	0.023218275957164	0.18435016784676
0.21502203684015	0.023424438547002	0.18662094656798
0.21706986576244	0.024060494358076	0.18858736971818
0.21911769468473	0.024746686433316	0.19003428291617
0.22116552360701	0.025075785677900	0.19110695023521
0.22321335252930	0.024892888608057	0.19220472141609
0.22526118145159	0.024397020828810	0.19370243874789
0.22730901037388	0.023998164267996	0.19569375515555
0.22935683929616	0.024032197703465	0.19793196345858
0.23140466821845	0.024531793513772	0.20000534551376
0.23345249714074	0.025209390172893	0.20162258770110
0.23550032606302	0.025660157091707	0.20281055060912
0.23754815498531	0.025641861494887	0.20389027561535
0.23959598390760	0.025238306529469	0.20525155345557
0.24164381282989	0.024796222639616	0.20708419723077
0.24369164175217	0.024682794242832	0.20925114364743
0.24573947067446	0.025033251886533	0.21138805031943
0.24778729959675	0.025661912762362	0.21315722530761
0.24983512851903	0.026194993556427	0.21447903644132
0.25188295744132	0.026330363656012	0.21558234118461
0.25393078636361	0.026043852124361	0.21684229364227
0.25597861528590	0.025601353330023	0.21852033543852
0.25802644420818	0.025371558780121	0.22058645689001
0.26007427313047	0.025571087743230	0.22274444317523
0.26212210205276	0.026118095807539	0.22463954218346
0.26416993097504	0.026693175853439	0.22610307152670
0.26621775989733	0.026962482886875	0.22726540391283
0.26826558881962	0.026807321929240	0.22846177768068
0.27031341774191	0.026402408334226	0.22999881930089
0.27236124666419	0.026091358832546	0.23194428227945
0.27440907558648	0.026148021505861	0.23408408680379
0.27645690450877	0.026589327792555	0.23607365287637
0.27850473343106	0.027167473031095	0.23767665082220
0.28055256235334	0.027544136595901	0.23892583135734
0.28260039127563	0.027524349035217	0.24009657304454
0.28464822019792	0.027188428009000	0.24151406336585
0.28669604912020	0.026832795069628	0.24332903602630
0.28874387804249	0.026763101863690	0.24541664306890
0.29079170696478	0.027083962739284	0.24746620450253
0.29283953588707	0.027629866628374	0.24919743513468
0.29488736480935	0.028082766175243	0.25055273467115
0.29693519373164	0.028192896103531	0.25173369260712
0.29898302265393	0.027949581447254	0.25305887939193
0.30103085157621	0.027585296330922	0.25474316081203
0.30307868049850	0.027412470397630	0.25675134140485
0.30512650942079	0.027607529286724	0.25882575499862
0.30717433834308	0.028091379239826	0.26066647680907
0.30922216726536	0.028587223840781	0.26213818326575
0.31126999618765	0.028813585546405	0.26336104975657
0.31331782510994	0.028677994203750	0.26462471225478
0.31536565403222	0.028338123713963	0.26618679734757
0.31741348295451	0.028090062760125	0.26809610038099
0.31946131187680	0.028162817525356	0.27016171334759
0.32150914079909	0.028561610580289	0.27208745248318
0.32355696972137	0.029067142732237	0.27367699228522
0.32560479864366	0.029389336440233	0.27496768773191
0.32765262756595	0.029367834429782	0.27620192473442
0.32970045648823	0.029080724237589	0.27765775536536
0.33174828541052	0.028787832649383	0.27945710490353
0.33379611433281	0.028749663588330	0.28148379268484
0.33584394325510	0.029048101666660	0.28346641778666
0.33789177217738	0.029532235493492	0.28516704997275
0.33993960109967	0.029925054455549	0.28654458835017
0.34198743002196	0.030015641450350	0.28778067657661
0.34403525894424	0.029803563570303	0.28915199739525
0.34608308786653	0.029496660046435	0.29083867854559
0.34813091678882	0.029365496822816	0.29280143723396
0.35017874571111	0.029556362229596	0.29481120853403
0.35222657463339	0.029992009321227	0.29660906864372
0.35427440355568	0.030427440742054	0.29808484629592
0.35632223247797	0.030620531428421	0.29935125471516
0.35837006140025	0.030498705023454	0.30066372096911
0.36041789032254	0.030206966125140	0.30224287865505
0.36246571924483	0.030005577708914	0.30412304122080
0.36451354816712	0.030089539629776	0.30613068219130
0.36656137708940	0.030455040797405	0.30800626857130
0.36860920601169	0.030904307413149	0.30958395074815
0.37065703493398	0.031183961731049	0.31090473725356
0.37270486385627	0.031160137225387	0.31218596507567
0.37475269277855	0.030909360411384	0.31366967691530
0.37680052170084	0.030663542586238	0.31545564703701
0.37884835062313	0.030648557787819	0.31743420896493
0.38089617954541	0.030928729991434	0.31936405883337
0.38294400846770	0.031364265416208	0.32103988397889
0.38499183738999	0.031709731609684	0.32243340275442
0.38703966631228	0.031784248091063	0.32371096128506
0.38908749523456	0.031595405439498	0.32511688128646
0.39113532415685	0.031332050016844	0.32680432784024
0.39318315307914	0.031232285345463	0.32873074813716
0.39523098200142	0.031418921014468	0.33068922875965
0.39727881092371	0.031816058311148	0.33245275469164
0.39932663984600	0.032203432579838	0.33393082456605
0.40137446876829	0.032369655783938	0.33523040468456
0.40342229769057	0.032257774629053	0.33658021175429
0.40547012661286	0.032002943709956	0.33817188322471
0.40751795553515	0.031837354538092	0.34002830469534
0.40956578445743	0.031929262630898	0.34198953822769
0.41161361337972	0.032267683648344	0.34382486454293
0.41366144230201	0.032671747104997	0.34539247968604
0.41570927122430	0.032917022124950	0.34673633644970
0.41775710014658	0.032890612585088	0.34805402461858
0.41980492906887	0.032667867351536	0.34955909325183
0.42185275799116	0.032458614162381	0.35133372151016
0.42390058691344	0.032461240387853	0.35327335726287
0.42594841583573	0.032726071372493	0.35516058148823
0.42799624475802	0.033122108004803	0.35681604726072
0.43004407368031	0.033429052994821	0.35822173162324
0.43209190260259	0.033490005015329	0.35953182305742
0.43413973152488	0.033319007391828	0.36096481080315
0.43618756044717	0.033089755498756	0.36265227484728
0.43823538936945	0.033014366829925	0.36454900297083
0.44028321829174	0.033196802707865	0.36646581047650
0.44233104721403	0.033562209142634	0.36820129483587
0.44437887613632	0.033910174598973	0.36968078968035
0.44642670505860	0.034054047377162	0.37100667130476
0.44847453398089	0.033949486716050	0.37238615763230
0.45052236290318	0.033723732597159	0.37398749332089
0.45257019182546	0.033586323672248	0.37582431263040
0.45461802074775	0.033683888113082	0.37774763952762
0.45666584967004	0.033999616941052	0.37955006622987
0.45871367859233	0.034366319666348	0.38110928018803
0.46076150751461	0.034583043353910	0.38247163823656
0.46280933643690	0.034553931051129	0.38381870502092
0.46485716535919	0.034353387693590	0.38534086513919
0.46690499428147	0.034173276381450	0.38710596939429
0.46895282320376	0.034189590208076	0.38901362312937
0.47100065212605	0.034441232998281	0.39086588334591
0.47304848104834	0.034804383639017	0.39250460319982
0.47509630997062	0.035079289537091	0.39392014413332
0.47714413889291	0.035128670159706	0.39525674355398
0.47919196781520	0.034971851289076	0.39671172712676
0.48123979673749	0.034770099085960	0.39839897485482
0.48328762565977	0.034714196449788	0.40027109572136
0.48533545458206	0.034892618482591	0.40215347855168
0.48738328350435	0.035231377091547	0.40386579025362
0.48943111242663	0.035546414124525	0.40534639753203
0.49147894134892	0.035671466351098	0.40669388329355
0.49352677027121	0.035572590657298	0.40809771969492
0.49557459919350	0.035370478053937	0.40970683222600
0.49762242811578	0.035255931896324	0.41152721656134
0.49967025703807	0.035357685296106	0.41341897972154
0.50171808596036	0.035654114818547	0.41519402870025
0.50376591488264	0.035989382478995	0.41674620612576
0.50581374380493	0.036182021053512	0.41812385154201
0.50786157272722	0.036150317420424	0.41949520816896
0.50990940164951	0.035967875836872	0.42103140220325
0.51195723057179	0.035811598474102	0.42278837420274
0.51400505949408	0.035838827563541	0.42466921083594
0.51605288841637	0.036078959950239	0.42649221741771
0.51810071733865	0.036414182253777	0.42811693393826
0.52014854626094	0.036661909243675	0.42954070904562
0.52219637518323	0.036701255307709	0.43089944618773
0.52424420410552	0.036555949335683	0.43237276069551
0.52629203302780	0.036376836250831	0.43405972277779
0.52833986195009	0.036336819861135	0.43591113463407
0.53038769087238	0.036511402347916	0.43776462180844
0.53243551979466	0.036827344497096	0.43945753436230
0.53448334871695	0.037114339946637	0.44093916912570
0.53653117763924	0.037223262376022	0.44230489656538
0.53857900656153	0.037128896697260	0.44372924541601
0.54062683548381	0.036946396379199	0.44534488132873
0.54267466440610	0.036850767556811	0.44715138652102
0.54472249332839	0.036955664554354	0.44901655161467
0.54677032225067	0.037235428575941	0.45076859127958
0.54881815117296	0.037543835294752	0.45231497587875
0.55086598009525	0.037715892805231	0.45370568948412
0.55291380901754	0.037681832306413	0.45509768131321
0.55496163793982	0.037514548129556	0.45664577224304
0.55700946686211	0.037378245374685	0.45839583522629
0.55905729578440	0.037414456840318	0.46025393997748
0.56110512470668	0.037644540125764	0.46205219535032
0.56315295362897	0.037955814870796	0.46366514875492
0.56520078255126	0.038180296738108	0.46509605338030
0.56724861147355	0.038211025196280	0.46647369274532
0.56929644039583	0.038075439421242	0.46796260068920
0.57134426931812	0.037915476898011	0.46964925582825
0.57339209824041	0.037888798070678	0.47148295850742
0.57543992716269	0.038059865656391	0.47331179959806
0.57748775608498	0.038356117624876	0.47498822110877
0.57953558500727	0.038619017197853	0.47647082545716
0.58158341392956	0.038714077623877	0.47785219893241
0.58363124285184	0.038623514100474	0.47929406915541
0.58567907177413	0.038457701862981	0.48091519825113
0.58772690069642	0.038378101101275	0.48270971340276
0.58977472961871	0.038485460620118	0.48455202750350
0.59182255854099	0.038750700146807	0.48628435179546
0.59387038746328	0.039035879187935	0.48782582886207
0.59591821638557	0.039190157984819	0.48922781438917
0.59796604530785	0.039154002592612	0.49063752290378
0.60001387423014	0.038999654559219	0.49219575776478
0.60206170315243	0.038880367939563	0.49393976414561
0.60410953207472	0.038924072765462	0.49577822334401
0.60615736099700	0.039145239113572	0.49755515859141
0.60820518991929	0.039435653801615	0.49915804056726
0.61025301884158	0.039639944239181	0.50059517479699
0.61230084776386	0.039663149142856	0.50198915987698
0.61434867668615	0.039535868964905	0.50349149392472
0.61639650560844	0.039392307220202	0.50517780045830
0.61844433453073	0.039376939619357	0.50699612655816
0.62049216345301	0.039544709619914	0.50880365105873
0.62253999237530	0.039823688311671	0.51046587916031
0.62458782129759	0.040065563721559	0.51194943714187
0.62663565021987	0.040148529656361	0.51334445129581
0.62868347914216	0.040061204586638	0.51480152274429
0.63073130806445	0.039909772098801	0.51642736317149
0.63277913698674	0.039843912260858	0.51821140708546
0.63482696590902	0.039953182968172	0.52003386334424
0.63687479483131	0.040205575969216	0.52174912201921
0.63892262375360	0.040470395190516	0.52328645066194
0.64097045267588	0.040609122226567	0.52469835104024
0.64301828159817	0.040571102706855	0.52612352614400
0.64506611052046	0.040427961967765	0.52769056847108
0.64711393944275	0.040323378495315	0.52942923923070
0.64916176836503	0.040373427365872	0.53125054368571
0.65120959728732	0.040586609544276	0.53300892494878
0.65325742620961	0.040858656600722	0.53460312014898
0.65530525513189	0.041045229190098	0.53604580288705
0.65735308405418	0.041061829188157	0.53745412347667
0.65940091297647	0.040941772588908	0.53896817100181
0.66144874189876	0.040812456277141	0.54065410237644
0.66349657082104	0.040806811100283	0.54245891832205
0.66554439974333	0.040971479445544	0.54424779305536
0.66759222866562	0.041235138021053	0.54589767487192
0.66964005758790	0.041458469372392	0.54738218355677
0.67168788651019	0.041530778454896	0.54878923755989
0.67373571543248	0.041446257114031	0.55025964952724
0.67578354435477	0.041307359654771	0.55188957004097
0.67783137327705	0.041253400144524	0.55366436164828
0.67987920219934	0.041364127424079	0.55546937418933
0.68192703112163	0.041605011765548	0.55716971793348
0.68397486004391	0.041851773855853	0.55870353502369
0.68602268896620	0.041976743953932	0.56012428146688
0.68807051788849	0.041937048019529	0.56156312639918
0.69011834681078	0.041803713347923	0.56313790867515
0.69216617573306	0.041711944976999	0.56487183788664
0.69421400465535	0.041767375872730	0.56667802398008
0.69626183357764	0.041973290733412	0.56842013087041
0.69830966249993	0.042228957389859	0.57000682110420
0.70035749142221	0.042399801545501	0.57145457217887
0.70240532034450	0.042410543621269	0.57287566926180
0.70445314926679	0.042296844492403	0.57440010218550
0.70650097818907	0.042180034614989	0.57608568826843
0.70854880711136	0.042182824023511	0.57787855868333
0.71059663603365	0.042344545452794	0.57965100618833
0.71264446495594	0.042594467812154	0.58129011069890
0.71469229387822	0.042801277125858	0.58277564444475
0.71674012280051	0.042864116170884	0.58419351445973
0.71878795172280	0.042782070548736	0.58567582628303
0.72083578064508	0.042654233853223	0.58730938073556
0.72288360956737	0.042610700678472	0.58907597923550
0.72493143848966	0.042722537998803	0.59086558603987
0.72697926741195	0.042953032516000	0.59255284588047
0.72902709633423	0.043183653549519	0.59408375266168
0.73107492525652	0.043296380632246	0.59551255278642
0.73312275417881	0.043255218858555	0.59696367317712
0.73517058310109	0.043130605302959	0.59854538776571
0.73721841202338	0.043050166873557	0.60027512038565
0.73926624094567	0.043110249280901	0.60206791239644
0.74131406986796	0.043309540998812	0.60379567115891
0.74336189879024	0.043550516696851	0.60537588577975
0.74540972771253	0.043707330213445	0.60682837108574
