#Parameters = {C_1=13; C_2=297.74895212961; Conductivity_W=18000000; Ip=298.03261313869; Pipe_lenght=40; Pipe_r=30; beta=1; cells_wave=30; conductivity_copper=59500000; d=-397.74895212961; half_gap_x=17; half_gap_y=30; half_gap_z=50; mu_copper=0.999994; offset=6.8; offset_x=1; offset_y=5; sigma_z=5; teta=2.5; thcoll=13; translate_z=-347.74895212961; wakelength=20000}
#"Frequency / GHz"	"Z [Re / Ohm]"	"Z [Im / Ohm]"
#-----------------------------------------------
0.0000000000000	0.16369057822291	1.3996100736518e-13
0.0020478289222872	0.14436130163231	-0.063555546829956
0.0040956578445743	0.094508289951523	-0.10425772082142
0.0061434867668615	0.034486111137093	-0.10980996253769
0.0081913156891487	-0.013090067319167	-0.083544853002669
0.010239144611436	-0.033886233033206	-0.041566672240020
0.012286973533723	-0.027514558465703	-0.0038429839304740
0.014334802456010	-0.0057380453236036	0.015734080568836
0.016382631378297	0.015206643883928	0.015064415016069
0.018430460300585	0.023542257793613	0.0027608857397195
0.020478289222872	0.017241183754984	-0.0083794446644628
0.022526118145159	0.0032556599289740	-0.0091473263997622
0.024573947067446	-0.0081020719590868	0.0015161521656637
0.026621775989733	-0.0098170533930482	0.017311641397955
0.028669604912020	-0.0018967202414547	0.029557859806190
0.030717433834308	0.0096375556902304	0.032881388766606
0.032765262756595	0.017286889721737	0.028128562791069
0.034813091678882	0.016954460246012	0.021071051736409
0.036860920601169	0.010126966614816	0.018190979381129
0.038908749523456	0.0023004254728528	0.022489621205648
0.040956578445743	-0.00096614716304407	0.031946453317720
0.043004407368031	0.0023637283323114	0.041335714561485
0.045052236290318	0.0098253147274287	0.045921623582491
0.047100065212605	0.016466352307246	0.044494791913676
0.049147894134892	0.018293216397626	0.039855614059383
0.051195723057179	0.014801475096741	0.036649472311738
0.053243551979466	0.0090242146727412	0.038174401925170
0.055291380901754	0.0052618675721049	0.044320296686329
0.057339209824041	0.0061519432811513	0.051899901032763
0.059387038746328	0.011046389461641	0.056979908829897
0.061434867668615	0.016669956090423	0.057539828901470
0.063482696590902	0.019470246614893	0.054685608833491
0.065530525513189	0.017996779186663	0.051712738165727
0.067578354435477	0.013733993446541	0.051776166997077
0.069626183357764	0.0099323508144580	0.055797356121284
0.071674012280051	0.0093340170271714	0.061983259536263
0.073721841202338	0.012369776547415	0.067182618671808
0.075769670124625	0.017000810883974	0.069071975254629
0.077817499046912	0.020219718053723	0.067667987774136
0.079865327969200	0.020119207667428	0.065192761365226
0.081913156891487	0.017115869387483	0.064468739035252
0.083960985813774	0.013553328665551	0.066992608352138
0.086008814736061	0.012031593830783	0.071994616683451
0.088056643658348	0.013645058024044	0.077066105560892
0.090104472580635	0.017316269210279	0.079859377393045
0.092152301502923	0.020622126124306	0.079667928356008
0.094200130425210	0.021489067239072	0.077829860022906
0.096247959347497	0.019577747728373	0.076735307817125
0.098295788269784	0.016438106253008	0.078167147375836
0.10034361719207	0.014382677153974	0.082121768534871
0.10239144611436	0.014891547807209	0.086885264784789
0.10443927503665	0.017644647435562	0.090262311338520
0.10648710395893	0.020809790075833	0.091081628017235
0.10853493288122	0.022342499964515	0.089949826728382
0.11058276180351	0.021379757180894	0.088772886434994
0.11263059072579	0.018781209214384	0.089415580942224
0.11467841964808	0.016483149116266	0.092438258089823
0.11672624857037	0.016146019938863	0.096763633962572
0.11877407749266	0.018037111366284	0.10046608175340
0.12082190641494	0.020897555820703	0.10210891586030
0.12286973533723	0.022849804683100	0.10170383689408
0.12491756425952	0.022694553282512	0.10065443898945
0.12696539318180	0.020703840002242	0.10075606901831
0.12901322210409	0.018388366125519	0.10296214711072
0.13106105102638	0.017430258105172	0.10676248591438
0.13310887994867	0.018533026592973	0.11057656670792
0.13515670887095	0.020973050829022	0.11286264701434
0.13720453779324	0.023135927030374	0.11316645119642
0.13925236671553	0.023642934671537	0.11239796182492
0.14130019563781	0.022283494460396	0.11217108230374
0.14334802456010	0.020124687149361	0.11368324867424
0.14539585348239	0.018747188174147	0.11691115011832
0.14744368240468	0.019152989932990	0.12066123279928
0.14949151132696	0.021098252472656	0.12341643925904
0.15153934024925	0.023294031767294	0.12438004328633
0.15358716917154	0.024314232482925	0.12399971919338
0.15563499809382	0.023572628989966	0.12362865204816
0.15768282701611	0.021700868568292	0.12457785662974
0.15973065593840	0.020085439058157	0.12722215575714
0.16177848486069	0.019901399885044	0.13076834707716
0.16382631378297	0.021315178653967	0.13382673101636
0.16587414270526	0.023396255722927	0.13537552165454
0.16792197162755	0.024780256531418	0.13544991457994
0.16996980054984	0.024612079642535	0.13509212474266
0.17201762947212	0.023118103296741	0.13561459061817
0.17406545839441	0.021425569154626	0.13769623216796
0.17611328731670	0.020770515845250	0.14093319487458
0.17816111623898	0.021649936964444	0.14414034991671
0.18020894516127	0.023498929764481	0.14617998027874
0.18225677408356	0.025101427307895	0.14673902835413
0.18430460300585	0.025436980951377	0.14652467676654
0.18635243192813	0.024374730502987	0.14675762893644
0.18840026085042	0.022743347145529	0.14832529330935
0.19044808977271	0.021742857592898	0.15118161133083
0.19249591869499	0.022115084805896	0.15439875090222
0.19454374761728	0.023645524351979	0.15682123959237
0.19659157653957	0.025330470560404	0.15786203931136
0.19863940546186	0.026080964311515	0.15789270555232
0.20068723438414	0.025470476550910	0.15796903363159
0.20273506330643	0.024013541574205	0.15909375725106
0.20478289222872	0.022794152378285	0.16153061283652
0.20683072115100	0.022711564036139	0.16463846137462
0.20887855007329	0.023867719681564	0.16732864917097
0.21092637899558	0.025513087460981	0.16881995329103
0.21297420791787	0.026577037119538	0.16916807789472
0.21502203684015	0.026407993710514	0.16921130872329
0.21706986576244	0.025212153155455	0.16998081980862
0.21911769468473	0.023895862284457	0.17198997278647
0.22116552360701	0.023430971691231	0.17489199743021
0.22321335252930	0.024187121445532	0.17773379597813
0.22526118145159	0.025689311174021	0.17962081538001
0.22730901037388	0.026959143105473	0.18032958956964
0.22935683929616	0.027195119967893	0.18044890187565
0.23140466821845	0.026319365355446	0.18096127951594
0.23345249714074	0.025018210648821	0.18256185272660
0.23550032606302	0.024257789246280	0.18518641681735
0.23754815498531	0.024616144067915	0.18806874140850
0.23959598390760	0.025893225899992	0.19027858757992
0.24164381282989	0.027261549630930	0.19136300879765
0.24369164175217	0.027844876093328	0.19164914863611
0.24573947067446	0.027320561406823	0.19200650713460
0.24778729959675	0.026131810920529	0.19324092528864
0.24983512851903	0.025170680662700	0.19554235448345
0.25188295744132	0.025158170816772	0.19836455438153
0.25393078636361	0.026151907420803	0.20081220238895
0.25597861528590	0.027517301133432	0.20226140359069
0.25802644420818	0.028374493160137	0.20278382626245
0.26007427313047	0.028206591916824	0.20308640391311
0.26212210205276	0.027208993881076	0.20401571158769
0.26416993097504	0.026143997303096	0.20597422746031
0.26621775989733	0.025808296995660	0.20865073887417
0.26826558881962	0.026485095871418	0.21124516885935
0.27031341774191	0.027757384720205	0.21302578106995
0.27236124666419	0.028805122561137	0.21383093854464
0.27440907558648	0.028974826418332	0.21417157917357
0.27645690450877	0.028226164942852	0.21487002389555
0.27850473343106	0.027150569711848	0.21649020205321
0.28055256235334	0.026555428683416	0.21895387050966
0.28260039127563	0.026905972724861	0.22160379193079
0.28464822019792	0.028010454633034	0.22366392175921
0.28669604912020	0.029161437518754	0.22477459408554
0.28874387804249	0.029629517624123	0.22523381629530
0.29079170696478	0.029165104226885	0.22578303681908
0.29283953588707	0.028163249593003	0.22709110797319
0.29488736480935	0.027382981742991	0.22929541466560
0.29693519373164	0.027420316701729	0.23191480512069
0.29898302265393	0.028300659034161	0.23418900818557
0.30103085157621	0.029469165106187	0.23560529700489
0.30307868049850	0.030180234923503	0.23624772991211
0.30512650942079	0.030012889788453	0.23673125711689
0.30717433834308	0.029155952748121	0.23777162024510
0.30922216726536	0.028270022444348	0.23969169804294
0.31126999618765	0.028026809427145	0.24220462497487
0.31331782510994	0.028646921658674	0.24461916539702
0.31536565403222	0.029754009912422	0.24632053270271
0.31741348295451	0.030641449437611	0.24719234568792
0.31946131187680	0.030762763343015	0.24769025596308
0.32150914079909	0.030105555664675	0.24852110151140
0.32355696972137	0.029193224363934	0.25015335730116
0.32560479864366	0.028718023267076	0.25249780713498
0.32765262756595	0.029062582117419	0.25497596308265
0.32970045648823	0.030040477672321	0.25692427771923
0.33174828541052	0.031031606539228	0.25805184120626
0.33379611433281	0.031414306489780	0.25863597956883
0.33584394325510	0.030993224234651	0.25932440621740
0.33789177217738	0.030128561404327	0.26068490135092
0.33993960109967	0.029481404995251	0.26281548554144
0.34198743002196	0.029555056829021	0.26528262046594
0.34403525894424	0.030350479308031	0.26742601075844
0.34608308786653	0.031371621415888	0.26881583880705
0.34813091678882	0.031972789930553	0.26954592108713
0.35017874571111	0.031804923745336	0.27016295464191
0.35222657463339	0.031052430482827	0.27128483959327
0.35427440355568	0.030300013202740	0.27317444137661
0.35632223247797	0.030125465632303	0.27556271919502
0.35837006140025	0.030701923810318	0.27784009246703
0.36041789032254	0.031683283172937	0.27948006850009
0.36246571924483	0.032448426258187	0.28040083001813
0.36451354816712	0.032532036405329	0.28101654541360
0.36656137708940	0.031943273480097	0.28194658358549
0.36860920601169	0.031154157303807	0.28358669221037
0.37065703493398	0.030769350599722	0.28583894688092
0.37270486385627	0.031108262204402	0.28818465505764
0.37475269277855	0.031988202140690	0.29004622121033
0.37680052170084	0.032855701474080	0.29118560799905
0.37884835062313	0.033171756836755	0.29186459543801
0.38089617954541	0.032782932611031	0.29265906349773
0.38294400846770	0.032022899224146	0.29405894232773
0.38499183738999	0.031477376851766	0.29613165555351
0.38703966631228	0.031577977956912	0.29848017589446
0.38908749523456	0.032306513997063	0.30052144698322
0.39113532415685	0.033212264521930	0.30189000832069
0.39318315307914	0.033727017941448	0.30268748720325
0.39523098200142	0.033557757183378	0.30340771628784
0.39727881092371	0.032885681602487	0.30459243932661
0.39932663984600	0.032236473257627	0.30645757049150
0.40137446876829	0.032114569717977	0.30874777602802
0.40342229769057	0.032655816772982	0.31091721559140
0.40547012661286	0.033537610702418	0.31250859645646
0.40751795553515	0.034205822664893	0.31346737807864
0.40956578445743	0.034258960975244	0.31417530527674
0.41161361337972	0.033723307482533	0.31518298749161
0.41366144230201	0.033030547470430	0.31682878913785
0.41570927122430	0.032716267424971	0.31900775729288
0.41775710014658	0.033049833685219	0.32124832049772
0.41980492906887	0.033851365820681	0.32304087565076
0.42185275799116	0.034620091021973	0.32418936937155
0.42390058691344	0.034882592142486	0.32494337392503
0.42594841583573	0.034518829470005	0.32582177266806
0.42799624475802	0.033841476720535	0.32725253994814
0.43004407368031	0.033376268364470	0.32927863196366
0.43209190260259	0.033497598548553	0.33153204849162
0.43413973152488	0.034171892639969	0.33349138788600
0.43618756044717	0.034984600736682	0.33484269871099
0.43823538936945	0.035429532825953	0.33569394467007
0.44028321829174	0.035258649629152	0.33649663846974
0.44233104721403	0.034650646645819	0.33773139596625
0.44437887613632	0.034083815436819	0.33957634735817
0.44642670505860	0.034003556104986	0.34178712687795
0.44847453398089	0.034515620990118	0.34386921588218
0.45052236290318	0.035316309494541	0.34542115673418
0.45257019182546	0.035905570485712	0.34641048464040
0.45461802074775	0.035933536615471	0.34719277226090
0.45666584967004	0.035440390613800	0.34826298221564
0.45871367859233	0.034825162089794	0.34991295407981
0.46076150751461	0.034567396756074	0.35203199875995
0.46280933643690	0.034895791535700	0.35418679809142
0.46485716535919	0.035632722742330	0.35592304221167
0.46690499428147	0.036320302330973	0.35707887821253
0.46895282320376	0.036538571273382	0.35789395278391
0.47100065212605	0.036194756345635	0.35884065760658
0.47304848104834	0.035584400659830	0.36029635823549
0.47509630997062	0.035184200024765	0.36228399086961
0.47714413889291	0.035321711527206	0.36445930118237
0.47919196781520	0.035950744834124	0.36635139980757
0.48123979673749	0.036686409999733	0.36768858510367
0.48328762565977	0.037073436154901	0.36858402726957
0.48533545458206	0.036900748928949	0.36945446076948
0.48738328350435	0.036344982890663	0.37073021552585
0.48943111242663	0.035845403561997	0.37255831225855
0.49147894134892	0.035798751157427	0.37470343322558
0.49352677027121	0.036285959319753	0.37671340836994
0.49557459919350	0.037018952511546	0.37823288665277
0.49762242811578	0.037542389367904	0.37924763566608
0.49967025703807	0.037549108947331	0.38009155410193
0.50171808596036	0.037090784351778	0.38121351173196
0.50376591488264	0.036539353093816	0.38286679507809
0.50581374380493	0.036327858773196	0.38493598459305
0.50786157272722	0.036651244860305	0.38701955516489
0.50990940164951	0.037333799764480	0.38870915843332
0.51195723057179	0.037953341120470	0.38987136613506
0.51400505949408	0.038134421180221	0.39073751737348
0.51605288841637	0.037806955604771	0.39174122840504
0.51810071733865	0.037252150855067	0.39321765764211
0.52014854626094	0.036905735396346	0.39517306985859
0.52219637518323	0.037056145141046	0.39728310275211
0.52424420410552	0.037646689228435	0.39911913302396
0.52629203302780	0.038317355432198	0.40044479895683
0.52833986195009	0.038655545859592	0.40137757567848
0.53038769087238	0.038481145906618	0.40230498719283
0.53243551979466	0.037968998934232	0.40361515788474
0.53448334871695	0.037525546994454	0.40542902391266
0.53653117763924	0.037506631226771	0.40751893832407
0.53857900656153	0.037972359233168	0.40946839862877
0.54062683548381	0.038647878675027	0.41096085970274
0.54267466440610	0.039115557089885	0.41199739098347
0.54472249332839	0.039104224668153	0.41289354544118
0.54677032225067	0.038675184799807	0.41405926431780
0.54881815117296	0.038177426876427	0.41571530400026
0.55086598009525	0.038004669345448	0.41774231784389
0.55291380901754	0.038323345987812	0.41976573587768
0.55496163793982	0.038959439250677	0.42141612566901
0.55700946686211	0.039521071692374	0.42258408630606
0.55905729578440	0.039670528683523	0.42349383485877
0.56110512470668	0.039356912812401	0.42454603945899
0.56315295362897	0.038849177877368	0.42604003727972
0.56520078255126	0.038548201843838	0.42796799867910
0.56724861147355	0.038709182998810	0.43002255363361
0.56929644039583	0.039266573014618	0.43181107386359
0.57134426931812	0.039881617612914	0.43312725042006
0.57339209824041	0.040178099376720	0.43409214337607
0.57543992716269	0.040002251152768	0.43506829955495
0.57748775608498	0.039527300025849	0.43640782371642
0.57953558500727	0.039131597969522	0.43820944245194
0.58158341392956	0.039136046558953	0.44025215335983
0.58363124285184	0.039583020148029	0.44215000520902
0.58567907177413	0.040209070623448	0.44361963470492
0.58772690069642	0.040628894735425	0.44467512908829
0.58977472961871	0.040602122654059	0.44561623489522
0.59182255854099	0.040198222112672	0.44681948772929
0.59387038746328	0.039746410469328	0.44847778668061
0.59591821638557	0.039606629277754	0.45046851234039
0.59796604530785	0.039920885547551	0.45244032869773
0.60001387423014	0.040516720402262	0.45405725815396
0.60206170315243	0.041028393129568	0.45523049046261
0.60410953207472	0.041150653798883	0.45617800879517
0.60615736099700	0.040849042222697	0.45727204549817
0.60820518991929	0.040381849996685	0.45878109500670
0.61025301884158	0.040119855704898	0.46068527051366
0.61230084776386	0.040289621238826	0.46269196361638
0.61434867668615	0.040818055397188	0.46443965668203
0.61639650560844	0.041384863314383	0.46574794565731
0.61844433453073	0.041645294386092	0.46674087897082
0.62049216345301	0.041468298674581	0.46775931196137
0.62253999237530	0.041025590196857	0.46912417220188
0.62458782129759	0.040671117222914	0.47091503744689
0.62663565021987	0.040695518517348	0.47291677741854
0.62868347914216	0.041125888310560	0.47476999502583
0.63073130806445	0.041708783807679	0.47622008400727
0.63277913698674	0.042087015494448	0.47729232734009
0.63482696590902	0.042046918278236	0.47827263606451
0.63687479483131	0.041664942943216	0.47950847998848
0.63892262375360	0.041253013806785	0.48116859761971
0.64097045267588	0.041141666512594	0.48312763960992
0.64301828159817	0.041451720411166	0.48505458729148
0.64506611052046	0.042012193523408	0.48664260494494
0.64711393944275	0.042480202714662	0.48782073838166
0.64916176836503	0.042578790967133	0.48880141707094
0.65120959728732	0.042287738876974	0.48993199973302
0.65325742620961	0.041855916067624	0.49145409163934
0.65530525513189	0.041627763575539	0.49333738565765
0.65735308405418	0.041804871301670	0.49530228316641
0.65940091297647	0.042307671733324	0.49701450037113
0.66144874189876	0.042832121622271	0.49831622623281
0.66349657082104	0.043061028277704	0.49933400129682
0.66554439974333	0.042883153008122	0.50038959184248
0.66759222866562	0.042468759360168	0.50177661015714
0.66964005758790	0.042150322199224	0.50355794308771
0.67168788651019	0.042191957476973	0.50552373420722
0.67373571543248	0.042607457877434	0.50733795400713
0.67578354435477	0.043152285254708	0.50877120562964
0.67783137327705	0.043493995427775	0.50985848997981
0.67987920219934	0.043442337292119	0.51087344447734
0.68192703112163	0.043079778981379	0.51213794894190
0.68397486004391	0.042702926884207	0.51379955889534
0.68602268896620	0.042616421142695	0.51573064850691
0.68807051788849	0.042922511048641	0.51761818296932
0.69011834681078	0.043451644006408	0.51918099455516
0.69216617573306	0.043881163910938	0.52036376566310
0.69421400465535	0.043959038545694	0.52137389970599
0.69626183357764	0.043677498357278	0.52253674413097
0.69830966249993	0.043276970778862	0.52407021211578
0.70035749142221	0.043078587512085	0.52593491678551
0.70240532034450	0.043261934327975	0.52786287196286
0.70445314926679	0.043741846572875	0.52954389882724
0.70650097818907	0.044228760001294	0.53084009042994
0.70854880711136	0.044429875477046	0.53188006136082
0.71059663603365	0.044251397962241	0.53296858676285
0.71264446495594	0.043862173842656	0.53437509830988
0.71469229387822	0.043575572711431	0.53614780217956
0.71674012280051	0.043632229811586	0.53808164805842
0.71878795172280	0.044034260794074	0.53986139296450
0.72083578064508	0.044545154195019	0.54127995765778
0.72288360956737	0.044854475889049	0.54238084095703
0.72493143848966	0.044792699263130	0.54342666251031
0.72697926741195	0.044447503635944	0.54471654109878
0.72902709633423	0.044101771725670	0.54637928943662
0.73107492525652	0.044037109648207	0.54828539576092
0.73312275417881	0.044339346027888	0.55013792028454
0.73517058310109	0.044840337884687	0.55167852799558
0.73721841202338	0.045235519401463	0.55286571272406
0.73926624094567	0.045295028593924	0.55390226805353
0.74131406986796	0.045022068906715	0.55509386446974
0.74336189879024	0.044649415166952	0.55663734582527
0.74540972771253	0.044477367247052	0.55848535794253
