#Parameters = {C_1=24.92455081603; C_2=570.86606829031; Conductivity=10000000; Conductivity_Mo=17900000; Conductivity_MoGr=1000000; Ip=571.40992392382; Pipe_lenght=40; Pipe_r=30; beta=1; cells_wave=30; conductivity_copper=59500000; d=-870.86606829031; half_gap_x=5.0754491839698; half_gap_y=30; half_gap_z=150; mu_copper=0.999994; offset=2.0301796735879; offset_x=1; offset_y=5; sigma_z=5; teta=2.5; thcoll=24.92455081603; translate_z=-720.86606829031; wakelength=20000}
#"Frequency / GHz"	"Z [Re / Ohm]"	"Z [Im / Ohm]"
#-----------------------------------------------
0.0000000000000	0.043681475256105	-1.8388369794034e-13
0.0020478289222872	0.038710068096728	-0.0081351592257214
0.0040956578445743	0.025957369977990	-0.010225295135858
0.0061434867668615	0.010832027801242	-0.0030316240837371
0.0081913156891487	-0.00065685589644396	0.012528373416134
0.010239144611436	-0.0047035560334446	0.032137631968160
0.012286973533723	-0.0012164971697486	0.050446284766039
0.014334802456010	0.0066529373138602	0.063716960250631
0.016382631378297	0.014548330165314	0.071352692346540
0.018430460300585	0.019286836265281	0.075619725340844
0.020478289222872	0.020275975417307	0.079917204122257
0.022526118145159	0.019321150896576	0.086707826699702
0.024573947067446	0.019138632390736	0.096293948485912
0.026621775989733	0.021583116552342	0.10701534048714
0.028669604912020	0.026646522508731	0.11656514444092
0.030717433834308	0.032713709518962	0.12350573712218
0.032765262756595	0.037762698094117	0.12805427914507
0.034813091678882	0.040666771283755	0.13175068386273
0.036860920601169	0.041787048427664	0.13634161847306
0.038908749523456	0.042566207247212	0.14265976569690
0.040956578445743	0.044483012322137	0.15020049241396
0.043004407368031	0.048091537197908	0.15759265762846
0.045052236290318	0.052746977756072	0.16357830293871
0.047100065212605	0.057129703529164	0.16782836822273
0.049147894134892	0.060160287884178	0.17108513359677
0.051195723057179	0.061681967496686	0.17459666897111
0.053243551979466	0.062487418730874	0.17926734148027
0.055291380901754	0.063723858754480	0.18509882691279
0.057339209824041	0.066111371794481	0.19126412841657
0.059387038746328	0.069499230073306	0.19671993732742
0.061434867668615	0.073027201905871	0.20091777802362
0.063482696590902	0.075744416873481	0.20413972465453
0.065530525513189	0.077247729750167	0.20726233893127
0.067578354435477	0.077916805660525	0.21114132500618
0.069626183357764	0.078615402805414	0.21604752717533
0.071674012280051	0.080088915780699	0.22152495163900
0.073721841202338	0.082475789596744	0.22674038627334
0.075769670124625	0.085251079131793	0.23106427953020
0.077817499046912	0.087615783680353	0.23448343303266
0.079865327969200	0.089048403949361	0.23757951716749
0.081913156891487	0.089642091083633	0.24111056706373
0.083960985813774	0.090013077447341	0.24549542720262
0.086008814736061	0.090863025561794	0.25055086183786
0.088056643658348	0.092505184802868	0.25564507249266
0.090104472580635	0.094673653660777	0.26014494911758
0.092152301502923	0.096730545061295	0.26384339423606
0.094200130425210	0.098113888915373	0.26708073005274
0.096247959347497	0.098714605402348	0.27049220895343
0.098295788269784	0.098932122547445	0.27456768302775
0.10034361719207	0.099384877338139	0.27932776735444
0.10239144611436	0.10048503808713	0.28432974375137
0.10443927503665	0.10216958230242	0.28898578253188
0.10648710395893	0.10396281924122	0.29296641880516
0.10853493288122	0.10531517863766	0.29641371309821
0.11058276180351	0.10597892306019	0.29982751511748
0.11263059072579	0.10616560562917	0.30371399938320
0.11467841964808	0.10638694334949	0.30824281677983
0.11672624857037	0.10709821979389	0.31314438094245
0.11877407749266	0.10839251316375	0.31790820336009
0.12082190641494	0.10995092102591	0.32213747985741
0.12286973533723	0.11127365926561	0.32581444571033
0.12491756425952	0.11202596633498	0.32929977387858
0.12696539318180	0.11226057246771	0.33307529378726
0.12901322210409	0.11236995936708	0.33741287572756
0.13106105102638	0.11280950828332	0.34219643277305
0.13310887994867	0.11378664664980	0.34701294621823
0.13515670887095	0.11512803525190	0.35144232964050
0.13720453779324	0.11640949094415	0.35534321610790
0.13925236671553	0.11725244719343	0.35894069865976
0.14130019563781	0.11758057559433	0.36266232811937
0.14334802456010	0.11766334608074	0.36684122584658
0.14539585348239	0.11792309077375	0.37149198299992
0.14744368240468	0.11864352177027	0.37630965185656
0.14949151132696	0.11978073722382	0.38088623273732
0.15153934024925	0.12100245365011	0.38499132894951
0.15358716917154	0.12192251577059	0.38872421735062
0.15563499809382	0.12236577638825	0.39243729295000
0.15768282701611	0.12248218683465	0.39648910605957
0.15973065593840	0.12263636354168	0.40099966558788
0.16177848486069	0.12315368514543	0.40577463775143
0.16382631378297	0.12409959328685	0.41044576249560
0.16587414270526	0.12524166560486	0.41472632722626
0.16792197162755	0.12621575209489	0.41860468319332
0.16996980054984	0.12677787579279	0.42234539524022
0.17201762947212	0.12696803380405	0.42630192461522
0.17406545839441	0.12707629708960	0.43067313819886
0.17611328731670	0.12743903351976	0.43537108417910
0.17816111623898	0.12820828201198	0.44008763941472
0.18020894516127	0.12925228720853	0.44450993174131
0.18225677408356	0.13025207687626	0.44853408893747
0.18430460300585	0.13092370776942	0.45233143360275
0.18635243192813	0.13121161906423	0.45622523524416
0.18840026085042	0.13132169565287	0.46046638309607
0.19044808977271	0.13157497330083	0.46506340967891
0.19249591869499	0.13218580873888	0.46978179762770
0.19454374761728	0.13311768993705	0.47430941280280
0.19659157653957	0.13411356509949	0.47847149779361
0.19863940546186	0.13487630032289	0.48234725806717
0.20068723438414	0.13527280498106	0.48621039793418
0.20273506330643	0.13542179931573	0.49033787408757
0.20478289222872	0.13560758546753	0.49482030027480
0.20683072115100	0.13608228654032	0.49950361126982
0.20887855007329	0.13689401870568	0.50409926474093
0.21092637899558	0.13785800737352	0.50838428343169
0.21297420791787	0.13868761360973	0.51235254665019
0.21502203684015	0.13919254091457	0.51621477223888
0.21706986576244	0.13940732290449	0.52025009886837
0.21911769468473	0.13956349285025	0.52461364228386
0.22116552360701	0.13992741761195	0.52923255277237
0.22321335252930	0.14061728768824	0.53386006887669
0.22526118145159	0.14152491981592	0.53824765482613
0.22730901037388	0.14239399112951	0.54231522289951
0.22935683929616	0.14299831162426	0.54620293130970
0.23140466821845	0.14329627381658	0.55017121244722
0.23345249714074	0.14345613576432	0.55442018695452
0.23550032606302	0.14373709468990	0.55895355929155
0.23754815498531	0.14431012225256	0.56357944159299
0.23959598390760	0.14514232974868	0.56804517535711
0.24164381282989	0.14602299192448	0.57221149504677
0.24369164175217	0.14671099490802	0.57614604257525
0.24573947067446	0.14710063603197	0.58007351587825
0.24778729959675	0.14729185672309	0.58421900441908
0.24983512851903	0.14751835957333	0.58865364115724
0.25188295744132	0.14798520728030	0.59324831636771
0.25393078636361	0.14872868858688	0.59776541990658
0.25597861528590	0.14959414977846	0.60202349758733
0.25802644420818	0.15034510080587	0.60602077814744
0.26007427313047	0.15082671098261	0.60993353570840
0.26212210205276	0.15107073931986	0.61399238103004
0.26416993097504	0.15127086440106	0.61832321359928
0.26621775989733	0.15164733860301	0.62286244771232
0.26826558881962	0.15229548635433	0.62740350860657
0.27031341774191	0.15312219895370	0.63174070868012
0.27236124666419	0.15391265276381	0.63581034782699
0.27440907558648	0.15447953224577	0.63973229356163
0.27645690450877	0.15479116480921	0.64372499951896
0.27850473343106	0.15499097488222	0.64795413230143
0.28055256235334	0.15529650415471	0.65241963357096
0.28260039127563	0.15584903517038	0.65695814678466
0.28464822019792	0.15661771474867	0.66135747671756
0.28669604912020	0.15742318693525	0.66550293222558
0.28874387804249	0.15806281622844	0.66945467060968
0.29079170696478	0.15845012581187	0.67340393765318
0.29283953588707	0.15867255015508	0.67753993609724
0.29488736480935	0.15892899965037	0.68191994539116
0.29693519373164	0.15939175579986	0.68643179961548
0.29898302265393	0.16008853873300	0.69087321281613
0.30103085157621	0.16088543223730	0.69509190231908
0.30307868049850	0.16158102362572	0.69908948740957
0.30512650942079	0.16204562951534	0.70301831610721
0.30717433834308	0.16230941150334	0.70707482797946
0.30922216726536	0.16253955450326	0.71136404692266
0.31126999618765	0.16292363942341	0.71582863514205
0.31331782510994	0.16354052738770	0.72029038473267
0.31536565403222	0.16430758934082	0.72457419222812
0.31741348295451	0.16503953908465	0.72862830717544
0.31946131187680	0.16557703193385	0.73255831193277
0.32150914079909	0.16589581138038	0.73655259063730
0.32355696972137	0.16612167675360	0.74075185397443
0.32560479864366	0.16644217236371	0.74515304980859
0.32765262756595	0.16697695264044	0.74961324098245
0.32970045648823	0.16769639414021	0.75394954772854
0.33174828541052	0.16844377651243	0.75806530884209
0.33379611433281	0.16904452610509	0.76201546058917
0.33584394325510	0.16942640386795	0.76596695073093
0.33789177217738	0.16966792168374	0.77008265559182
0.33993960109967	0.16994257903420	0.77440948478192
0.34198743002196	0.17039848196490	0.77884751609191
0.34403525894424	0.17105683749171	0.78322041115643
0.34608308786653	0.17179886009554	0.78739752646175
0.34813091678882	0.17244905433543	0.79138319121559
0.35017874571111	0.17289651239703	0.79531217325867
0.35222657463339	0.17317041583819	0.79935553391392
0.35427440355568	0.17341837112401	0.80360261267367
0.35632223247797	0.17380358047742	0.80800053614862
0.35837006140025	0.17439245536456	0.81239218043924
0.36041789032254	0.17511003924958	0.81662537908946
0.36246571924483	0.17579312423165	0.82065750070797
0.36451354816712	0.17630345484645	0.82458355159393
0.36656137708940	0.17662252317466	0.82856933004410
0.36860920601169	0.17686298217982	0.83273663811211
0.37065703493398	0.17718974322053	0.83708000113623
0.37270486385627	0.17770599441768	0.84147181530720
0.37475269277855	0.17838289593654	0.84575142633064
0.37680052170084	0.17908082685896	0.84983598116646
0.37884835062313	0.17964659306765	0.85377659038316
0.38089617954541	0.18001893862520	0.85772176053655
0.38294400846770	0.18026971082615	0.86181422585765
0.38499183738999	0.18055304507031	0.86609283292982
0.38703966631228	0.18099848067178	0.87046690554855
0.38908749523456	0.18162210440088	0.87477996708737
0.39113532415685	0.18231665142157	0.87891806694744
0.39318315307914	0.18292655995837	0.88288774177984
0.39523098200142	0.18335548360100	0.88681029634174
0.39727881092371	0.18363197572069	0.89083718979372
0.39932663984600	0.18388858520205	0.89504553171672
0.40137446876829	0.18426961570004	0.89938577854790
0.40342229769057	0.18483171901478	0.90371708962294
0.40547012661286	0.18550578213028	0.90790514622693
0.40751795553515	0.18614572202627	0.91191451696173
0.40956578445743	0.18662976106319	0.91583207522741
0.41161361337972	0.18694398863101	0.91980603250084
0.41366144230201	0.18719088741776	0.92394335769669
0.41570927122430	0.18751768506193	0.92823656825461
0.41775710014658	0.18801460451385	0.93256998368048
0.41980492906887	0.18865331625295	0.93680037614824
0.42185275799116	0.18930756115698	0.94085581056153
0.42390058691344	0.18984097236003	0.94478448534062
0.42594841583573	0.19020102573011	0.94872043591860
0.42799624475802	0.19045440655995	0.95279048446849
0.43004407368031	0.19074000100477	0.95702702229467
0.43209190260259	0.19117263076727	0.96134659521991
0.43413973152488	0.19176424017644	0.96560842107114
0.43618756044717	0.19241661813586	0.96971182812619
0.43823538936945	0.19299000854924	0.97366519369574
0.44028321829174	0.19339969326905	0.97757919306613
0.44233104721403	0.19367381494589	0.98158969249594
0.44437887613632	0.19393298884888	0.98576399631056
0.44642670505860	0.19430644049317	0.99005513186004
0.44847453398089	0.19484296420588	0.99433521129029
0.45052236290318	0.19547804294417	0.99848420105516
0.45257019182546	0.19607926676867	1.0024725000566
0.45461802074775	0.19653809354350	1.0063805330646
0.45666584967004	0.19684437480520	1.0103424228329
0.45871367859233	0.19709249006172	1.0144531819118
0.46076150751461	0.19741545996794	1.0187036358112
0.46280933643690	0.19789302222378	1.0229876419651
0.46485716535919	0.19849718327647	1.0271760127310
0.46690499428147	0.19911241336482	1.0312056749649
0.46895282320376	0.19961594445902	1.0351225478040
0.47100065212605	0.19996237331141	1.0390490078515
0.47304848104834	0.20021427943400	1.0430989799821
0.47509630997062	0.20049822871944	1.0472995594869
0.47714413889291	0.20091708163311	1.0515730807371
0.47919196781520	0.20147935407669	1.0557914768924
0.48123979673749	0.20209413277114	1.0598648989770
0.48328762565977	0.20263450601659	1.0638032861502
0.48533545458206	0.20302526619874	1.0677087091890
0.48738328350435	0.20329428856257	1.0717043255539
0.48943111242663	0.20355249842527	1.0758493884272
0.49147894134892	0.20391680131558	1.0800989550008
0.49352677027121	0.20442951396598	1.0843356828801
0.49557459919350	0.20502981355426	1.0884512376247
0.49762242811578	0.20559645366595	1.0924208473489
0.49967025703807	0.20603176010910	1.0963197097391
0.50171808596036	0.20632872712502	1.1002704111395
0.50376591488264	0.20657513319194	1.1043581174128
0.50581374380493	0.20689233550566	1.1085722045445
0.50786157272722	0.20735141142267	1.1128143271720
0.50990940164951	0.20792458558500	1.1169668507691
0.51195723057179	0.20850512761301	1.1209740425338
0.51400505949408	0.20898148629471	1.1248799955158
0.51605288841637	0.20931417678507	1.1287974941980
0.51810071733865	0.20956243526915	1.1328297966919
0.52014854626094	0.20984266181522	1.1369995740694
0.52219637518323	0.21024779662130	1.1412339052372
0.52424420410552	0.21078346614829	1.1454152412215
0.52629203302780	0.21136476277334	1.1494627330948
0.52833986195009	0.21187542273518	1.1533876674475
0.53038769087238	0.21224816743033	1.1572850107529
0.53243551979466	0.21251069983391	1.1612673622214
0.53448334871695	0.21276591996063	1.1653872446858
0.53653117763924	0.21312047436697	1.1696013589589
0.53857900656153	0.21361124665517	1.1738011225121
0.54062683548381	0.21418045193823	1.1778879677876
0.54267466440610	0.21471614230719	1.1818411936334
0.54472249332839	0.21512974085809	1.1857316726081
0.54677032225067	0.21541691389501	1.1896723595040
0.54881815117296	0.21565995714975	1.1937401564843
0.55086598009525	0.21597046973625	1.1979231789230
0.55291380901754	0.21641224239492	1.2021295786401
0.55496163793982	0.21695763644536	1.2062514083116
0.55700946686211	0.21750727593388	1.2102391301140
0.55905729578440	0.21795903796587	1.2141353496656
0.56110512470668	0.21827845386043	1.2180448142311
0.56315295362897	0.21852199609236	1.2220617946260
0.56520078255126	0.21879753036014	1.2262051905542
0.56724861147355	0.21918962175435	1.2304060279340
0.56929644039583	0.21970141301286	1.2345556036140
0.57134426931812	0.22025301687124	1.2385806815306
0.57339209824041	0.22073714429213	1.2424937317977
0.57543992716269	0.22109324061902	1.2463837583044
0.57748775608498	0.22134890954455	1.2503544391790
0.57953558500727	0.22160029595566	1.2544525700879
0.58158341392956	0.22194535874844	1.2586361938983
0.58363124285184	0.22241633962159	1.2628041167906
0.58567907177413	0.22295797841194	1.2668660574135
0.58772690069642	0.22346618587451	1.2708048086047
0.58977472961871	0.22386011783787	1.2746876189790
0.59182255854099	0.22413775172943	1.2786192844501
0.59387038746328	0.22437676603717	1.2826696659562
0.59591821638557	0.22468047459663	1.2868257622726
0.59796604530785	0.22510644163520	1.2910012141266
0.60001387423014	0.22562709662867	1.2950963152860
0.60206170315243	0.22614929103270	1.2990668368699
0.60410953207472	0.22657893599345	1.3029541652660
0.60615736099700	0.22688587420937	1.3068562266474
0.60820518991929	0.22712426497932	1.3108596199074
0.61025301884158	0.22739471317565	1.3149799899323
0.61230084776386	0.22777461893066	1.3191516937272
0.61434867668615	0.22826496433972	1.3232735717065
0.61639650560844	0.22879011821905	1.3272789166354
0.61844433453073	0.22925046084811	1.3311812520504
0.62049216345301	0.22959121872834	1.3350645114603
0.62253999237530	0.22983995270985	1.3390247351520
0.62458782129759	0.23008704873083	1.3431037809572
0.62663565021987	0.23042301371612	1.3472608002788
0.62868347914216	0.23087607332600	1.3514009124572
0.63073130806445	0.23139309285379	1.3554409571239
0.63277913698674	0.23187671070470	1.3593667645431
0.63482696590902	0.23225273991497	1.3632425097437
0.63687479483131	0.23252118255973	1.3671659918150
0.63892262375360	0.23275578273913	1.3712009994231
0.64097045267588	0.23305273650071	1.3753335338144
0.64301828159817	0.23346422838516	1.3794819300969
0.64506611052046	0.23396271228392	1.3835535755300
0.64711393944275	0.23446038205929	1.3875088388692
0.64916176836503	0.23487007846615	1.3913880872067
0.65120959728732	0.23516538973891	1.3952833799908
0.65325742620961	0.23539850884599	1.3992746848475
0.65530525513189	0.23566378239288	1.4033748061695
0.65735308405418	0.23603240456002	1.4075209503583
0.65940091297647	0.23650345746320	1.4116184717707
0.66144874189876	0.23700496426163	1.4156063296792
0.66349657082104	0.23744393897868	1.4194989922840
0.66554439974333	0.23777063612337	1.4233760270152
0.66759222866562	0.23801261178364	1.4273268565658
0.66964005758790	0.23825528033223	1.4313890343492
0.67168788651019	0.23858268066384	1.4355226426670
0.67373571543248	0.23901952737067	1.4396382637087
0.67578354435477	0.23951450286613	1.4436589299772
0.67783137327705	0.23997607980824	1.4475731387934
0.67987920219934	0.24033587325116	1.4514424200387
0.68192703112163	0.24059567708217	1.4553584931215
0.68397486004391	0.24082583691999	1.4593798422803
0.68602268896620	0.24111635298462	1.4634915668823
0.68807051788849	0.24151469874252	1.4676160675890
0.69011834681078	0.24199331429066	1.4716669167576
0.69216617573306	0.24246903018148	1.4756085208054
0.69421400465535	0.24286073944709	1.4794803936254
0.69626183357764	0.24314533138043	1.4833694934991
0.69830966249993	0.24337331821286	1.4873499868308
0.70035749142221	0.24363359599244	1.4914321623024
0.70240532034450	0.24399192100813	1.4955556812804
0.70445314926679	0.24444567892330	1.4996315803359
0.70650097818907	0.24492605663762	1.5036037923493
0.70854880711136	0.24534586447757	1.5074876471948
0.71059663603365	0.24565977887410	1.5113589189578
0.71264446495594	0.24589538610067	1.5153012380779
0.71469229387822	0.24613376913411	1.5193483631173
0.71674012280051	0.24645329553026	1.5234611589321
0.71878795172280	0.24687557468900	1.5275549781050
0.72083578064508	0.24735085117472	1.5315582930138
0.72288360956737	0.24779270285731	1.5354619704573
0.72493143848966	0.24813785119093	1.5393252479868
0.72697926741195	0.24838969499886	1.5432345150687
0.72902709633423	0.24861562192668	1.5472435777271
0.73107492525652	0.24890019147577	1.5513367094969
0.73312275417881	0.24928671315799	1.5554398598002
0.73517058310109	0.24974758115183	1.5594720401815
0.73721841202338	0.25020368266873	1.5634012339392
0.73926624094567	0.25057924054692	1.5672662366433
0.74131406986796	0.25085407610525	1.5711495340420
0.74336189879024	0.25107725105956	1.5751201763011
0.74540972771253	0.25133287265025	1.5791862096500
0.74745755663482	0.25168189336231	1.5832894335205
0.74950538555710	0.25212017722011	1.5873458874045
0.75155321447939	0.25258168073485	1.5913039068816
0.75360104340168	0.25298432864243	1.5951796084765
0.75564887232397	0.25328672208172	1.5990454346463
0.75769670124625	0.25351650196570	1.6029798947611
0.75974453016854	0.25375093940728	1.6070133685108
0.76179235909083	0.25406337981642	1.6111073825898
0.76384018801311	0.25447265820222	1.6151814937840
