#Parameters = {C_1=13.247618914885; C_2=49.440786869662; Conductivity=10000000; Conductivity_Mo=17900000; Conductivity_MoGr=1000000; Ip=51.184868986893; Pipe_lenght=40; Pipe_r=30; beta=1; cells_wave=20; conductivity_copper=59500000; d=-349.44078686966; half_gap_x=16.752381085115; half_gap_y=30; half_gap_z=150; mu_copper=0.999994; offset=6.7009524340459; offset_x=1; offset_y=5; sigma_z=5; teta=15; thcoll=13.247618914885; translate_z=-199.44078686966; wakelength=20000}
#"Frequency / GHz"	"Z [Re / Ohm]"	"Z [Im / Ohm]"
#-----------------------------------------------
0.0000000000000	-0.064174786481033	-7.2935872085108e-13
0.0020002000200020	-0.059678503165336	0.028138891924441
0.0040004000400040	-0.047367343614845	0.052030876543973
0.0060006000600060	-0.030384958342949	0.068695603167240
0.0080008000800080	-0.012819468568421	0.077237860888366
0.010001000100010	0.0015701854617154	0.078946574108812
0.012001200120012	0.010421736318705	0.076680439690915
0.014001400140014	0.013275886360563	0.073809651908443
0.016001600160016	0.011401036492092	0.073125889422321
0.018001800180018	0.0070792034404043	0.076104786861338
0.020002000200020	0.0026790849269593	0.082730824730256
0.022002200220022	-0.00012127721495013	0.091857663409298
0.024002400240024	-0.00070945343281324	0.10187998701051
0.026002600260026	0.00054764462558190	0.11141139448313
0.028002800280028	0.0027223908515641	0.11971508858512
0.030003000300030	0.0048437027161820	0.12677936947364
0.032003200320032	0.0062881373183100	0.13309325820719
0.034003400340034	0.0069201352637457	0.13928705743361
0.036003600360036	0.0069891822457941	0.14582095986549
0.038003800380038	0.0068930258364290	0.15284086365102
0.040004000400040	0.0069476725781601	0.16021843448832
0.042004200420042	0.0072664998148921	0.16770563493400
0.044004400440044	0.0077744264683166	0.17509896274004
0.046004600460046	0.0083123235131643	0.18233089224593
0.048004800480048	0.0087541820372735	0.18946267477602
0.050005000500050	0.0090726621422235	0.19660878992388
0.052005200520052	0.0093311682738457	0.20385122200123
0.054005400540054	0.0096247312295178	0.21119329510301
0.056005600560056	0.010014620288255	0.21857004945113
0.058005800580058	0.010495317728034	0.22589730418374
0.060006000600060	0.011006461972922	0.23312363591309
0.062006200620062	0.011474567115901	0.24025487842927
0.064006400640064	0.011855323487265	0.24734202523538
0.066006600660066	0.012152270798742	0.25444586566631
0.068006800680068	0.012405402118942	0.26160255536369
0.070007000700070	0.012661555514874	0.26880952801924
0.072007200720072	0.012946815240259	0.27603610392880
0.074007400740074	0.013256470759610	0.28324815461605
0.076007600760076	0.013565200066287	0.29042984599015
0.078007800780078	0.013847824469358	0.29759007204705
0.080008000800080	0.014096305064822	0.30475231173673
0.082008200820082	0.014323177407230	0.31193677320683
0.084008400840084	0.014551300401013	0.31914700966531
0.086008600860086	0.014798138089304	0.32636872606019
0.088008800880088	0.015065017894645	0.33358000858948
0.090009000900090	0.015337425196901	0.34076532978437
0.092009200920092	0.015594914129095	0.34792432529646
0.094009400940094	0.015823540267505	0.35507060434679
0.096009600960096	0.016023043563670	0.36222246064342
0.098009800980098	0.016205117175456	0.36939201768384
0.10001000100010	0.016384922262322	0.37657948882500
0.10201020102010	0.016571818294962	0.38377531653017
0.10401040104010	0.016765004997999	0.39096783703672
0.10601060106011	0.016956065860847	0.39815104852262
0.10801080108011	0.017135924567070	0.40532767188281
0.11001100110011	0.017301301424165	0.41250618504214
0.11201120112011	0.017456640768991	0.41969441606870
0.11401140114011	0.017610761533035	0.42689414889807
0.11601160116012	0.017770877227135	0.43410009519415
0.11801180118012	0.017938026865312	0.44130351000335
0.12001200120012	0.018106694913477	0.44849778604199
0.12201220122012	0.018268525702845	0.45568236386777
0.12401240124012	0.018417495973876	0.46286267144824
0.12601260126013	0.018553243510386	0.47004647402155
0.12801280128013	0.018680694107189	0.47723919583144
0.13001300130013	0.018806587263544	0.48444116296295
0.13201320132013	0.018935351858887	0.49164824052134
0.13401340134013	0.019066934838060	0.49885509073407
0.13601360136014	0.019197704732964	0.50605873128800
0.13801380138014	0.019323514293683	0.51326012402105
0.14001400140014	0.019442737713697	0.52046299272925
0.14201420142014	0.019557322993112	0.52767090518105
0.14401440144014	0.019671344002255	0.53488467121554
0.14601460146015	0.019788183890902	0.54210173636135
0.14801480148015	0.019908274486613	0.54931784080380
0.15001500150015	0.020028823582073	0.55652974238788
0.15201520152015	0.020145596919279	0.56373720473559
0.15401540154015	0.020255514459707	0.57094303756892
0.15601560156016	0.020358392075994	0.57815128580934
0.15801580158016	0.020456813800907	0.58536481656117
0.16001600160016	0.020554362459318	0.59258383467706
0.16201620162016	0.020653441093401	0.59980615725232
0.16401640164016	0.020754070227792	0.60702891093503
0.16601660166017	0.020854316257769	0.61425045360766
0.16801680168017	0.020951922218127	0.62147128381632
0.17001700170017	0.021045985676617	0.62869344792244
0.17201720172017	0.021137591930042	0.63591895399660
0.17401740174017	0.021229064488325	0.64314830044163
0.17601760176018	0.021322409219852	0.65038007504301
0.17801780178018	0.021418010011531	0.65761182747514
0.18001800180018	0.021514405947605	0.66484158686661
0.18201820182018	0.021609236709594	0.67206902120208
0.18401840184018	0.021700692703229	0.67929552531298
0.18601860186019	0.021788527938170	0.68652324990270
0.18801880188019	0.021874033250874	0.69375375418656
0.19001900190019	0.021959067945637	0.70098715582974
0.19201920192019	0.022044838975711	0.70822227342059
0.19401940194019	0.022131228104124	0.71545758740148
0.19601960196020	0.022217058732104	0.72269233188433
0.19801980198020	0.022301059798062	0.72992699123017
0.20002000200020	0.022382845196171	0.73716290742319
0.20202020202020	0.022463254145231	0.74440130163764
0.20402040204020	0.022543847223316	0.75164238241713
0.20602060206021	0.022625912557465	0.75888512851423
0.20802080208021	0.022709641456072	0.76612787445051
0.21002100210021	0.022793999984683	0.77336930521519
0.21202120212021	0.022877359274299	0.78060921999231
0.21402140214021	0.022958464934154	0.78784859691100
0.21602160216022	0.023037132441807	0.79508895093431
0.21802180218022	0.023114258397209	0.80233141843658
0.22002200220022	0.023191187205353	0.80957614656126
0.22202220222022	0.023268871165598	0.81682233847309
0.22402240224022	0.023347360517477	0.82406887207536
0.22602260226023	0.023425914384822	0.83131505593185
0.22802280228023	0.023503610152191	0.83856103104626
0.23002300230023	0.023580020024974	0.84580758738873
0.23202320232023	0.023655509233941	0.85305555496588
0.23402340234023	0.023730981891973	0.86030519386211
0.23602360236024	0.023807267685994	0.86755598457218
0.23802380238024	0.023884565146373	0.87480694040996
0.24002400240024	0.023962300908168	0.88205722107408
0.24202420242024	0.024039480575590	0.88930664331461
0.24402440244024	0.024115289401849	0.89655576950243
0.24602460246025	0.024189554667359	0.90380553894838
0.24802480248025	0.024262790459853	0.91105669772155
0.25002500250025	0.024335825847703	0.91830939435329
0.25202520252025	0.024409280480376	0.92556317999270
0.25402540254025	0.024483230165980	0.93281737844041
0.25602560256026	0.024557259200241	0.94007155740156
0.25802580258026	0.024630832625104	0.94732578561189
0.26002600260026	0.024703716828612	0.95458052097169
0.26202620262026	0.024776160522980	0.96183622756325
0.26402640264026	0.024848721467746	0.96909299555158
0.26602660266027	0.024921865714305	0.97635042617957
0.26802680268027	0.024995615265235	0.98360785986467
0.27002700270027	0.025069483059223	0.99086479547827
0.27202720272027	0.025142741597742	0.99812122452089
0.27402740274027	0.025214853369431	1.0053776624766
0.27602760276028	0.025285789317172	1.0126348575592
0.27802780278028	0.025356037877234	1.0198933626720
0.28002800280028	0.025426306983558	1.0271532378183
0.28202820282028	0.025497113245478	1.0344140597950
0.28402840284028	0.025568514794343	1.0416752175457
0.28602860286029	0.025640142773259	1.0489362949797
0.28802880288029	0.025711492269184	1.0561972990249
0.29002900290029	0.025782273442040	1.0634586009986
0.29202920292029	0.025852597150391	1.0707206470862
0.29402940294029	0.025922886680829	1.0779836363838
0.29602960296030	0.025993586837514	1.0852473746293
0.29802980298030	0.026064866666425	1.0925113889975
0.30003000300030	0.026136505955243	1.0997752188994
0.30203020302030	0.026208029043131	1.1070386902868
0.30403040304030	0.026278989191862	1.1143020016533
0.30603060306031	0.026349216705950	1.1215655788549
0.30803080308031	0.026418877984390	1.1288298050776
0.31003100310031	0.026488322497477	1.1360948052090
0.31203120312031	0.026557832064938	1.1433604176726
0.31403140314031	0.026627442876634	1.1506263571874
0.31603160316032	0.026696953150063	1.1578924467945
0.31803180318032	0.026766100687540	1.1651587578386
0.32003200320032	0.026834781650287	1.1724255646531
0.32203220322032	0.026903157790903	1.1796931479852
0.32403240324032	0.026971576963063	1.1869615824915
0.32603260326033	0.027040357344222	1.1942306534865
0.32803280328033	0.027109576310711	1.2014999624045
0.33003300330033	0.027179002273989	1.2087691569763
0.33203320332033	0.027248215711529	1.2160381415765
0.33403340334033	0.027316845211433	1.2233071363807
0.33603360336034	0.027384773152420	1.2305765503090
0.33803380338034	0.027452187615852	1.2378467488866
0.34003400340034	0.027519455609310	1.2451178601430
0.34203420342034	0.027586903121674	1.2523897323312
0.34403440344034	0.027654640131289	1.2596620584503
0.34603460346035	0.027722532876315	1.2669345792216
0.34803480348035	0.027790327994976	1.2742072333632
0.35003500350035	0.027857837987600	1.2814801657656
0.35203520352035	0.027925064803117	1.2887535999052
0.35403540354035	0.027992185755313	1.2960276671559
0.35603560356036	0.028059419257871	1.3033023080564
0.35803580358036	0.028126865136872	1.3105773078291
0.36003600360036	0.028194426648672	1.3178524379157
0.36203620362036	0.028261863673941	1.3251276069838
0.36403640364036	0.028328939029988	1.3324029220110
0.36603660366037	0.028395560281140	1.3396786219864
0.36803680368037	0.028461825467842	1.3469549309698
0.37003700370037	0.028527946662794	1.3542319282530
0.37203720372037	0.028594105740492	1.3615095191042
0.37403740374037	0.028660339410080	1.3687875212227
0.37603760376038	0.028726528637534	1.3760658055762
0.37803780378038	0.028792496954290	1.3833443957769
0.38003800380038	0.028858149909711	1.3906234591411
0.38203820382038	0.028923561183984	1.3979031949916
0.38403840384038	0.028988946282297	1.4051836937511
0.38603860386039	0.029054538409177	1.4124648598814
0.38803880388039	0.029120444918343	1.4197464507258
0.39003900390039	0.029186575636464	1.4270282089857
0.39203920392039	0.029252688759263	1.4343100070191
0.39403940394039	0.029318525851617	1.4415919141739
0.39603960396040	0.029383952372252	1.4488741475603
0.39803980398040	0.029449018630121	1.4561569397544
0.40004000400040	0.029513907907418	1.4634404072081
0.40204020402040	0.029578809603276	1.4707244994897
0.40404040404040	0.029643800236708	1.4780090556962
0.40604060406041	0.029708806388658	1.4852939259955
0.40804080408041	0.029773668413885	1.4925790769870
0.41004100410041	0.029838258568182	1.4998646134401
0.41204120412041	0.029902573931033	1.5071507054371
0.41404140414041	0.029966743433655	1.5144374716649
0.41604160416042	0.030030945822233	1.5217248968266
0.41804180418042	0.030095293535916	1.5290128373109
0.42004200420042	0.030159758813898	1.5363011108965
0.42204220422042	0.030224189921609	1.5435896117019
0.42404240424042	0.030288406464299	1.5508783758988
0.42604260426043	0.030352311800595	1.5581675563022
0.42804280428043	0.030415950234397	1.5654573230775
0.43004300430043	0.030479472953745	1.5727477550839
0.43204320432043	0.030543035628068	1.5800387916319
0.43404340434043	0.030606694087237	1.5873302749217
0.43604360436044	0.030670364956369	1.5946220550650
0.43804380438044	0.030733875846314	1.6019140899360
0.44004400440044	0.030797072295039	1.6092064761892
0.44204420442044	0.030859912913707	1.6164993923711
0.44404440444044	0.030922492557535	1.6237929911456
0.44604460446045	0.030984979791161	1.6310873094371
0.44804480448045	0.031047509378667	1.6383822529549
0.45004500450045	0.031110098325926	1.6456776636929
0.45204520452045	0.031172638020527	1.6529734265108
0.45404540454045	0.031234966189047	1.6602695470704
0.45604560456046	0.031296972204394	1.6675661526821
0.45804580458046	0.031358669394120	1.6748634168998
0.46004600460046	0.031420190211780	1.6821614562310
0.46204620462046	0.031481709336683	1.6894602632530
0.46404640464046	0.031543344234888	1.6967597156537
0.46604660466047	0.031605094614496	1.7040596521353
0.46804680468047	0.031666855178223	1.7113599651783
0.47004700470047	0.031728488644889	1.7186606529373
0.47204720472047	0.031789909070154	1.7259618016230
0.47404740474047	0.031851122169033	1.7332635155872
0.47604760476048	0.031912200410776	1.7405658448483
0.47804780478048	0.031973214672602	1.7478687584711
0.48004800480048	0.032034172040183	1.7551721791444
0.48204820482048	0.032095003185026	1.7624760522428
0.48404840484048	0.032155607621431	1.7697803997136
0.48604860486049	0.032215925064109	1.7770853201740
0.48804880488049	0.032275982986391	1.7843909337940
0.49004900490049	0.032335886335027	1.7916973086598
0.49204920492049	0.032395754493056	1.7990044187300
0.49404940494049	0.032455646749176	1.8063121630330
0.49604960496050	0.032515526374745	1.8136204348549
0.49804980498050	0.032575288599798	1.8209291955196
0.50005000500050	0.032634835355965	1.8282385029467
0.50205020502050	0.032694147584399	1.8355484740633
0.50405040504050	0.032753305773297	1.8428592038620
0.50605060506051	0.032812442068539	1.8501706938570
0.50805080508051	0.032871652098722	1.8574828387589
0.51005100510051	0.032930922524077	1.8647954840709
0.51205120512051	0.032990122651940	1.8721085216817
0.51405140514051	0.033049069379071	1.8794219646960
0.51605160516052	0.033107628618021	1.8867359537127
0.51805180518052	0.033165792546077	1.8940506882014
0.52005200520052	0.033223685841873	1.9013663226721
0.52205220522052	0.033281497125197	1.9086828890247
0.52405240524052	0.033339377129161	1.9160002901644
0.52605260526053	0.033397364386476	1.9233183660544
0.52805280528053	0.033455380654457	1.9306369895750
0.53005300530053	0.033513294171950	1.9379561332259
0.53205320532053	0.033571007304637	1.9452758684929
0.53405340534053	0.033628512271485	1.9525963036271
0.53605360536054	0.033685881825802	1.9599175042239
0.53805380538054	0.033743205247696	1.9672394498864
0.54005400540054	0.033800515368345	1.9745620544710
0.54205420542054	0.033857756940350	1.9818852344108
0.54405440544054	0.033914818113028	1.9892089776922
0.54605460546055	0.033971604242561	1.9965333658736
0.54805480548055	0.034028104777354	2.0038585328589
0.55005500550055	0.034084408081854	2.0111845861524
0.55205520552055	0.034140652932902	2.0185115414499
0.55405540554055	0.034196946766320	2.0258393132467
0.55605560556056	0.034253302537380	2.0331677680973
0.55805580558056	0.034309634136917	2.0404968068221
0.56005600560056	0.034365812564174	2.0478264235819
0.56205620562056	0.034421746167555	2.0551567051536
0.56405640564056	0.034477433483214	2.0624877726821
0.56605660566057	0.034532955933672	2.0698197051410
0.56805680568057	0.034588417370377	2.0771524946645
0.57005700570057	0.034643872010403	2.0844860619482
0.57205720572057	0.034699289159938	2.0918203197369
0.57405740574057	0.034754577934977	2.0991552405884
0.57605760576058	0.034809654805468	2.1064908825399
0.57805780578058	0.034864507907101	2.1138273546220
0.58005800580058	0.034919213842051	2.1211647446042
0.58205820582058	0.034973894009812	2.1285030571511
0.58405840584058	0.035028637810722	2.1358422045572
0.58605860586059	0.035083442733669	2.1431820581451
0.58805880588059	0.035138211292301	2.1505225285122
0.59005900590059	0.035192808317775	2.1578636232858
0.59205920592059	0.035247142949278	2.1652054448584
0.59405940594059	0.035301223355408	2.1725481289130
0.59605960596060	0.035355149482415	2.1798917625436
0.59805980598060	0.035409048794696	2.1872363337422
0.60006000600060	0.035462996280966	2.1945817435948
0.60206020602060	0.035516969417197	2.2019278720975
0.60406040604060	0.035570865412741	2.2092746544589
0.60606060606061	0.035624567420332	2.2166221191479
0.60806080608061	0.035678015169839	2.2239703651053
0.61006100610061	0.035731234020504	2.2313194959399
0.61206120612061	0.035784305327592	2.2386695568047
0.61406140614061	0.035837300842574	2.2460205166415
0.61606160616062	0.035890227992454	2.2533723068198
0.61806180618062	0.035943025161458	2.2607248881228
0.62006200620062	0.035995611590336	2.2680782978728
0.62206220622062	0.036047958255502	2.2754326415428
0.62406240624062	0.036100129885188	2.2827880305402
0.62606260626063	0.036152265551137	2.2901445053183
0.62806280628063	0.036204505288615	2.2975019953807
0.63006300630063	0.036256906856275	2.3048603461003
0.63206320632063	0.036309405644155	2.3122193999632
0.63406340634063	0.036361845264739	2.3195790841552
0.63606360636064	0.036414062363369	2.3269394507912
0.63806380638064	0.036465974816922	2.3343006447650
0.64006400640064	0.036517620052199	2.3416628191177
0.64206420642064	0.036569121496338	2.3490260503195
0.64406440644064	0.036620606238813	2.3563903050636
0.64606460646065	0.036672126947778	2.3637554767129
0.64806480648065	0.036723636865212	2.3711214650556
0.65006500650065	0.036775031334342	2.3784882462017
0.65206520652065	0.036826225969203	2.3858558873668
0.65406540654065	0.036877218384281	2.3932244983999
0.65606560656066	0.036928092206198	2.4005941537507
0.65806580658066	0.036978960821583	2.4079648378166
0.66006600660066	0.037029888393276	2.4153364508597
0.66206620662066	0.037080840835980	2.4227088725168
0.66406640664066	0.037131699870071	2.4300820418287
0.66606660666067	0.037182331982729	2.4374560016659
0.66806680668067	0.037232668279858	2.4448308785456
0.67006700670067	0.037282744265151	2.4522068108035
0.67206720672067	0.037332674901686	2.4595838713084
0.67406740674067	0.037382582407081	2.4669620337118
0.67606760676068	0.037432524395784	2.4743412020523
0.67806780678068	0.037482468519161	2.4817212818476
0.68006800680068	0.037532327985926	2.4891022442060
0.68206820682068	0.037582031559241	2.4964841403754
0.68406840684068	0.037631578991751	2.5038670583520
0.68606860686069	0.037681043343474	2.5112510526962
0.68806880688069	0.037730518127585	2.5186360970911
0.69006900690069	0.037780045286007	2.5260220940502
0.69206920692069	0.037829574017051	2.5334089375132
0.69406940694069	0.037878980803189	2.5407965876443
0.69606960696070	0.037928140404409	2.5481851074619
0.69806980698070	0.037977002944846	2.5555746348611
0.70007000700070	0.038025626756129	2.5629653057167
0.70207020702070	0.038074144423703	2.5703571763656
0.70407040704070	0.038122682639793	2.5777501951427
0.70607060706071	0.038171286744038	2.5851442414684
0.70807080708071	0.038219898189717	2.5925392073764
0.71007100710071	0.038268399062665	2.5999350688112
0.71207120712071	0.038316694310745	2.6073319006410
0.71407140714071	0.038364777868239	2.6147298259486
0.71607160716072	0.038412739413869	2.6221289329590
0.71807180718072	0.038460707222229	2.6295292140158
0.72007200720072	0.038508764182685	2.6369305666064
0.72207220722072	0.038556891431917	2.6443328560538
0.72407240724072	0.038604975936620	2.6517359995329
0.72607260726073	0.038652876782099	2.6591400176190
0.72807280728073	0.038700507161482	2.6665450211733
0.73007300730073	0.038747879729791	2.6739511436201
0.73207320732073	0.038795087897298	2.6813584637015
0.73407340734073	0.038842238023591	2.6887669687164
0.73607360736074	0.038889379227955	2.6961765801994
