#Parameters = {C_1=25.815589753809; C_2=96.34509258857; Conductivity_MoGr=1000000; Ip=99.743779456351; Pipe_lenght=40; Pipe_r=30; beta=1; cells_wave=20; d=-346.34509258857; half_gap_x=4.1844102461909; half_gap_y=30; half_gap_z=125; offset=1.6737640984764; offset_x=1; offset_y=5; sigma_z=5; teta=15; thcoll=25.815589753809; translate_z=-221.34509258857; wakelength=20000}
#"Frequency / GHz"	"Z [Re / Ohm]"	"Z [Im / Ohm]"
#-----------------------------------------------
0.0000000000000	0.093798643585756	-3.2186784823806e-13
0.0020002000200020	0.086989334153438	0.0026369901648533
0.0040004000400040	0.068461952479528	0.012050448256020
0.0060006000600060	0.043287416489051	0.032967296265755
0.0080008000800080	0.018052652515216	0.066741114262363
0.010001000100010	-0.0012018770555416	0.11119410129293
0.012001200120012	-0.010710171742767	0.16161462038203
0.014001400140014	-0.0097989898975918	0.21247365881764
0.016001600160016	-0.00060145921649956	0.25919225321736
0.018001800180018	0.013102585304568	0.29933720821891
0.020002000200020	0.027391209458916	0.33290486559363
0.022002200220022	0.039462427767123	0.36173662294604
0.024002400240024	0.048243881515651	0.38842915038456
0.026002600260026	0.054254647159107	0.41523445653799
0.028002800280028	0.058927964816325	0.44336039345462
0.030003000300030	0.063773695315677	0.47284678392143
0.032003200320032	0.069744908433460	0.50292761774950
0.034003400340034	0.077010784534161	0.53261225218575
0.036003600360036	0.085123297135170	0.56118883324633
0.038003800380038	0.093400801997448	0.58845679833515
0.040004000400040	0.10130043696846	0.61466086810543
0.042004200420042	0.10861348272202	0.64023969211101
0.044004400440044	0.11544170524220	0.66555901006606
0.046004600460046	0.12202744438138	0.69076307360571
0.048004800480048	0.12856315159664	0.71578615225396
0.050005000500050	0.13508477270672	0.74047489614706
0.052005200520052	0.14148435087015	0.76472713432055
0.054005400540054	0.14760561440637	0.78856644020987
0.056005600560056	0.15334960968351	0.81212498730844
0.058005800580058	0.15872771195407	0.83556376450211
0.060006000600060	0.16384164441175	0.85898826222486
0.062006200620062	0.16881527658156	0.88240894651956
0.064006400640064	0.17372567262270	0.90576123379372
0.066006600660066	0.17857269438802	0.92896320476721
0.068006800680068	0.18329754545418	0.95197167245919
0.070007000700070	0.18783089280937	0.97480506980992
0.072007200720072	0.19213763590597	0.99752613741328
0.074007400740074	0.19623304278645	1.0202017870794
0.076007600760076	0.20016596364810	1.0428677980862
0.078007800780078	0.20398488176379	1.0655184960152
0.080008000800080	0.20771015103524	1.0881234389429
0.082008200820082	0.21132837131677	1.1106566423881
0.084008400840084	0.21480907576311	1.1331184884998
0.086008600860086	0.21813032351507	1.1555377581888
0.088008800880088	0.22129618638451	1.1779550556727
0.090009000900090	0.22433627482797	1.2004000887660
0.092009200920092	0.22728963250582	1.2228774570680
0.094009400940094	0.23018455249971	1.2453686376245
0.096009600960096	0.23302694516098	1.2678471058223
0.098009800980098	0.23580318274537	1.2902959552246
0.10001000100010	0.23849387097628	1.3127171759464
0.10201020102010	0.24108883013393	1.3351281470115
0.10401040104010	0.24359405690497	1.3575492189110
0.10601060106011	0.24602749631097	1.3799912142377
0.10801080108011	0.24840772943397	1.4024506276296
0.11001100110011	0.25074357884683	1.4249145935663
0.11201120112011	0.25303113600653	1.4473713514323
0.11401140114011	0.25525934265730	1.4698189515084
0.11601160116012	0.25741975238954	1.4922668002870
0.11801180118012	0.25951388806030	1.5147296820609
0.12001200120012	0.26155373418338	1.5372186616057
0.12201220122012	0.26355561002395	1.5597348311753
0.12401240124012	0.26553177947890	1.5822695558866
0.12601260126013	0.26748516699653	1.6048105013673
0.12801280128013	0.26941012701848	1.6273492104294
0.13001300130013	0.27129818734630	1.6498854402749
0.13201320132013	0.27314471191991	1.6724259470802
0.13401340134013	0.27495226190792	1.6949790855534
0.13601360136014	0.27672891943181	1.7175490676874
0.13801380138014	0.27848317701862	1.7401335586419
0.14001400140014	0.28021901659331	1.7627258225648
0.14201420142014	0.28193435131683	1.7853196219736
0.14401440144014	0.28362358082405	1.8079134651614
0.14601460146015	0.28528231289046	1.8305114847491
0.14801480148015	0.28691106105881	1.8531205918496
0.15001500150015	0.28851560880230	1.8757459554682
0.15201520152015	0.29010401187004	1.8983877795340
0.15401540154015	0.29168234008937	1.9210413207707
0.15601560156016	0.29325190280374	1.9436999092214
0.15801580158016	0.29480956486039	1.9663588658556
0.16001600160016	0.29635069635836	1.9890178142238
0.16201620162016	0.29787268370886	2.0116800947993
0.16401640164016	0.29937674918394	2.0343499226065
0.16601660166017	0.30086708595668	2.0570293029955
0.16801680168017	0.30234810743232	2.0797167077058
0.17001700170017	0.30382175488200	2.1024082255670
0.17201720172017	0.30528662413394	2.1251002533012
0.17401740174017	0.30673937257476	2.1477918601396
0.17601760176018	0.30817736057771	2.1704852908798
0.17801780178018	0.30960074499804	2.1931843681966
0.18001800180018	0.31101269700851	2.2158919232310
0.18201820182018	0.31241769433615	2.2386079436858
0.18401840184018	0.31381906967909	2.2613295743450
0.18601860186019	0.31521739890404	2.2840528606749
0.18801880188019	0.31661068094703	2.3067750297055
0.19001900190019	0.31799606483629	2.3294958434482
0.19201920192019	0.31937191724902	2.3522172499511
0.19401940194019	0.32073889502828	2.3749416941969
0.19601960196020	0.32209941951065	2.3976702801165
0.19801980198020	0.32345601910576	2.4204019855099
0.20002000200020	0.32480970621607	2.4431343691430
0.20202020202020	0.32615945808480	2.4658652118470
0.20402040204020	0.32750308917268	2.4885939571756
0.20602060206021	0.32883887959703	2.5113220083108
0.20802080208021	0.33016686305546	2.5340517291105
0.21002100210021	0.33148894994519	2.5567848448870
0.21202120212021	0.33280785132496	2.5795212934705
0.21402140214021	0.33412554052772	2.6022592377004
0.21602160216022	0.33544224692528	2.6249961724805
0.21802180218022	0.33675658305040	2.6477303664319
0.22002200220022	0.33806665030451	2.6704617100968
0.22202220222022	0.33937135507131	2.6931914781264
0.22402240224022	0.34067108200988	2.7159212383724
0.22602260226023	0.34196733934617	2.7386516735904
0.22802280228023	0.34326167964789	2.7613820895411
0.23002300230023	0.34455465243736	2.7841108905776
0.23202320232023	0.34584548237621	2.8068366560796
0.23402340234023	0.34713265647947	2.8295590756438
0.23602360236024	0.34841499952437	2.8522791270264
0.23802380238024	0.34969251475487	2.8749984017426
0.24002400240024	0.35096644831494	2.8977180423211
0.24202420242024	0.35223856013237	2.9204379886745
0.24402440244024	0.35351009607645	2.9431570032144
0.24602460246025	0.35478112587202	2.9658734241207
0.24802480248025	0.35605064534897	2.9885861331084
0.25002500250025	0.35731733262036	3.0112951139472
0.25202520252025	0.35858043575063	3.0340012744280
0.25402540254025	0.35984021529470	3.0567056960954
0.25602560256026	0.36109768578917	3.0794088356450
0.25802580258026	0.36235386977816	3.1021102035708
0.26002600260026	0.36360908480789	3.1248087060338
0.26202620262026	0.36486273680249	3.1475033917981
0.26402640264026	0.36611373951605	3.1701940909564
0.26602660266027	0.36736126323419	3.1928815233277
0.26802680268027	0.36860531034403	3.2155668174362
0.27002700270027	0.36984674543904	3.2382507681078
0.27202720272027	0.37108677472255	3.2609333194882
0.27402740274027	0.37232622556958	3.2836135970920
0.27602760276028	0.37356509180437	3.3062904466527
0.27802780278028	0.37480261962465	3.3289631144048
0.28002800280028	0.37603784963917	3.3516316302653
0.28202820282028	0.37727024217022	3.3742966684070
0.28402840284028	0.37849997918578	3.3969590082673
0.28602860286029	0.37972776734660	3.4196189711426
0.28802880288029	0.38095430073915	3.4422762040147
0.29002900290029	0.38217975723897	3.4649299367125
0.29202920292029	0.38340366400842	3.4875795214172
0.29402940294029	0.38462521111818	3.5102248844693
0.29602960296030	0.38584379390431	3.5328665907997
0.29802980298030	0.38705942077176	3.5555054853364
0.30003000300030	0.38827272177678	3.5781421538859
0.30203020302030	0.38948456110089	3.6007765564824
0.30403040304030	0.39069551301354	3.6234080633256
0.30603060306031	0.39190553973035	3.6460358557732
0.30803080308031	0.39311406643458	3.6686594217196
0.31003100310031	0.39432038505426	3.6912788259129
0.31203120312031	0.39552411013055	3.7138945956369
0.31403140314031	0.39672539003431	3.7365073184451
0.31603160316032	0.39792475028572	3.7591172308500
0.31803180318032	0.39912269193967	3.7817240695528
0.32003200320032	0.40031932352795	3.8043272723563
0.32203220322032	0.40151427199195	3.8269263817121
0.32403240324032	0.40270692512264	3.8495213748767
0.32603260326033	0.40389683730321	3.8721127013593
0.32803280328033	0.40508402715748	3.8947010071487
0.33003300330033	0.40626897351051	3.9172867312467
0.33203320332033	0.40745231792818	3.9398698385387
0.33403340334033	0.40863447226060	3.9624498570369
0.33603360336034	0.40981538456972	3.9850261855550
0.33803380338034	0.41099460555221	4.0075984649178
0.34003400340034	0.41217159833998	4.0301667733545
0.34203420342034	0.41334608012996	4.0527315306427
0.34403440344034	0.41451817317965	4.0752931894482
0.34603460346035	0.41568827703765	4.0978519272523
0.34803480348035	0.41685676034420	4.1204075424860
0.35003500350035	0.41802368541109	4.1429596157736
0.35203520352035	0.41918874953821	4.1655078196646
0.35403540354035	0.42035147774568	4.1880521653836
0.35603560356036	0.42151153418657	4.2105930223968
0.35803580358036	0.42266894422231	4.2331309004151
0.36003600360036	0.42382408248093	4.2556661398011
0.36203620362036	0.42497743844972	4.2781987128220
0.36403640364036	0.42612931545617	4.3007282609433
0.36603660366037	0.42727965734864	4.3232543369463
0.36803680368037	0.42842810820382	4.3457766895344
0.37003700370037	0.42957425605890	4.3682954068573
0.37203720372037	0.43071789474355	4.3908108341400
0.37403740374037	0.43185913322831	4.4133233308370
0.37603760376038	0.43299828872253	4.4358330346716
0.37803780378038	0.43413564428963	4.4583397885979
0.38003800380038	0.43527123820049	4.4808432734285
0.38203820382038	0.43640482583920	4.5033432512124
0.38403840384038	0.43753603661159	4.5258397535340
0.38603860386039	0.43866461849069	4.5483330892299
0.38803880388039	0.43979060708419	4.5708236679123
0.39003900390039	0.44091430890566	4.5933117568933
0.39203920392039	0.44203611228126	4.6157973302012
0.39403940394039	0.44315625105233	4.6382801048021
0.39603960396040	0.44427467333513	4.6607597353270
0.39803980398040	0.44539109488361	4.6832360372225
0.40004000400040	0.44650519452178	4.7057090946020
0.40204020402040	0.44761681890488	4.7281791894085
0.40404040404040	0.44872606329102	4.7506466072083
0.40604060406041	0.44983318151460	4.7731114533074
0.40804080408041	0.45093839251754	4.7955736008851
0.41004100410041	0.45204171683015	4.8180328012788
0.41204120412041	0.45314295251987	4.8404888779713
0.41404140414041	0.45424180460994	4.8629418721233
0.41604160416042	0.45533807970723	4.8853920424244
0.41804180418042	0.45643181596932	4.9078397202510
0.42004200420042	0.45752326335840	4.9302851164749
0.42204220422042	0.45861272876274	4.9527282061780
0.42404240424042	0.45970038831986	4.9751687641392
0.42604260426043	0.46078618799329	4.9976065243322
0.42804280428043	0.46186989282768	5.0200413572151
0.43004300430043	0.46295124708916	5.0424733506290
0.43204320432043	0.46403013703182	5.0649027467785
0.43404340434043	0.46510665043976	5.0873297832440
0.43604360436044	0.46618099868803	5.1097545469468
0.43804380438044	0.46725335877333	5.1321769375479
0.44004400440044	0.46832374388068	5.1545967612153
0.44204420442044	0.46939198909303	5.1770138885517
0.44404440444044	0.47045786030928	5.1994283692793
0.44604460446045	0.47152121240695	5.2218404270199
0.44804480448045	0.47258209128336	5.2442503381410
0.45004500450045	0.47364071301842	5.2666582749334
0.45204520452045	0.47469733500603	5.2890642153794
0.45404540454045	0.47575210396116	5.3114679763301
0.45604560456046	0.47680497863801	5.3338693454760
0.45804580458046	0.47785577388419	5.3562682242614
0.46004600460046	0.47890429255274	5.3786646897116
0.46204620462046	0.47995045595385	5.4010589391174
0.46404640464046	0.48099434779234	5.4234511592744
0.46604660466047	0.48203614643035	5.4458414099615
0.46804680468047	0.48307599487094	5.4682295989177
0.47004700470047	0.48411389771495	5.4906155625635
0.47204720472047	0.48514971418918	5.5129991959743
0.47404740474047	0.48618325093276	5.5353805439262
0.47604760476048	0.48721439182187	5.5577597921560
0.47804780478048	0.48824317842611	5.5801371649634
0.48004800480048	0.48926978843598	5.6025127969616
0.48204820482048	0.49029442707629	5.6248866626857
0.48404840484048	0.49131720301386	5.6472586085348
0.48604860486049	0.49233806872959	5.6696284640351
0.48804880488049	0.49335686142429	5.6919961586337
0.49004900490049	0.49437341424745	5.7143617689040
0.49204920492049	0.49538766298218	5.7367254687919
0.49404940494049	0.49639967891287	5.7590874197485
0.49604960496050	0.49740960945535	5.7814476757572
0.49804980498050	0.49841756959428	5.8038061659732
0.50005000500050	0.49942355857790	5.8261627644151
0.50205020502050	0.50042745770866	5.8485173979488
0.50405040504050	0.50142910995200	5.8708701192158
0.50605060506051	0.50242842758648	5.8932210956138
0.50805080508051	0.50342545621602	5.9155705217428
0.51005100510051	0.50442035316046	5.9379185131638
0.51205120512051	0.50541329500356	5.9602650507610
0.51405140514051	0.50640437509556	5.9826100107760
0.51605160516052	0.50739355703192	6.0049532591318
0.51805180518052	0.50838071213552	6.0272947474612
0.52005200520052	0.50936571358065	6.0496345489876
0.52205220522052	0.51034852381919	6.0719728135240
0.52405240524052	0.51132921841710	6.0943096744095
0.52605260526053	0.51230793304596	6.1166451707285
0.52805280528053	0.51328477152575	6.1389792361484
0.53005300530053	0.51425973766498	6.1613117601531
0.53205320532053	0.51523273640212	6.1836426791278
0.53405340534053	0.51620364277771	6.2059720356365
0.53605360536054	0.51717239214540	6.2282999662752
0.53805380538054	0.51813903152244	6.2506266263611
0.54005400540054	0.51910369836569	6.2729521012946
0.54205420542054	0.52006654114946	6.2952763625323
0.54405440544054	0.52102763393172	6.3175992959911
0.54605460546055	0.52198693994283	6.3399207830043
0.54805480548055	0.52294434601915	6.3622407802794
0.55005500550055	0.52389974304776	6.3845593474805
0.55205520552055	0.52485309835825	6.4068766067843
0.55405540554055	0.52580447299840	6.4291926638058
0.55605560556056	0.52675397459415	6.4515075438079
0.55805580558056	0.52770167939375	6.4738211854683
0.56005600560056	0.52864757680117	6.4961334951778
0.56205620562056	0.52959157365469	6.5184444244045
0.56405640564056	0.53053355512002	6.5407540178584
0.56605660566057	0.53147346140050	6.5630624002168
0.56805680568057	0.53241132942915	6.5853697102494
0.57005700570057	0.53334727233596	6.6076760257624
0.57205720572057	0.53428141066077	6.6299813282401
0.57405740574057	0.53521380055463	6.6522855293485
0.57605760576058	0.53614440527312	6.6745885407499
0.57805780578058	0.53707312699067	6.6968903409539
0.58005800580058	0.53799987624686	6.7191909961414
0.58205820582058	0.53892463245967	6.7414906232022
0.58405840584058	0.53984745621616	6.7637893214642
0.58605860586059	0.54076844699200	6.7860871194094
0.58805880588059	0.54168767625992	6.8083839714917
0.59005900590059	0.54260514161011	6.8306798059996
0.59205920592059	0.54352077261386	6.8529745908361
0.59405940594059	0.54443448416036	6.8752683725991
0.59605960596060	0.54534624139350	6.8975612626451
0.59805980598060	0.54625609298813	6.9198533792481
0.60006000600060	0.54716415080331	6.9421447839025
0.60206020602060	0.54807052940304	6.9644354532438
0.60406040604060	0.54897528495821	6.9867253042060
0.60606060606061	0.54987839270489	7.0090142550446
0.60806080608061	0.55077977615430	7.0313022819622
0.61006100610061	0.55167936722652	7.0535894350096
0.61206120612061	0.55257715690082	7.0758758046240
0.61406140614061	0.55347320341723	7.0981614627906
0.61606160616062	0.55436759402644	7.1204464188935
0.61806180618062	0.55526038720271	7.1427306195350
0.62006200620062	0.55615157468709	7.1650139917048
0.62206220622062	0.55704108881857	7.1872964997267
0.62406240624062	0.55792885006762	7.2095781776113
0.62606260626063	0.55881482294935	7.2318591151837
0.62806280628063	0.55969904322232	7.2541394072256
0.63006300630063	0.56058159855681	7.2764190991873
0.63206320632063	0.56146257562646	7.2986981649221
0.63406340634063	0.56234200834345	7.3209765304536
0.63606360636064	0.56321986058743	7.3432541275279
0.63806380638064	0.56409605359827	7.3655309416800
0.64006400640064	0.56497051884410	7.3878070240306
0.64206420642064	0.56584324109697	7.4100824605803
0.64406440644064	0.56671426390772	7.4323573208523
0.64606460646065	0.56758365528222	7.4546316207284
0.64806480648065	0.56845145784658	7.4769053240190
0.65006500650065	0.56931765763691	7.4991783809332
0.65206520652065	0.57018219264755	7.5214507769476
0.65406540654065	0.57104499544505	7.5437225588782
0.65606560656066	0.57190604143410	7.5659938204074
0.65806580658066	0.57276537077106	7.5882646563254
0.66006600660066	0.57362306949194	7.6105351153436
0.66206620662066	0.57447922228946	7.6328051819871
0.66406640664066	0.57533386768585	7.6550747987033
0.66606660666067	0.57618698421459	7.6773439129745
0.66806680668067	0.57703851539438	7.6996125183496
0.67006700670067	0.57788841583221	7.7218806631095
0.67206720672067	0.57873668749146	7.7441484222330
0.67406740674067	0.57958338255619	7.7664158525575
0.67606760676068	0.58042857206766	7.7886829616140
0.67806780678068	0.58127230230453	7.8109497107603
0.68006800680068	0.58211456863183	7.8332160499173
0.68206820682068	0.58295532441321	7.8554819600833
0.68406840684068	0.58379451890901	7.8777474748221
0.68606860686069	0.58463213875269	7.9000126661664
0.68806880688069	0.58546822533762	7.9222776041201
0.69006900690069	0.58630285650971	7.9445423163664
0.69206920692069	0.58713610452613	7.9668067744647
0.69406940694069	0.58796799760759	7.9890709152155
0.69606960696070	0.58879850965705	8.0113346828363
0.69806980698070	0.58962758389125	8.0335980643708
0.70007000700070	0.59045517392607	8.0558610958387
0.70207020702070	0.59128127492592	8.0781238363792
0.70407040704070	0.59210592472994	8.1003863287204
0.70607060706071	0.59292917525718	8.1226485728582
0.70807080708071	0.59375105425021	8.1449105304060
0.71007100710071	0.59457154348388	8.1671721562677
0.71207120712071	0.59539058820057	8.1894334360550
0.71407140714071	0.59620813151146	8.2116944040292
0.71607160716072	0.59702415091116	8.2339551295156
0.71807180718072	0.59783867280205	8.2562156807215
0.72007200720072	0.59865175562444	8.2784760897372
0.72207220722072	0.59946345292069	8.3007363414782
0.72407240724072	0.60027378063400	8.3229963933230
0.72607260726073	0.60108270976591	8.3452562120396
0.72807280728073	0.60189018850362	8.3675158035500
0.73007300730073	0.60269617854649	8.3897752163467
0.73207320732073	0.60350068142381	8.4120345171326
0.73407340734073	0.60430373778030	8.4342937555925
0.73607360736074	0.60510540090906	8.4565529420103
0.73807380738074	0.60590570292426	8.4788120523962
0.74007400740074	0.60670463655974	8.5010710571671
0.74207420742074	0.60750216484459	8.5233299536930
0.74407440744074	0.60829825212873	8.5455887805817
0.74607460746075	0.60909289568739	8.5678476038740
0.74807480748075	0.60988613680600	8.5901064840203
0.75007500750075	0.61067804385769	8.6123654451913
0.75207520752075	0.61146867831460	8.6346244668092
0.75407540754075	0.61225806564676	8.6568835024952
0.75607560756076	0.61304618954833	8.6791425137237
0.75807580758076	0.61383301237256	8.7014014962025
