#Parameters = {C_1=27.534904321902; C_2=110.43646926102; Conductivity=10000; Conductivity_MoGr=1000000; Ip=113.81733039768; Pipe_lenght=40; Pipe_r=30; beta=1; cells_wave=20; conductivity_copper=59500000; d=-360.43646926102; half_gap_x=30; half_gap_y=2.4650956780985; half_gap_z=125; mu_copper=0.999994; offset_x=5; offset_y=1; sigma_z=5; teta=14; thcoll=27.534904321902; translate_z=-235.43646926102; wakelength=20000}
#"Frequency / GHz"	"Z [Re / Ohm]"	"Z [Im / Ohm]"
#-----------------------------------------------
0.0000000000000	-0.088143806486554	-3.2271705640917e-13
0.0020002000200020	-0.082911920781018	0.056195900921598
0.0040004000400040	-0.068514720061230	0.10766806589055
0.0060006000600060	-0.048419257608999	0.15108659593029
0.0080008000800080	-0.027137623919741	0.18541663543632
0.010001000100010	-0.0088258886695062	0.21202822731849
0.012001200120012	0.0038904607806923	0.23402159980158
0.014001400140014	0.010474127148295	0.25506410905401
0.016001600160016	0.012284206211315	0.27819204160089
0.018001800180018	0.011791873904944	0.30499979532823
0.020002000200020	0.011561932257443	0.33544734785631
0.022002200220022	0.013398766022334	0.36825642037770
0.024002400240024	0.017934708946568	0.40164913442234
0.026002600260026	0.024725567354482	0.43409326240108
0.028002800280028	0.032711597098886	0.46477555610032
0.030003000300030	0.040786886927449	0.49368437012557
0.032003200320032	0.048229897451541	0.52136242671003
0.034003400340034	0.054857996434566	0.54851100564818
0.036003600360036	0.060914536833151	0.57564699210530
0.038003800380038	0.066808542721107	0.60294387062505
0.040004000400040	0.072861823348418	0.63027540612216
0.042004200420042	0.079176093637734	0.65738523078312
0.044004400440044	0.085648620628768	0.68406707645506
0.046004600460046	0.092087050328838	0.71026489509156
0.048004800480048	0.098338143303550	0.73606448057281
0.050005000500050	0.10435960198860	0.76160998608435
0.052005200520052	0.11021100360258	0.78700939548004
0.054005400540054	0.11598844045939	0.81228367319206
0.056005600560056	0.12175237128590	0.83737822316037
0.058005800580058	0.12749121254099	0.86221691766904
0.060006000600060	0.13313449434351	0.88675925212167
0.062006200620062	0.13859877292476	0.91102715110392
0.064006400640064	0.14383408769076	0.93509143396244
0.066006600660066	0.14884429156070	0.95903269931837
0.068006800680068	0.15367420596151	0.98290334735133
0.070007000700070	0.15837673816811	1.0067121319492
0.072007200720072	0.16298230396982	1.0304360006232
0.074007400740074	0.16748770696666	1.0540474273684
0.076007600760076	0.17186738208801	1.0775384684101
0.078007800780078	0.17609630618710	1.1009278658036
0.080008000800080	0.18016872915640	1.1242498236291
0.082008200820082	0.18410189963255	1.1475342736843
0.084008400840084	0.18792466527594	1.1707921024032
0.086008600860086	0.19166004327360	1.1940138618527
0.088008800880088	0.19531330271742	1.2171811028143
0.090009000900090	0.19887224436301	1.2402818724283
0.092009200920092	0.20231809582366	1.2633204339032
0.094009400940094	0.20563918163103	1.2863159904409
0.096009600960096	0.20883879705631	1.3092924912854
0.098009800980098	0.21193326427154	1.3322667371436
0.10001000100010	0.21494257877359	1.3552421407217
0.10201020102010	0.21788023885183	1.3782111582145
0.10401040104010	0.22074851933000	1.4011637617666
0.10601060106011	0.22354134016060	1.4240959631956
0.10801080108011	0.22625194333081	1.4470131096910
0.11001100110011	0.22887994813568	1.4699265485560
0.11201120112011	0.23143337141014	1.4928465592842
0.11401140114011	0.23392484471719	1.5157764769483
0.11601160116012	0.23636499641126	1.5387116720615
0.11801180118012	0.23875746614511	1.5616436330905
0.12001200120012	0.24109857833902	1.5845661626708
0.12201220122012	0.24338150739435	1.6074796413773
0.12401240124012	0.24560197850852	1.6303908799638
0.12601260126013	0.24776186071448	1.6533090464609
0.12801280128013	0.24986865226250	1.6762405409205
0.13001300130013	0.25193159113568	1.6991860671374
0.13201320132013	0.25395714202466	1.7221414708374
0.13401340134013	0.25594672390677	1.7451014161481
0.13601360136014	0.25789785572568	1.7680632917597
0.13801380138014	0.25980763204825	1.7910288511797
0.14001400140014	0.26167606949419	1.8140027643870
0.14201420142014	0.26350717057108	1.8369893001818
0.14401440144014	0.26530719568134	1.8599894503720
0.14601460146015	0.26708146460577	1.8830003396104
0.14801480148015	0.26883185256507	1.9060171621795
0.15001500150015	0.27055654810392	1.9290362549831
0.15201520152015	0.27225209214615	1.9520572897159
0.15401540154015	0.27391627243953	1.9750832655679
0.15601560156016	0.27555001129696	1.9981184639838
0.15801580158016	0.27715715619285	2.0211657941630
0.16001600160016	0.27874248304941	2.0442252277241
0.16201620162016	0.28030931837798	2.0672941988393
0.16401640164016	0.28185830883584	2.0903695352722
0.16601660166017	0.28338801199270	2.1134495532840
0.16801680168017	0.28489676636575	2.1365349579793
0.17001700170017	0.28638452171008	2.1596280644104
0.17201720172017	0.28785343494536	2.1827309735608
0.17401740174017	0.28930691877220	2.2058439694488
0.17601760176018	0.29074785261618	2.2289651790920
0.17801780178018	0.29217716520829	2.2520916575888
0.18001800180018	0.29359368960414	2.2752211322717
0.18201820182018	0.29499532444814	2.2983532598487
0.18401840184018	0.29638069963866	2.3214896265741
0.18601860186019	0.29775027193887	2.3446325657591
0.18801880188019	0.29910620475834	2.3677836108058
0.19001900190019	0.30045119814258	2.3909425775894
0.19201920192019	0.30178708772043	2.4141078019039
0.19401940194019	0.30311411877511	2.4372772861332
0.19601960196020	0.30443130464991	2.4604499468331
0.19801980198020	0.30573755292793	2.4836261478227
0.20002000200020	0.30703276818863	2.5068072208245
0.20202020202020	0.30831820567070	2.5299943524130
0.20402040204020	0.30959588079000	2.5531876070219
0.20602060206021	0.31086746576757	2.5763857259670
0.20802080208021	0.31213341738090	2.5995868055763
0.21002100210021	0.31339289506031	2.6227893823739
0.21202120212021	0.31464449248693	2.6459932124797
0.21402140214021	0.31588728262710	2.6691992628141
0.21602160216022	0.31712150139165	2.6924089596262
0.21802180218022	0.31834846204991	2.7156232101340
0.22002200220022	0.31956980556439	2.7388418270765
0.22202220222022	0.32078660823632	2.7620636903496
0.22402240224022	0.32199892570685	2.7852874875691
0.22602260226023	0.32320603466461	2.8085125138380
0.22802280228023	0.32440716625294	2.8317390055813
0.23002300230023	0.32560221781588	2.8549678176749
0.23202320232023	0.32679197213733	2.8781996927101
0.23402340234023	0.32797769961294	2.9014346260605
0.23602360236024	0.32916042895596	2.9246717448881
0.23802380238024	0.33034037706335	2.9479097656951
0.24002400240024	0.33151690566472	2.9711477155888
0.24202420242024	0.33268901661050	2.9943854439152
0.24402440244024	0.33385605008859	3.0176236054310
0.24602460246025	0.33501813482170	3.0408631491926
0.24802480248025	0.33617611963498	3.0641046616003
0.25002500250025	0.33733106113771	3.0873479868759
0.25202520252025	0.33848362188105	3.1105923471698
0.25402540254025	0.33963377020892	3.1338368510032
0.25602560256026	0.34078095554915	3.1570810347222
0.25802580258026	0.34192461437059	3.1803250804093
0.26002600260026	0.34306465385137	3.2035695840545
0.26202620262026	0.34420159213682	3.2268150490261
0.26402640264026	0.34533627400660	3.2500614529932
0.26602660266027	0.34646936328794	3.2733081745881
0.26802680268027	0.34760095281080	3.2965543198604
0.27002700270027	0.34873054444783	3.3197992259630
0.27202720272027	0.34985740273434	3.3430428117992
0.27402740274027	0.35098104400540	3.3662855561177
0.27602760276028	0.35210154515426	3.3895281317586
0.27802780278028	0.35321948551543	3.4127709439836
0.28002800280028	0.35433557924974	3.4360138704474
0.28202820282028	0.35545025126018	3.4592563558147
0.28402840284028	0.35656343255089	3.4824977775282
0.28602860286029	0.35767469416807	3.5057378281425
0.28802880288029	0.35878361211584	3.5289766620247
0.29002900290029	0.35989010950466	3.5522147207726
0.29202920292029	0.36099454821641	3.5754523669669
0.29402940294029	0.36209751643207	3.5986895773032
0.29602960296030	0.36319946082879	3.6219258985295
0.29802980298030	0.36430040992144	3.6451606904278
0.30003000300030	0.36539996818821	3.6683934914057
0.30203020302030	0.36649757894526	3.6916242671980
0.30403040304030	0.36759287991211	3.7148533865015
0.30603060306031	0.36868592189696	3.7380813489588
0.30803080308031	0.36977711809395	3.7613084490479
0.31003100310031	0.37086697035289	3.7845345925741
0.31203120312031	0.37195576005065	3.8077593740443
0.31403140314031	0.37304340486264	3.8309823493771
0.31603160316032	0.37412956504350	3.8542033147808
0.31803180318032	0.37521391583759	3.8774224075856
0.32003200320032	0.37629639711638	3.9006399699116
0.32203220322032	0.37737727376912	3.9238562749366
0.32403240324032	0.37845697125597	3.9470713029942
0.32603260326033	0.37953580043477	3.9702847162561
0.32803280328033	0.38061375579008	3.9934960458896
0.33003300330033	0.38169051837577	4.0167049657845
0.33203320332033	0.38276565783645	4.0399114737093
0.33403340334033	0.38383889884240	4.0631158658970
0.33603360336034	0.38491027999692	4.0863185281115
0.33803380338034	0.38598010879016	4.1095196836065
0.34003400340034	0.38704875135262	4.1327192604106
0.34203420342034	0.38811640057463	4.1559169562996
0.34403440344034	0.38918297358114	4.1791124482289
0.34603460346035	0.39024819839483	4.2023056014234
0.34803480348035	0.39131182308960	4.2254965399253
0.35003500350035	0.39237380274775	4.2486855372458
0.35203520352035	0.39343433938423	4.2718728062088
0.35403540354035	0.39449375125175	4.2950583314982
0.35603560356036	0.39555226157972	4.3182418563762
0.35803580358036	0.39660984792816	4.3414230306336
0.36003600360036	0.39766625038835	4.3646016207439
0.36203620362036	0.39872113082038	4.3877776448150
0.36403640364036	0.39977427741582	4.4109513472894
0.36603660366037	0.40082572264253	4.4341230344953
0.36803680368037	0.40187570299607	4.4572928811858
0.37003700370037	0.40292449368984	4.4804608326898
0.37203720372037	0.40397223081718	4.5036266603477
0.37403740374037	0.40501883676107	4.5267901260148
0.37603760376038	0.40606409227263	4.5499511421630
0.37803780378038	0.40710780058546	4.5731098216969
0.38003800380038	0.40814993023439	4.5962663883702
0.38203820382038	0.40919064106777	4.6194210120271
0.38403840384038	0.41023017815095	4.6425736810412
0.38603860386039	0.41126870625085	4.6657241970193
0.38803880388039	0.41230619542658	4.6888722942695
0.39003900390039	0.41334243248126	4.7120178043424
0.39203920392039	0.41437714914885	4.7351607581172
0.39403940394039	0.41541018214955	4.7583013609967
0.39603960396040	0.41644156190917	4.7814398607388
0.39803980398040	0.41747147607889	4.8045763961867
0.40004000400040	0.41850013677334	4.8277109243290
0.40204020402040	0.41952764163902	4.8508432686610
0.40404040404040	0.42055391920984	4.8739732511888
0.40604060406041	0.42157879024516	4.8971008173272
0.40804080408041	0.42260209929556	4.9202260710610
0.41004100410041	0.42362382588405	4.9433491999370
0.41204120412041	0.42464410092208	4.9664703431584
0.41404140414041	0.42566311880893	4.9895894925620
0.41604160416042	0.42668100513660	5.0127064925512
0.41804180418042	0.42769772820658	5.0358211384026
0.42004200420042	0.42871311221304	5.0589333075742
0.42204220422042	0.42972694229699	5.0820430382665
0.42404240424042	0.43073909209390	5.1051505056609
0.42604260426043	0.43174959156096	5.1282559138434
0.42804280428043	0.43275859396455	5.1513593754217
0.43004300430043	0.43376626750512	5.1744608563358
0.43204320432043	0.43477268494543	5.1975602182367
0.43404340434043	0.43577778306719	5.2206573260483
0.43604360436044	0.43678141529982	5.2437521469080
0.43804380438044	0.43778345866897	5.2668447750551
0.44004400440044	0.43878390151939	5.2899353683710
0.44204420442044	0.43978285327502	5.3130240413957
0.44404440444044	0.44078047071423	5.3361107875810
0.44604460446045	0.44177685085573	5.3591954827636
0.44804480448045	0.44277196186140	5.3822779671910
0.45004500450045	0.44376565721616	5.4053581516993
0.45204520452045	0.44475776311366	5.4284360787161
0.45404540454045	0.44574818146723	5.4515118995653
0.45604560456046	0.44673694219554	5.4745857847771
0.45804580458046	0.44772417312876	5.4976578270125
0.46004600460046	0.44871001026716	5.5207279990523
0.46204620462046	0.44969450900077	5.5437961913622
0.46404640464046	0.45067761403273	5.5668623009564
0.46604660466047	0.45165920516228	5.5899263107025
0.46804680468047	0.45263918545338	5.6129883065966
0.47004700470047	0.45361755123404	5.6360484232501
0.47204720472047	0.45459439699716	5.6591067558569
0.47404740474047	0.45556985261064	5.6821632984536
0.47604760476048	0.45654399532188	5.7052179498093
0.47804780478048	0.45751679516436	5.7282705828743
0.48004800480048	0.45848812955272	5.7513211318489
0.48204820482048	0.45945785694899	5.7743696400784
0.48404840484048	0.46042590116524	5.7974162385565
0.48604860486049	0.46139229203001	5.8204610705430
0.48804880488049	0.46235713789937	5.8435042123096
0.49004900490049	0.46332055040413	5.8665456409661
0.49204920492049	0.46428257216602	5.8895852680031
0.49404940494049	0.46524315446811	5.9126230136419
0.49604960496050	0.46620219743402	5.9356588711709
0.49804980498050	0.46715962359779	5.9586929187310
0.50005000500050	0.46811543441092	5.9817252720944
0.50205020502050	0.46906971180865	6.0047560114444
0.50405040504050	0.47002256430849	6.0277851318726
0.50605060506051	0.47097405405673	6.0508125507682
0.50805080508051	0.47192415342618	6.0738381671127
0.51005100510051	0.47287275967086	6.0968619334752
0.51205120512051	0.47381975764353	6.1198838937219
0.51405140514051	0.47476508937945	6.1429041626053
0.51605160516052	0.47570878575009	6.1659228616920
0.51805180518052	0.47665094112342	6.1889400540333
0.52005200520052	0.47759164951202	6.2119557195589
0.52205220522052	0.47853094512746	6.2349697853151
0.52405240524052	0.47946878593443	6.2579821883765
0.52605260526053	0.48040508925599	6.2809929285275
0.52805280528053	0.48133979379700	6.3040020759019
0.53005300530053	0.48227290560921	6.3270097296464
0.53205320532053	0.48320449715140	6.3500159563838
0.53405340534053	0.48413466044434	6.3730207502679
0.53605360536054	0.48506344590037	6.3960240414573
0.53805380538054	0.48599082757456	6.4190257474049
0.54005400540054	0.48691671770203	6.4420258331364
0.54205420542054	0.48784102076108	6.4650243412040
0.54405440544054	0.48876369162962	6.4880213724050
0.54605460546055	0.48968476045656	6.5110170307407
0.54805480548055	0.49060430936194	6.5340113689666
0.55005500550055	0.49152241777623	6.5570043696593
0.55205520552055	0.49243911310141	6.5799959725224
0.55405540554055	0.49335435868593	6.6029861280575
0.55605560556056	0.49426808554895	6.6259748410588
0.55805580558056	0.49518024515361	6.6489621751795
0.56005600560056	0.49609084711216	6.6719482164568
0.56205620562056	0.49699995651444	6.6949330210947
0.56405640564056	0.49790765291941	6.7179165829122
0.56605660566057	0.49881397858758	6.7408988423440
0.56805680568057	0.49971891039863	6.7638797310446
0.57005700570057	0.50062237391479	6.7868592227333
0.57205720572057	0.50152429017220	6.8098373571215
0.57405740574057	0.50242462453603	6.8328142218680
0.57605760576058	0.50332340621377	6.8557899051005
0.57805780578058	0.50422070681529	6.8787644498599
0.58005800580058	0.50511659329828	6.9017378397079
0.58205820582058	0.50601108684533	6.9247100235340
0.58405840584058	0.50690415435759	6.9476809616932
0.58605860586059	0.50779573693910	6.9706506620911
0.58805880588059	0.50868579514495	6.9936191823931
0.59005900590059	0.50957434007613	7.0165865976241
0.59205920592059	0.51046142946056	7.0395529555685
0.59405940594059	0.51134713154744	7.0625182501771
0.59605960596060	0.51223148107374	7.0854824308607
0.59805980598060	0.51311445660602	7.1084454415529
0.60006000600060	0.51399599418222	7.1314072638030
0.60206020602060	0.51487602815763	7.1543679357788
0.60406040604060	0.51575453250112	7.1773275352243
0.60606060606061	0.51663153598693	7.2002861380908
0.60806080608061	0.51750710229596	7.2232437801206
0.61006100610061	0.51838128909974	7.2462004460229
0.61206120612061	0.51925411350977	7.2691560921584
0.61406140614061	0.52012554626534	7.2921106865219
0.61606160616062	0.52099553744921	7.3150642388817
0.61806180618062	0.52186405553667	7.3380168011866
0.62006200620062	0.52273111313025	7.3609684386087
0.62206220622062	0.52359676209382	7.3839191911901
0.62406240624062	0.52446106147756	7.4068690520752
0.62606260626063	0.52532403975666	7.4298179770168
0.62806280628063	0.52618567650621	7.4527659189189
0.63006300630063	0.52704591560269	7.4757128647127
0.63206320632063	0.52790470120336	7.4986588505295
0.63406340634063	0.52876201298952	7.5216039456600
0.63606360636064	0.52961787804828	7.5445482162656
0.63806380638064	0.53047235246714	7.5674916927505
0.64006400640064	0.53132548560688	7.5904343616825
0.64206420642064	0.53217729095197	7.6133761865295
0.64406440644064	0.53302774242497	7.6363171424485
0.64606460646065	0.53387679770162	7.6592572414996
0.64806480648065	0.53472443211400	7.6821965316210
0.65006500650065	0.53557065999475	7.7051350705383
0.65206520652065	0.53641552909654	7.7280728925207
0.65406540654065	0.53725909187901	7.7510099904936
0.65606560656066	0.53810137285841	7.7739463255649
0.65806580658066	0.53894235371327	7.7968818577577
0.66006600660066	0.53978198594141	7.8198165777713
0.66206620662066	0.54062022269890	7.8427505191029
0.66406640664066	0.54145704901230	7.8656837429745
0.66606660666067	0.54229249098995	7.8886163063390
0.66806680668067	0.54312659872215	7.9115482340365
0.67006700670067	0.54395941485852	7.9344795129218
0.67206720672067	0.54479094984846	7.9574101109367
0.67406740674067	0.54562117987067	7.9803400076220
0.67606760676068	0.54645006804218	8.0032692154123
0.67806780678068	0.54727759403696	8.0261977776444
0.68006800680068	0.54810377193001	8.0491257450642
0.68206820682068	0.54892864425863	8.0720531469329
0.68406840684068	0.54975225634449	8.0949799763113
0.68606860686069	0.55057462806287	8.1179061994619
0.68806880688069	0.55139574183367	8.1408317832271
0.69006900690069	0.55221555478340	8.1637567224082
0.69206920692069	0.55303402706037	8.1866810493111
0.69406940694069	0.55385114783782	8.2096048194942
0.69606960696070	0.55466694233092	8.2325280833699
0.69806980698070	0.55548145587243	8.2554508623032
0.70007000700070	0.55629472612320	8.2783731444599
0.70207020702070	0.55710676194358	8.3012949023317
0.70407040704070	0.55791754254807	8.3242161195667
0.70607060706071	0.55872703679254	8.3471368089404
0.70807080708071	0.55953522906569	8.3700570096126
0.71007100710071	0.56034213410596	8.3929767658907
0.71207120712071	0.56114779073948	8.4158961020836
0.71407140714071	0.56195223874649	8.4388150105062
0.71607160716072	0.56275549433089	8.4617334608090
0.71807180718072	0.56355754052071	8.4846514245922
0.72007200720072	0.56435833889083	8.5075688991693
0.72207220722072	0.56515785493843	8.5304859150283
0.72407240724072	0.56595608059690	8.5534025223516
0.72607260726073	0.56675303950033	8.5763187656830
0.72807280728073	0.56754877212647	8.5992346633317
0.73007300730073	0.56834331111705	8.6221502046314
0.73207320732073	0.56913666320948	8.6450653661324
0.73407340734073	0.56992880941727	8.6679801353503
0.73607360736074	0.57071972272950	8.6908945259873
0.73807380738074	0.57150939095241	8.7138085745926
0.74007400740074	0.57229782912508	8.7367223212272
0.74207420742074	0.57308507312711	8.7596357873513
0.74407440744074	0.57387115878002	8.7825489659215
0.74607460746075	0.57465610038808	8.8054618304269
0.74807480748075	0.57543988301014	8.8283743569716
0.75007500750075	0.57622247357088	8.8512865449081
0.75207520752075	0.57700384351104	8.8741984225980
0.75407540754075	0.57778398820361	8.8971100347437
0.75607560756076	0.57856293069542	8.9200214198150
