#Parameters = {C_1=24.92455081603; C_2=93.019690001257; Conductivity=10000000; Conductivity_Mo=17900000; Conductivity_MoGr=1000000; Ip=96.301069367431; Pipe_lenght=40; Pipe_r=30; beta=1; cells_wave=20; conductivity_copper=59500000; d=-393.01969000126; half_gap_x=5.0754491839698; half_gap_y=30; half_gap_z=150; mu_copper=0.999994; offset=2.0301796735879; offset_x=1; offset_y=5; sigma_z=5; teta=15; thcoll=24.92455081603; translate_z=-243.01969000126; wakelength=20000}
#"Frequency / GHz"	"Z [Re / Ohm]"	"Z [Im / Ohm]"
#-----------------------------------------------
0.0000000000000	-0.026599050102953	-8.0564778958487e-13
0.0020002000200020	-0.024522945795029	0.032154796612229
0.0040004000400040	-0.018821430071023	0.062399914530691
0.0060006000600060	-0.010900968900804	0.089391568745437
0.0080008000800080	-0.0025914570038542	0.11271771256552
0.010001000100010	0.0044226965456833	0.13294252666394
0.012001200120012	0.0090794898611521	0.15133230579463
0.014001400140014	0.011165692550446	0.16938303677350
0.016001600160016	0.011238860526931	0.18833371406339
0.018001800180018	0.010308710497691	0.20883698395893
0.020002000200020	0.0094233925608953	0.23088089914628
0.022002200220022	0.0093225226932850	0.25394977355863
0.024002400240024	0.010269883827436	0.27732415384985
0.026002600260026	0.012092098896721	0.30038348936090
0.028002800280028	0.014365729546532	0.32279838291797
0.030003000300030	0.016648404341125	0.34456417808000
0.032003200320032	0.018653557000152	0.36590059748859
0.034003400340034	0.020313071998826	0.38709106617335
0.036003600360036	0.021731320549744	0.40834353610001
0.038003800380038	0.023079369107222	0.42972604936823
0.040004000400040	0.024492256196313	0.45118463449623
0.042004200420042	0.026015064552350	0.47261232414405
0.044004400440044	0.027609357081429	0.49392245483589
0.046004600460046	0.029199905784829	0.51508937453095
0.048004800480048	0.030727049042287	0.53614503644250
0.050005000500050	0.032175895437103	0.55714506748624
0.052005200520052	0.033572633522714	0.57813035931538
0.054005400540054	0.034957959552123	0.59910642913375
0.056005600560056	0.036357755891754	0.62004811875404
0.058005800580058	0.037768312365782	0.64092159886176
0.060006000600060	0.039161707691627	0.66170763549156
0.062006200620062	0.040504511192123	0.68241250668151
0.064006400640064	0.041776703085353	0.70306250923525
0.066006600660066	0.042979968049243	0.72368806095495
0.068006800680068	0.044132498752907	0.74430826452905
0.070007000700070	0.045255654283274	0.76492462943762
0.072007200720072	0.046361557879057	0.78552588183302
0.074007400740074	0.047448602388785	0.80609906314902
0.076007600760076	0.048506037598297	0.82663928766263
0.078007800780078	0.049523284708327	0.84715260767063
0.080008000800080	0.050497537588964	0.86765143910916
0.082008200820082	0.051435260767397	0.88814654697121
0.084008400840084	0.052347550971185	0.90864106546250
0.086008600860086	0.053243071001669	0.92913000443094
0.088008800880088	0.054123246790272	0.94960487286900
0.090009000900090	0.054982430772451	0.97005996752840
0.092009200920092	0.055812367196321	0.99049628483048
0.094009400940094	0.056607755841266	1.0109209500988
0.096009600960096	0.057369428419269	1.0313430315763
0.098009800980098	0.058103517597711	1.0517686909083
0.10001000100010	0.058817620402206	1.0721986629944
0.10201020102010	0.059516654121158	1.0926292773945
0.10401040104010	0.060200953047754	1.1130559301424
0.10601060106011	0.060867467194527	1.1334765539041
0.10801080108011	0.061512909383948	1.1538929379534
0.11001100110011	0.062136627735062	1.1743093406986
0.11201120112011	0.062741408302498	1.1947295927909
0.11401140114011	0.063331909121271	1.2151547065177
0.11601160116012	0.063911951277695	1.2355824811343
0.11801180118012	0.064482495757492	1.2560091902634
0.12001200120012	0.065041534883987	1.2764321178845
0.12201220122012	0.065585816232979	1.2968512868091
0.12401240124012	0.066113179865044	1.3172693743304
0.12601260126013	0.066624018031087	1.3376900266868
0.12801280128013	0.067121047740544	1.3581157560497
0.13001300130013	0.067607707402996	1.3785467487325
0.13201320132013	0.068086309789210	1.3989812180907
0.13401340134013	0.068557120802077	1.4194169121267
0.13601360136014	0.069018836486229	1.4398527039838
0.13801380138014	0.069470003600940	1.4602892487740
0.14001400140014	0.069910374959048	1.4807283807945
0.14201420142014	0.070341325350426	1.5011717593829
0.14401440144014	0.070765132098984	1.5216197101653
0.14601460146015	0.071183670711945	1.5420710071071
0.14801480148015	0.071597411742770	1.5625236799199
0.15001500150015	0.072005349542678	1.5829762671853
0.15201520152015	0.072405855162129	1.6034286900366
0.15401540154015	0.072797858726836	1.6238822184339
0.15601560156016	0.073181599617187	1.6443386126871
0.15801580158016	0.073558510340310	1.6647990364833
0.16001600160016	0.073930377740289	1.6852634360147
0.16201620162016	0.074298368463044	1.7057307315577
0.16401640164016	0.074662543450259	1.7261996270599
0.16601660166017	0.075022124923616	1.7466694674860
0.16801680168017	0.075376278058633	1.7671405894319
0.17001700170017	0.075724857879063	1.7876139790621
0.17201720172017	0.076068634921868	1.8080905120941
0.17401740174017	0.076408884269317	1.8285703023605
0.17601760176018	0.076746642794881	1.8490525815671
0.17801780178018	0.077082136367689	1.8695361636119
0.18001800180018	0.077414740646982	1.8900201663328
0.18201820182018	0.077743475905060	1.9105045162707
0.18401840184018	0.078067694911583	1.9309899276740
0.18601860186019	0.078387520328286	1.9514773997671
0.18801880188019	0.078703774847080	1.9719675789560
0.19001900190019	0.079017485724861	1.9924603949080
0.19201920192019	0.079329309417549	2.0129551769099
0.19401940194019	0.079639247576948	2.0334511362365
0.19601960196020	0.079946811830970	2.0539478744535
0.19801980198020	0.080251494155058	2.0744455855063
0.20002000200020	0.080553211146174	2.0949448411237
0.20202020202020	0.080852428773234	2.1154461283121
0.20402040204020	0.081149900744271	2.1359494605890
0.20602060206021	0.081446210978453	2.1564543194966
0.20802080208021	0.081741430319213	2.1769599542381
0.21002100210021	0.082035109491270	2.1974658320212
0.21202120212021	0.082326602431160	2.2179719425265
0.21402140214021	0.082615501084372	2.2384787669836
0.21602160216022	0.082901901384441	2.2589869463593
0.21802180218022	0.083186342152095	2.2794968736221
0.22002200220022	0.083469475850299	2.3000084710477
0.22202220222022	0.083751697597830	2.3205212800705
0.22402240224022	0.084032971454244	2.3410347834108
0.22602260226023	0.084312951077082	2.3615487350270
0.22802280228023	0.084591295456334	2.3820632824068
0.23002300230023	0.084867959434968	2.4025788136610
0.23202320232023	0.085143267415575	2.4230956455778
0.23402340234023	0.085417730552136	2.4436137672310
0.23602360236024	0.085691737854818	2.4641328073660
0.23802380238024	0.085965328577073	2.4846522400402
0.24002400240024	0.086238191594074	2.5051716869949
0.24202420242024	0.086509883929160	2.5256911184748
0.24402440244024	0.086780119362849	2.5462108287710
0.24602460246025	0.087048940156615	2.5667312138746
0.24802480248025	0.087316669993576	2.5872525045497
0.25002500250025	0.087583692979277	2.6077746282796
0.25202520252025	0.087850213566311	2.6282972800293
0.25402540254025	0.088116155694055	2.6488201410666
0.25602560256026	0.088381259221742	2.6693430912405
0.25802580258026	0.088645298233557	2.6898662723626
0.26002600260026	0.088908268061262	2.7103899657928
0.26202620262026	0.089170414496528	2.7309143728247
0.26402640264026	0.089432087994821	2.7514394486931
0.26602660266027	0.089693522643184	2.7719649014917
0.26802680268027	0.089954687236300	2.7924903556660
0.27002700270027	0.090215305220413	2.8130155717271
0.27202720272027	0.090475028046410	2.8335405798981
0.27402740274027	0.090733647902458	2.8540656450724
0.27602760276028	0.090991214613498	2.8745910915351
0.27802780278028	0.091247988345717	2.8951171042407
0.28002800280028	0.091504267891301	2.9156436327547
0.28202820282028	0.091760211818702	2.9361704514662
0.28402840284028	0.092015767692742	2.9566973260018
0.28602860286029	0.092270747800775	2.9772241696670
0.28802880288029	0.092524991681007	2.9977510866499
0.29002900290029	0.092778501298451	3.0182782787571
0.29202920292029	0.093031457836978	3.0388058843153
0.29402940294029	0.093284111420457	3.0593338607813
0.29602960296030	0.093536620230275	3.0798619901775
0.29802980298030	0.093788947318642	3.1003900027684
0.30003000300030	0.094040882809734	3.1209177362941
0.30203020302030	0.094292175247084	3.1414452266737
0.30403040304030	0.094542685152788	3.1619726736069
0.30603060306031	0.094792462276331	3.1825003074149
0.30803080308031	0.095041701086983	3.2030282463159
0.31003100310031	0.095290609790232	3.2235564356419
0.31203120312031	0.095539282636602	3.2440847030336
0.31403140314031	0.095787658844074	3.2646128861693
0.31603160316032	0.096035590463889	3.2851409437854
0.31803180318032	0.096282968142857	3.3056689756062
0.32003200320032	0.096529816736527	3.3261971404201
0.32203220322032	0.096776295447489	3.3467255303784
0.32403240324032	0.097022602727162	3.3672540878639
0.32603260326033	0.097268850066846	3.3877826214598
0.32803280328033	0.097514988771360	3.4083109108404
0.33003300330033	0.097760837813105	3.4288388317272
0.33203320332033	0.098006193885091	3.4493664198961
0.33403340334033	0.098250951649201	3.4698938343902
0.33603360336034	0.098495157307305	3.4904212462937
0.33803380338034	0.098738963902569	3.5109487266723
0.34003400340034	0.098982521211619	3.5314762052944
0.34203420342034	0.099225874080019	3.5520035233361
0.34403440344034	0.099468934597855	3.5725305414395
0.34603460346035	0.099711542796264	3.5930572301133
0.34803480348035	0.099953572118647	3.6135836839742
0.35003500350035	0.10019500827750	3.6341100536402
0.35203520352035	0.10043595035027	3.6546364435284
0.35403540354035	0.10067653612609	3.6751628446382
0.35603560356036	0.10091684379662	3.6956891459673
0.35803580358036	0.10115683618550	3.7162152147732
0.36003600360036	0.10139638362344	3.7367409905364
0.36203620362036	0.10163534853952	3.7572665299004
0.36403640364036	0.10187367444555	3.7777919739169
0.36603660366037	0.10211142061334	3.7983174609944
0.36803680368037	0.10234872113023	3.8188430441117
0.37003700370037	0.10258569744627	3.8393686664031
0.37203720372037	0.10282238333165	3.8598942091961
0.37403740374037	0.10305871122946	3.8804195783508
0.37603760376038	0.10329456697658	3.9009447704583
0.37803780378038	0.10352987438855	3.9214698754369
0.38003800380038	0.10376465242056	3.9419950154471
0.38203820382038	0.10399900725817	3.9625202623201
0.38403840384038	0.10423306579265	3.9830455890037
0.38603860386039	0.10446689565827	4.0035708867137
0.38803880388039	0.10470046494200	4.0240960352772
0.39003900390039	0.10493366723027	4.0446209792723
0.39203920392039	0.10516639392703	4.0651457598848
0.39403940394039	0.10539860506586	4.0856704828906
0.39603960396040	0.10563035215273	4.1061952458657
0.39803980398040	0.10586173960301	4.1267200740376
0.40004000400040	0.10609285245339	4.1472449070627
0.40204020402040	0.10632369972432	4.1677696439863
0.40404040404040	0.10655421116359	4.1882942145582
0.40604060406041	0.10678428849675	4.2088186280665
0.40804080408041	0.10701387565572	4.2293429667657
0.41004100410041	0.10724300011678	4.2498673286495
0.41204120412041	0.10747175728973	4.2703917582913
0.41404140414041	0.10770024816534	4.2909162122375
0.41604160416042	0.10792851149951	4.3114405821952
0.41804180418042	0.10815649515262	4.3319647608981
0.42004200420042	0.10838408509612	4.3524887076201
0.42204220422042	0.10861117266435	4.3730124711037
0.42404240424042	0.10883771610668	4.3935361561366
0.42604260426043	0.10906375722889	4.4140598569210
0.42804280428043	0.10928938416456	4.4345836012658
0.43004300430043	0.10951466664854	4.4551073411954
0.43204320432043	0.10973960723544	4.4756309940195
0.43404340434043	0.10996413989381	4.4961545046190
0.43604360436044	0.11018817505339	4.5166778866879
0.43804380438044	0.11041165932135	4.5372012159685
0.44004400440044	0.11063460917075	4.5577245813681
0.44204420442044	0.11085709634416	4.5782480279379
0.44404440444044	0.11107919561366	4.5987715304854
0.44604460446045	0.11130093068208	4.6192950153454
0.44804480448045	0.11152225476455	4.6398184151979
0.45004500450045	0.11174307864464	4.6603417198186
0.45204520452045	0.11196332701320	4.6808649887917
0.45404540454045	0.11218298515242	4.7013883180582
0.45604560456046	0.11240210487160	4.7219117831910
0.45804580458046	0.11262076619334	4.7424353976619
0.46004600460046	0.11283902096812	4.7629591140426
0.46204620462046	0.11305685658641	4.7834828671597
0.46404640464046	0.11327420442676	4.8040066301316
0.46604660466047	0.11349098780510	4.8245304456039
0.46804680468047	0.11370717796860	4.8450544109097
0.47004700470047	0.11392282133946	4.8655786262346
0.47204720472047	0.11413802008913	4.8861031390220
0.47404740474047	0.11435287851670	4.9066279200057
0.47604760476048	0.11456744946779	4.9271528853600
0.47804780478048	0.11478171415064	4.9476779495865
0.48004800480048	0.11499560621791	4.9682030746411
0.48204820482048	0.11520906212973	4.9887282846950
0.48404840484048	0.11542206372310	5.0092536396056
0.48604860486049	0.11563464575250	5.0297791875187
0.48804880488049	0.11584686576603	5.0503049298351
0.49004900490049	0.11605875917343	5.0708308219437
0.49204920492049	0.11627031166758	5.0913568078345
0.49404940494049	0.11648146837038	5.1118828632814
0.49604960496050	0.11669217325869	5.1324090165824
0.49804980498050	0.11690241118277	5.1529353314586
0.50005000500050	0.11711222261309	5.1734618629421
0.50205020502050	0.11732167949972	5.1939886160570
0.50405040504050	0.11753083702212	5.2145155359776
0.50605060506051	0.11773969275836	5.2350425377761
0.50805080508051	0.11794818059277	5.2555695575882
0.51005100510051	0.11815620425207	5.2760965925501
0.51205120512051	0.11836368952354	5.2966237038311
0.51405140514051	0.11857062208053	5.3171509809335
0.51605160516052	0.11877704731193	5.3376784903776
0.51805180518052	0.11898303331315	5.3582062415799
0.52005200520052	0.11918862185157	5.3787341909828
0.52205220522052	0.11939379922512	5.3992622802539
0.52405240524052	0.11959850506969	5.4197904824041
0.52605260526053	0.11980267185113	5.4403188253114
0.52805280528053	0.12000626781473	5.4608473779220
0.53005300530053	0.12020931464259	5.4813762095269
0.53205320532053	0.12041186863696	5.5019053501955
0.53405340534053	0.12061397891673	5.5224347791182
0.53605360536054	0.12081565136676	5.5429644483957
0.53805380538054	0.12101684290625	5.5634943258551
0.54005400540054	0.12121749004153	5.5840244277191
0.54205420542054	0.12141755256420	5.6045548188624
0.54405440544054	0.12161704309309	5.6250855801423
0.54605460546055	0.12181602258007	5.6456167643003
0.54805480548055	0.12201456452886	5.6661483695400
0.55005500550055	0.12221271136855	5.6866803481466
0.55205520552055	0.12241045147572	5.7072126443659
0.55405540554055	0.12260773156802	5.7277452366240
0.55605560556056	0.12280449586489	5.7482781566314
0.55805580558056	0.12300072607876	5.7688114734826
0.56005600560056	0.12319645628251	5.7893452539831
0.56205620562056	0.12339175379106	5.8098795257356
0.56405640564056	0.12358667978879	5.8304142670096
0.56605660566057	0.12378125646835	5.8509494290237
0.56805680568057	0.12397546242089	5.8714849745046
0.57005700570057	0.12416925853720	5.8920209057839
0.57205720572057	0.12436262594262	5.9125572631939
0.57405740574057	0.12455558943444	5.9330940949378
0.57605760576058	0.12474820978822	5.9536314190970
0.57805780578058	0.12494054941200	5.9741692039597
0.58005800580058	0.12513263398372	5.9947073807156
0.58205820582058	0.12532443569544	6.0152458809522
0.58405840584058	0.12551588958833	6.0357846747323
0.58605860586059	0.12570693265194	6.0563237844741
0.58805880588059	0.12589754033224	6.0768632656972
0.59005900590059	0.12608773686342	6.0974031674440
0.59205920592059	0.12627757311737	6.1179434983716
0.59405940594059	0.12646708696439	6.1384842205343
0.59605960596060	0.12665627236923	6.1590252744422
0.59805980598060	0.12684507729993	6.1795666184420
0.60006000600060	0.12703343123211	6.2001082563663
0.60206020602060	0.12722128354210	6.2206502356399
0.60406040604060	0.12740862725544	6.2411926179094
0.60606060606061	0.12759549284930	6.2617354424886
0.60806080608061	0.12778191708510	6.2822787073340
0.61006100610061	0.12796790854495	6.3028223801610
0.61206120612061	0.12815343358064	6.3233664318458
0.61406140614061	0.12833843248097	6.3439108692219
0.61606160616062	0.12852285524728	6.3644557447634
0.61806180618062	0.12870669310759	6.3850011361390
0.62006200620062	0.12888998463311	6.4055471087858
0.62206220622062	0.12907279216559	6.4260936860499
0.62406240624062	0.12925516399483	6.4466408464579
0.62606260626063	0.12943710711923	6.4671885496960
0.62806280628063	0.12961858834125	6.4877367738996
0.63006300630063	0.12979956259751	6.5082855394744
0.63206320632063	0.12998000939545	6.5288349037685
0.63406340634063	0.13015995299859	6.5493849303708
0.63606360636064	0.13033945295007	6.5699356536349
0.63806380638064	0.13051857133840	6.5904870621002
0.64006400640064	0.13069733865677	6.6110391117849
0.64206420642064	0.13087574097026	6.6315917604114
0.64406440644064	0.13105373685952	6.6521449997132
0.64606460646065	0.13123129279456	6.6726988642897
0.64806480648065	0.13140841336329	6.6932534110931
0.65006500650065	0.13158514622685	6.7138086831035
0.65206520652065	0.13176155842994	6.7343646811880
0.65406540654065	0.13193769959899	6.7549213626536
0.65606560656066	0.13211357611054	6.7754786673475
0.65806580658066	0.13228915289465	6.7960365540555
0.66006600660066	0.13246438124175	6.8165950234044
0.66206620662066	0.13263923393592	6.8371541126540
0.66406640664066	0.13281372454246	6.8577138664919
0.66606660666067	0.13298789854749	6.8782743036581
0.66806680668067	0.13316180289551	6.8988354016105
0.67006700670067	0.13333545468306	6.9193971090091
0.67206720672067	0.13350882993730	6.9399593770512
0.67406740674067	0.13368187955476	6.9605221881827
0.67606760676068	0.13385456102817	6.9810855627849
0.67806780678068	0.13402686392754	7.0016495395889
0.68006800680068	0.13419881142653	7.0222141435850
0.68206820682068	0.13437043651470	7.0427793638809
0.68406840684068	0.13454174896046	7.0633451574681
0.68606860686069	0.13471271579789	7.0839114774321
0.68806880688069	0.13488326954945	7.1044783074409
0.69006900690069	0.13505334009658	7.1250456795672
0.69206920692069	0.13522289024057	7.1456136629674
0.69406940694069	0.13539193210593	7.1661823298484
0.69606960696070	0.13556051365616	7.1867517200579
0.69806980698070	0.13572868383562	7.2073218266936
0.70007000700070	0.13589645859279	7.2278926115984
0.70207020702070	0.13606380930451	7.2484640403728
0.70407040704070	0.13623068043920	7.2690361141510
0.70607060706071	0.13639702437623	7.2896088779208
0.70807080708071	0.13656283050721	7.3101824007676
0.71007100710071	0.13672813005326	7.3307567417463
0.71207120712071	0.13689297438197	7.3513319240966
0.71407140714071	0.13705740209858	7.3719079344066
0.71607160716072	0.13722141721763	7.3924847464042
0.71807180718072	0.13738499288031	7.4130623526204
0.72007200720072	0.13754809769405	7.4336407821693
0.72207220722072	0.13771072656535	7.4542200924553
0.72407240724072	0.13787291496952	7.4748003402898
0.72607260726073	0.13803472681530	7.4953815517541
0.72807280728073	0.13819622380785	7.5159637109787
0.73007300730073	0.13835743663780	7.5365467753301
0.73207320732073	0.13851835708623	7.5571307067923
0.73407340734073	0.13867895611577	7.5777154985161
0.73607360736074	0.13883921562804	7.5983011787290
0.73807380738074	0.13899915237263	7.6188877893706
0.74007400740074	0.13915881770103	7.6394753537465
0.74207420742074	0.13931827294653	7.6600638549248
0.74407440744074	0.13947755649629	7.6806532395531
0.74607460746075	0.13963666424625	7.7012434449389
0.74807480748075	0.13979555633775	7.7218344317949
