#Parameters = {C_1=13.8; C_2=51.50230114445; Conductivity_W=18000000; Ip=53.319105611157; Pipe_lenght=40; Pipe_r=30; beta=1; cells_wave=20; conductivity_copper=59500000; d=-151.50230114445; half_gap_x=16.2; half_gap_y=30; half_gap_z=50; mu_copper=0.999994; offset=6.48; offset_x=1; offset_y=5; sigma_z=5; teta=15; thcoll=13.8; translate_z=-101.50230114445; wakelength=20000}
#"Frequency / GHz"	"Z [Re / Ohm]"	"Z [Im / Ohm]"
#-----------------------------------------------
0.0000000000000	0.12724068277705	-9.1000827332623e-14
0.0020002000200020	0.11905998361789	-0.028986783746575
0.0040004000400040	0.096671804172377	-0.050212491854350
0.0060006000600060	0.065825559638079	-0.058232835257205
0.0080008000800080	0.033997612306733	-0.051417665398454
0.010001000100010	0.0080614195109956	-0.032132036422945
0.012001200120012	-0.0076652496950269	-0.0056123258041182
0.014001400140014	-0.012346549152463	0.021969753022656
0.016001600160016	-0.0083079765466481	0.045501289692579
0.018001800180018	0.00026995195016892	0.062277579947585
0.020002000200020	0.0090475312068094	0.072322677625330
0.022002200220022	0.014948134592524	0.077730350702064
0.024002400240024	0.016844413182512	0.081435045925970
0.026002600260026	0.015400686743279	0.085971682428582
0.028002800280028	0.012307237005491	0.092687632771595
0.030003000300030	0.0093340966646974	0.10160452520895
0.032003200320032	0.0076156341299082	0.11182867982830
0.034003400340034	0.0073940960467704	0.12220864133715
0.036003600360036	0.0082078893248319	0.13190475551517
0.038003800380038	0.0093248786532012	0.14065275745414
0.040004000400040	0.010163169899707	0.14869022959457
0.042004200420042	0.010512129004238	0.15647368236509
0.044004400440044	0.010506223755785	0.16437801008751
0.046004600460046	0.010433804246640	0.17252930228679
0.048004800480048	0.010522695361910	0.18081822779520
0.050005000500050	0.010820421595251	0.18903843268193
0.052005200520052	0.011208974835564	0.19704338402270
0.054005400540054	0.011513207090711	0.20483062159436
0.056005600560056	0.011620506757809	0.21252242438078
0.058005800580058	0.011541021564231	0.22027572598782
0.060006000600060	0.011385441985453	0.22818688888920
0.062006200620062	0.011288314547854	0.23624701355321
0.064006400640064	0.011330474384748	0.24436439251295
0.066006600660066	0.011504964728561	0.25242954658512
0.068006800680068	0.011738165375702	0.26037838927098
0.070007000700070	0.011944271811279	0.26821793045725
0.072007200720072	0.012075955667149	0.27600660422584
0.074007400740074	0.012142676249546	0.28380884134419
0.076007600760076	0.012191808993094	0.29165510854826
0.078007800780078	0.012270387729041	0.29953015883490
0.080008000800080	0.012393821586894	0.30739177497093
0.082008200820082	0.012539593024871	0.31520367083062
0.084008400840084	0.012666132633161	0.32296013740772
0.086008600860086	0.012741736256428	0.33068825514782
0.088008800880088	0.012764322454708	0.33842910746847
0.090009000900090	0.012760908248369	0.34621206552109
0.092009200920092	0.012769434882978	0.35403868359960
0.094009400940094	0.012815986421474	0.36188488408276
0.096009600960096	0.012901658287389	0.36971797393969
0.098009800980098	0.013005763627289	0.37751648616148
0.10001000100010	0.013101370179292	0.38528061014348
0.10201020102010	0.013172199504660	0.39302819523537
0.10401040104010	0.013220473142671	0.40078070348266
0.10601060106011	0.013262128948152	0.40854907562603
0.10801080108011	0.013314043593938	0.41632829162600
0.11001100110011	0.013382293602151	0.42410295813970
0.11201120112011	0.013458795231392	0.43185910060225
0.11401140114011	0.013527598938523	0.43959396892175
0.11601160116012	0.013575899801911	0.44731776084875
0.11801180118012	0.013602331691257	0.45504685511945
0.12001200120012	0.013617511175844	0.46279352772167
0.12201220122012	0.013637110444700	0.47055888238329
0.12401240124012	0.013672377578562	0.47833311861887
0.12601260126013	0.013724164896225	0.48610232723276
0.12801280128013	0.013783791333693	0.49385703375518
0.13001300130013	0.013839518791397	0.50159708467919
0.13201320132013	0.013884064936322	0.50933026646914
0.13401340134013	0.013918387997642	0.51706620233806
0.13601360136014	0.013949785455483	0.52480986674206
0.13801380138014	0.013986117418870	0.53255886886321
0.14001400140014	0.014030245867357	0.54030587300186
0.14201420142014	0.014078271496529	0.54804412696634
0.14401440144014	0.014122414520779	0.55577225373566
0.14601460146015	0.014156340783713	0.56349523975103
0.14801480148015	0.014179331420925	0.57122121918992
0.15001500150015	0.014196689435896	0.57895636841584
0.15201520152015	0.014216351756844	0.58670126596818
0.15401540154015	0.014244079098700	0.59445091118614
0.15601560156016	0.014280321171349	0.60219813203655
0.15801580158016	0.014320570610109	0.60993800508314
0.16001600160016	0.014358689448117	0.61767046237361
0.16201620162016	0.014390868508095	0.62539962815204
0.16401640164016	0.014417677050042	0.63313060906894
0.16601660166017	0.014443082412639	0.64086601244514
0.16801680168017	0.014471341919483	0.64860445225602
0.17001700170017	0.014503961628833	0.65634184853178
0.17201720172017	0.014538709110469	0.66407446469533
0.17401740174017	0.014571200303741	0.67180157602435
0.17601760176018	0.014597879353739	0.67952603642582
0.17801780178018	0.014618379404406	0.68725247408689
0.18001800180018	0.014635765924697	0.69498439085170
0.18201820182018	0.014654606720944	0.70272207217446
0.18401840184018	0.014678202950867	0.71046258839182
0.18601860186019	0.014706768713355	0.71820176343844
0.18801880188019	0.014737633414411	0.72593674961967
0.19001900190019	0.014767190448353	0.73366755508760
0.19201920192019	0.014793230021744	0.74139664960646
0.19401940194019	0.014816148646808	0.74912705774235
0.19601960196020	0.014838354752285	0.75686028422365
0.19801980198020	0.014862397125534	0.76459542782854
0.20002000200020	0.014889132369601	0.77232997930918
0.20202020202020	0.014917138358654	0.78006167314783
0.20402040204020	0.014943697941284	0.78779011277821
0.20602060206021	0.014966635402378	0.79551710495443
0.20802080208021	0.014985768155229	0.80324553208176
0.21002100210021	0.015003043779833	0.81097754788333
0.21202120212021	0.015021324248962	0.81871328200194
0.21402140214021	0.015042649340466	0.82645085562466
0.21602160216022	0.015067101597205	0.83418763194827
0.21802180218022	0.015092950841507	0.84192184324837
0.22002200220022	0.015117902777841	0.84965354709815
0.22202220222022	0.015140584082931	0.85738435630219
0.22402240224022	0.015161300857237	0.86511620619549
0.22602260226023	0.015181636098914	0.87285002420707
0.22802280228023	0.015203229435654	0.88058517524567
0.23002300230023	0.015226593454943	0.88831999992562
0.23202320232023	0.015250749952109	0.89605303123038
0.23402340234023	0.015273893080294	0.90378405143339
0.23602360236024	0.015294603999171	0.91151429361843
0.23802380238024	0.015312800627273	0.91924568040837
0.24002400240024	0.015329810849159	0.92697962381101
0.24202420242024	0.015347549512732	0.93471617371095
0.24402440244024	0.015367357712361	0.94245404538504
0.24602460246025	0.015389254481018	0.95019146916933
0.24802480248025	0.015412050950436	0.95792728268390
0.25002500250025	0.015434202594551	0.96566156166005
0.25202520252025	0.015454810151078	0.97339541992884
0.25402540254025	0.015474118640391	0.98113016385320
0.25602560256026	0.015493225771795	0.98886639221834
0.25802580258026	0.015513240742504	0.99660363444196
0.26002600260026	0.015534480550313	1.0043407367073
0.26202620262026	0.015556237744238	1.0120767045843
0.26402640264026	0.015577254306910	1.0198114230024
0.26602660266027	0.015596566472726	1.0275457775643
0.26802680268027	0.015614153557859	1.0352811109148
0.27002700270027	0.015630970902283	1.0430183846848
0.27202720272027	0.015648361441680	1.0507575964084
0.27402740274027	0.015667242174150	1.0584978164057
0.27602760276028	0.015687591021631	1.0662377965795
0.27802780278028	0.015708544169066	1.0739767384959
0.28002800280028	0.015729008160602	1.0817147257394
0.28202820282028	0.015748365703504	1.0894525661957
0.28402840284028	0.015766816187543	1.0971911833804
0.28602860286029	0.015785152950105	1.1049309804317
0.28802880288029	0.015804156474472	1.1126715962336
0.29002900290029	0.015824025706148	1.1204121958979
0.29202920292029	0.015844226147055	1.1281520798524
0.29402940294029	0.015863843757871	1.1358911938162
0.29602960296030	0.015882196906704	1.1436302014692
0.29802980298030	0.015899296290571	1.1513700797218
0.30003000300030	0.015915854173525	1.1591115104326
0.30203020302030	0.015932846642036	1.1668544670237
0.30403040304030	0.015950922007404	1.1745982556272
0.30603060306031	0.015970037373893	1.1823419682406
0.30803080308031	0.015989543675857	1.1900850422269
0.31003100310031	0.016008641848529	1.1978275655481
0.31203120312031	0.016026897708613	1.2055701476593
0.31403140314031	0.016044480562899	1.2133134652902
0.31603160316032	0.016061986446084	1.2210577980073
0.31803180318032	0.016079984819471	1.2288028601308
0.32003200320032	0.016098603106211	1.2365480273572
0.32203220322032	0.016117426077988	1.2442927921128
0.32403240324032	0.016135769354187	1.2520371360863
0.32603260326033	0.016153137165200	1.2597815724490
0.32803280328033	0.016169558101213	1.2675268346447
0.33003300330033	0.016185580404943	1.2752734211498
0.33203320332033	0.016201936200843	1.2830212941444
0.33403340334033	0.016219098615836	1.2907699216746
0.33603360336034	0.016237017708122	1.2985186249145
0.33803380338034	0.016255195492935	1.3062669970190
0.34003400340034	0.016273035526614	1.3140151234880
0.34203420342034	0.016290228261909	1.3217634738767
0.34403440344034	0.016306921184354	1.3295125534874
0.34603460346035	0.016323574383944	1.3372625558988
0.34803480348035	0.016340612657703	1.3450132460737
0.35003500350035	0.016358114823153	1.3527641426433
0.35203520352035	0.016375747792494	1.3605148676096
0.35403540354035	0.016392984421632	1.3682654247404
0.35603560356036	0.016409455180514	1.3760162213562
0.35803580358036	0.016425198780668	1.3837678219062
0.36003600360036	0.016440648444841	1.3915205982081
0.36203620362036	0.016456366939517	1.3992745049463
0.36403640364036	0.016472706346158	1.4070291217831
0.36603660366037	0.016489611991998	1.4147839268598
0.36803680368037	0.016506689508689	1.4225386184332
0.37003700370037	0.016523479781022	1.4302932774006
0.37203720372037	0.016539754549812	1.4380482748937
0.37403740374037	0.016555640162635	1.4458039986768
0.37603760376038	0.016571497436520	1.4535605871201
0.37803780378038	0.016587648680729	1.4613178467740
0.38003800380038	0.016604140457004	1.4690754017805
0.38203820382038	0.016620700856986	1.4768329680836
0.38403840384038	0.016636916568471	1.4845905654290
0.38603860386039	0.016652508582817	1.4923485256912
0.38803880388039	0.016667522582318	1.5001072935747
0.39003900390039	0.016682309689367	1.5078671524123
0.39203920392039	0.016697312873804	1.5156280540772
0.39403940394039	0.016712800331337	1.5233896601680
0.39603960396040	0.016728717604326	1.5311515619407
0.39803980398040	0.016744748059306	1.5389135320868
0.40004000400040	0.016760533579882	1.5466756462224
0.40204020402040	0.016775905565054	1.5544382026649
0.40404040404040	0.016790975798901	1.5622015031052
0.40604060406041	0.016806034498681	1.5699656451545
0.40804080408041	0.016821331708368	1.5777304641148
0.41004100410041	0.016836892727826	1.5854956578744
0.41204120412041	0.016852491201410	1.5932610062365
0.41404140414041	0.016867795615373	1.6010265353698
0.41604160416042	0.016882589449132	1.6087925175717
0.41804180418042	0.016896918248323	1.6165593074770
0.42004200420042	0.016911067508715	1.6243271235291
0.42204220422042	0.016925387781516	1.6320959173597
0.42404240424042	0.016940082523375	1.6398654134494
0.42604260426043	0.016955095425166	1.6476352889654
0.42804280428043	0.016970165534261	1.6554053739184
0.43004300430043	0.016985007655174	1.6631757427231
0.43204320432043	0.016999495900894	1.6709466434104
0.43404340434043	0.017013730939225	1.6787183184857
0.43604360436044	0.017027952184253	1.6864908402659
0.43804380438044	0.017042359659921	1.6942640695436
0.44004400440044	0.017056967941394	1.7020377612742
0.44204420442044	0.017071589864891	1.7098117426543
0.44404440444044	0.017085959118171	1.7175860425248
0.44604460446045	0.017099908345317	1.7253608856744
0.44804480448045	0.017113483990176	1.7331365565452
0.45004500450045	0.017126922673707	1.7409132228650
0.45204520452045	0.017140505941338	1.7486908344847
0.45404540454045	0.017154389207353	1.7564691613923
0.45604560456046	0.017168515224875	1.7642479429932
0.45804580458046	0.017182664581767	1.7720270494432
0.46004600460046	0.017196605298962	1.7798065511777
0.46204620462046	0.017210240609753	1.7875866559974
0.46404640464046	0.017223658881536	1.7953675608723
0.46604660466047	0.017237057247158	1.8031493197889
0.46804680468047	0.017250594730473	1.8109318149203
0.47004700470047	0.017264275656859	1.8187148472745
0.47204720472047	0.017277941398555	1.8264982830980
0.47404740474047	0.017291374708040	1.8342821565091
0.47604760476048	0.017304445907610	1.8420666596444
0.47804780478048	0.017317203461104	1.8498520271731
0.48004800480048	0.017329849478769	1.8576383916332
0.48204820482048	0.017342617073677	1.8654257040406
0.48404840484048	0.017355630211396	1.8732137699368
0.48604860486049	0.017368836278048	1.8810023749493
0.48804880488049	0.017382052059900	1.8887914166224
0.49004900490049	0.017395089070255	1.8965809577797
0.49204920492049	0.017407873769379	1.9043711705387
0.49404940494049	0.017420484546105	1.9121622125482
0.49604960496050	0.017433084691205	1.9199541200481
0.49804980498050	0.017445799944750	1.9277467885036
0.50005000500050	0.017458624609656	1.9355400514191
0.50205020502050	0.017471419227618	1.9433338022908
0.50405040504050	0.017484000582497	1.9511280769144
0.50605060506051	0.017496263313356	1.9589230408671
0.50805080508051	0.017508252202868	1.9667188905674
0.51005100510051	0.017520137725317	1.9745157332269
0.51205120512051	0.017532111536824	1.9823135239576
0.51405140514051	0.017544270536514	1.9901120996843
0.51605160516052	0.017556564089519	1.9979112857695
0.51805180518052	0.017568836126391	2.0057110047362
0.52005200520052	0.017580931345963	2.0135113172225
0.52205220522052	0.017592794077813	2.0213123716657
0.52405240524052	0.017604495588560	2.0291142996380
0.52605260526053	0.017616174785419	2.0369171282257
0.52805280528053	0.017627934972566	2.0447207673623
0.53005300530053	0.017639767357153	2.0525250786752
0.53205320532053	0.017651552607555	2.0603299779205
0.53405340534053	0.017663138794761	2.0681355015047
0.53605360536054	0.017674443179777	2.0759417924595
0.53805380538054	0.017685510077695	2.0837490152009
0.54005400540054	0.017696486778955	2.0915572553250
0.54205420542054	0.017707533783922	2.0993664698055
0.54405440544054	0.017718728247166	2.1071765189985
0.54605460546055	0.017730022761523	2.1149872580189
0.54805480548055	0.017741284155048	2.1227986270557
0.55005500550055	0.017752384307339	2.1306106826058
0.55205520552055	0.017763281990559	2.1384235519003
0.55405540554055	0.017774042597375	2.1462373436186
0.55605560556056	0.017784785171308	2.1540520756909
0.55805580558056	0.017795594569363	2.1618676679045
0.56005600560056	0.017806458823677	2.1696840027330
0.56205620562056	0.017817273731001	2.1775010122219
0.56405640564056	0.017827911158553	2.1853187320318
0.56605660566057	0.017838305119019	2.1931372863286
0.56805680568057	0.017848498325933	2.2009568134931
0.57005700570057	0.017858618596251	2.2087773816112
0.57205720572057	0.017868800892985	2.2165989488629
0.57405740574057	0.017879106079251	2.2244213937767
0.57605760576058	0.017889488631373	2.2322445943823
0.57805780578058	0.017899832531155	2.2400685040188
0.58005800580058	0.017910029728468	2.2478931751566
0.58205820582058	0.017920048600051	2.2557187179323
0.58405840584058	0.017929948018990	2.2635452232402
0.58605860586059	0.017939829805921	2.2713727026409
0.58805880588059	0.017949763317437	2.2792010847526
0.59005900590059	0.017959733646943	2.2870302692759
0.59205920592059	0.017969648168072	2.2948602013328
0.59405940594059	0.017979396684335	2.3026909157988
0.59605960596060	0.017988924789278	2.3105225218812
0.59805980598060	0.017998271658867	2.3183551381447
0.60006000600060	0.018007547465676	2.3261888208198
0.60206020602060	0.018016865555217	2.3340235321400
0.60406040604060	0.018026273881782	2.3418591685956
0.60606060606061	0.018035729840550	2.3496956295622
0.60806080608061	0.018045133381509	2.3575328809411
0.61006100610061	0.018054394930316	2.3653709728924
0.61206120612061	0.018063492577567	2.3732100019067
0.61406140614061	0.018072481374970	2.3810500442802
0.61606160616062	0.018081450223993	2.3888911061563
0.61806180618062	0.018090456716400	2.3967331231694
0.62006200620062	0.018099484320715	2.4045760089833
0.62206220622062	0.018108450647413	2.4124197193858
0.62406240624062	0.018117261056987	2.4202642886403
0.62606260626063	0.018125871727885	2.4281098136881
0.62806280628063	0.018134320316331	2.4359563965938
0.63006300630063	0.018142704090577	2.4438040830931
0.63206320632063	0.018151120114854	2.4516528372564
0.63406340634063	0.018159606645211	2.4595025681123
0.63606360636064	0.018168123387865	2.4673531899488
0.63806380638064	0.018176582134394	2.4752046765184
0.64006400640064	0.018184906184790	2.4830570743922
0.64206420642064	0.018193078786026	2.4909104683928
0.64406440644064	0.018201149193485	2.4987649236964
0.64606460646065	0.018209193825912	2.5066204439058
0.64806480648065	0.018217259862857	2.5144769728011
0.65006500650065	0.018225329778662	2.5223344377666
0.65206520652065	0.018233330692981	2.5301928050485
0.65406540654065	0.018241182173851	2.5380521094212
0.65606560656066	0.018248850519318	2.5459124382050
0.65806580658066	0.018256373433720	2.5537738800291
0.66006600660066	0.018263838810300	2.5616364719466
0.66206620662066	0.018271331600185	2.5695001792919
0.66406640664066	0.018278883413074	2.5773649208437
0.66606660666067	0.018286457104421	2.5852306221623
0.66806680668067	0.018293975151581	2.5930972620454
0.67006700670067	0.018301371905008	2.6009648824509
0.67206720672067	0.018308634796124	2.6088335569484
0.67406740674067	0.018315807876441	2.6167033401235
0.67606760676068	0.018322956703517	2.6245742323000
0.67806780678068	0.018330119304608	2.6324461828904
0.68006800680068	0.018337276736480	2.6403191294053
0.68206820682068	0.018344363121090	2.6481930453054
0.68406840684068	0.018351308374889	2.6560679642352
0.68606860686069	0.018358085039397	2.6639439641844
0.68806880688069	0.018364728031133	2.6718211218734
0.69006900690069	0.018371314212839	2.6796994673099
0.69206920692069	0.018377915210245	2.6875789681263
0.69406940694069	0.018384554255474	2.6954595534975
0.69606960696070	0.018391194735219	2.7033411614828
0.69806980698070	0.018397766929991	2.7112237787162
0.70007000700070	0.018404214401639	2.7191074471005
0.70207020702070	0.018410529144915	2.7269922343908
0.70407040704070	0.018416752847519	2.7348781893372
0.70607060706071	0.018422944577112	2.7427653117038
0.70807080708071	0.018429137495351	2.7506535568749
0.71007100710071	0.018435314070729	2.7585428713089
0.71207120712071	0.018441416453101	2.7664332345200
0.71407140714071	0.018447384974606	2.7743246791523
0.71607160716072	0.018453199009183	2.7822172755356
0.71807180718072	0.018458892995148	2.7901110907964
0.72007200720072	0.018464536999932	2.7980061493632
0.72207220722072	0.018470194596849	2.8059024205743
0.72407240724072	0.018475885516977	2.8137998410676
0.72607260726073	0.018481576976804	2.8216983568322
0.72807280728073	0.018487208413554	2.8295979573112
0.73007300730073	0.018492732457307	2.8374986798053
0.73207320732073	0.018498144803230	2.8454005824458
0.73407340734073	0.018503483685807	2.8533037047329
0.73607360736074	0.018508800272631	2.8612080423844
0.73807380738074	0.018514120620605	2.8691135531326
0.74007400740074	0.018519425127193	2.8770201891319
