#Parameters = {C_1=26.243897880769; C_2=97.94356027968; Conductivity=10000000; Conductivity_Mo=17900000; Conductivity_MoGr=1000000; Ip=101.39863498211; Pipe_lenght=40; Pipe_r=30; beta=1; cells_wave=20; conductivity_copper=59500000; d=-397.94356027968; half_gap_x=3.7561021192308; half_gap_y=30; half_gap_z=150; mu_copper=0.999994; offset=1.5024408476923; offset_x=1; offset_y=5; sigma_z=5; teta=15; thcoll=26.243897880769; translate_z=-247.94356027968; wakelength=20000}
#"Frequency / GHz"	"Z [Re / Ohm]"	"Z [Im / Ohm]"
#-----------------------------------------------
0.0000000000000	0.060610651845809	8.0574419545482e-13
0.0020002000200020	0.055425527677969	0.0018503812201428
0.0040004000400040	0.041259915409727	0.0086942770930881
0.0060006000600060	0.021823130630698	0.024029474538240
0.0080008000800080	0.0019375108447209	0.048891445001423
0.010001000100010	-0.013965949854047	0.081736734681138
0.012001200120012	-0.023108422254761	0.11916899400462
0.014001400140014	-0.024961121666167	0.15718938890535
0.016001600160016	-0.021038016046440	0.19248451569082
0.018001800180018	-0.014051957289315	0.22329791936113
0.020002000200020	-0.0068192738469804	0.24963716532281
0.022002200220022	-0.0013410179050639	0.27284826851226
0.024002400240024	0.0016404508832295	0.29482198669412
0.026002600260026	0.0025399565792722	0.31719284775312
0.028002800280028	0.0024352741713944	0.34083014070549
0.030003000300030	0.0024562899376045	0.36574850888744
0.032003200320032	0.0033231568155727	0.39137281658096
0.034003400340034	0.0051807880598145	0.41696257870420
0.036003600360036	0.0077205143672367	0.44197959523022
0.038003800380038	0.010459935906494	0.46625799573420
0.040004000400040	0.013014669279673	0.48995658425553
0.042004200420042	0.015241070911384	0.51337598378599
0.044004400440044	0.017219320076064	0.53676441042275
0.046004600460046	0.019129891195847	0.56020957925672
0.048004800480048	0.021115036885121	0.58364723745268
0.050005000500050	0.023201372538853	0.60695044837441
0.052005200520052	0.025309342065378	0.63003080763681
0.054005400540054	0.027323146203179	0.65289279814129
0.056005600560056	0.029167962297434	0.67562126505075
0.058005800580058	0.030848775684014	0.69832320989292
0.060006000600060	0.032435977350252	0.72106627033851
0.062006200620062	0.034015788098894	0.74384983902131
0.064006400640064	0.035640114982015	0.76661954819988
0.066006600660066	0.037304491767190	0.78930925895530
0.068006800680068	0.038961674252913	0.81188184792938
0.070007000700070	0.040556776048359	0.83434580873937
0.072007200720072	0.042059942713105	0.85674255569212
0.074007400740074	0.043478140631859	0.87911709911863
0.076007600760076	0.044842939041947	0.90149225363246
0.078007800780078	0.046185777961357	0.92386106580634
0.080008000800080	0.047517744811751	0.94619893392543
0.082008200820082	0.048825487139853	0.96848486984097
0.084008400840084	0.050083386721553	0.99071742853826
0.086008600860086	0.051272220492627	1.0129161494328
0.088008800880088	0.052391907472828	1.0351094366021
0.090009000900090	0.053461159311535	1.0573179647623
0.092009200920092	0.054505734508389	1.0795442920496
0.094009400940094	0.055543719671870	1.1017742838780
0.096009600960096	0.056577044889757	1.1239881139196
0.098009800980098	0.057593551515167	1.1461730877257
0.10001000100010	0.058577023467083	1.1683303869850
0.10201020102010	0.059518098068979	1.1904724958116
0.10401040104010	0.060419329996809	1.2126141360063
0.10601060106011	0.061292099017023	1.2347631466986
0.10801080108011	0.062148356211325	1.2569169793016
0.11001100110011	0.062993042260908	1.2790663133764
0.11201120112011	0.063821917909293	1.3012026782501
0.11401140114011	0.064625629525045	1.3233247902205
0.11601160116012	0.065396819348556	1.3454396690039
0.11801180118012	0.066135480191908	1.3675582711358
0.12001200120012	0.066849304109992	1.3896888533904
0.12201220122012	0.067549206713193	1.4118324137755
0.12401240124012	0.068243204860282	1.4339828724704
0.12601260126013	0.068932562568662	1.4561314681399
0.12801280128013	0.069612352738175	1.4782722813191
0.13001300130013	0.070275645435780	1.5004053931339
0.13201320132013	0.070918364886991	1.5225359937697
0.13401340134013	0.071541736987839	1.5446704394158
0.13601360136014	0.072151062391952	1.5668120618377
0.13801380138014	0.072751985055006	1.5889594126717
0.14001400140014	0.073346899171777	1.6111078264081
0.14201420142014	0.073933808381486	1.6332529917805
0.14401440144014	0.074508184248696	1.6553940483957
0.14601460146015	0.075066404339841	1.6775342279817
0.14801480148015	0.075608444144598	1.6996787814814
0.15001500150015	0.076138139909415	1.7218316863251
0.15201520152015	0.076661002576977	1.7439933002393
0.15401540154015	0.077181114959700	1.7661603769490
0.15601560156016	0.077699111965799	1.7883282687841
0.15801580158016	0.078212413729456	1.8104937806374
0.16001600160016	0.078717376962537	1.8326568511710
0.16201620162016	0.079211852823795	1.8548201215476
0.16401640164016	0.079696509487537	1.8769868604994
0.16601660166017	0.080174197098914	1.8991587155594
0.16801680168017	0.080647939201563	1.9213347496360
0.17001700170017	0.081118968769190	1.9435122822197
0.17201720172017	0.081586092006950	1.9656888523324
0.17401740174017	0.082046714785022	1.9878639419570
0.17601760176018	0.082498767804929	2.0100393412049
0.17801780178018	0.082942230650118	2.0322179823002
0.18001800180018	0.083379287589825	2.0544020667747
0.18201820182018	0.083813080297088	2.0765917176205
0.18401840184018	0.084245920314702	2.0987849827438
0.18601860186019	0.084678115881338	2.1209791082804
0.18801880188019	0.085108105885619	2.1431722013776
0.19001900190019	0.085533720784529	2.1653642145329
0.19201920192019	0.085953689442959	2.1875566878508
0.19401940194019	0.086368418136316	2.2097515152288
0.19601960196020	0.086779603304499	2.2319496043908
0.19801980198020	0.087189020040395	2.2541503070625
0.20002000200020	0.087597337905993	2.2763519383207
0.20202020202020	0.088003744075406	2.2985529763488
0.20402040204020	0.088406582437051	2.3207531141361
0.20602060206021	0.088804543769577	2.3429534751226
0.20802080208021	0.089197606335664	2.3651558827095
0.21002100210021	0.089587125683821	2.3873616919952
0.21202120212021	0.089975049248490	2.4095709505150
0.21402140214021	0.090362793758516	2.4317824064839
0.21602160216022	0.090750510908323	2.4539943152539
0.21802180218022	0.091137179294019	2.4762054894002
0.22002200220022	0.091521409128050	2.4984159159101
0.22202220222022	0.091902399325076	2.5206265821005
0.22402240224022	0.092280425338694	2.5428386809867
0.22602260226023	0.092656578074109	2.5650527547241
0.22802280228023	0.093031976350364	2.5872683396411
0.23002300230023	0.093407004854791	2.6094843163900
0.23202320232023	0.093781082744524	2.6316996964595
0.23402340234023	0.094153095183697	2.6539143033401
0.23602360236024	0.094522179445119	2.6761288997331
0.23802380238024	0.094888337771629	2.6983446928616
0.24002400240024	0.095252482543685	2.7205625576378
0.24202420242024	0.095615902363235	2.7427824868828
0.24402440244024	0.095979511061801	2.7650036106817
0.24602460246025	0.096343364614888	2.7872247469339
0.24802480248025	0.096706736169379	2.8094451076660
0.25002500250025	0.097068667773964	2.8316647060780
0.25202520252025	0.097428617237782	2.8538842262657
0.25402540254025	0.097786779778345	2.8761044762697
0.25602560256026	0.098143898658369	2.8983258068782
0.25802580258026	0.098500721421247	2.9205478790005
0.26002600260026	0.098857481463589	2.9427699141749
0.26202620262026	0.099213749456375	2.9649912390220
0.26402640264026	0.099568740635321	2.9872117492140
0.26602660266027	0.099921860475190	3.0094319860638
0.26802680268027	0.10027312232387	3.0316527840647
0.27002700270027	0.10062316651194	3.0538747297287
0.27202720272027	0.10097287869682	3.0760977867492
0.27402740274027	0.10132286445444	3.0983213223742
0.27602760276028	0.10167311966939	3.1205445025533
0.27802780278028	0.10202309604475	3.1427667882445
0.28002800280028	0.10237209846105	3.1649882130797
0.28202820282028	0.10271974114867	3.1872092791098
0.28402840284028	0.10306616619800	3.2094305619475
0.28602860286029	0.10341189757971	3.2316522999333
0.28802880288029	0.10375744786798	3.2538742381941
0.29002900290029	0.10410295126698	3.2760958183468
0.29202920292029	0.10444806733883	3.2983165730871
0.29402940294029	0.10479221177789	3.3205364550200
0.29602960296030	0.10513495279292	3.3427558816083
0.29802980298030	0.10547630751177	3.3649754715541
0.30003000300030	0.10581674589357	3.3871956508842
0.30203020302030	0.10615690581826	3.4094163867426
0.30403040304030	0.10649721003692	3.4316372161278
0.30603060306031	0.10683763231236	3.4538575408208
0.30803080308031	0.10717775454562	3.4760769897885
0.31003100310031	0.10751706369675	3.4982956156184
0.31203120312031	0.10785528551090	3.5205138091989
0.31403140314031	0.10819253828261	3.5427320043370
0.31603160316032	0.10852921732593	3.5649503767193
0.31803180318032	0.10886570085733	3.5871687354973
0.32003200320032	0.10920208111828	3.6093866704496
0.32203220322032	0.10953809972409	3.6316038466281
0.32403240324032	0.10987332484356	3.6538202447175
0.32603260326033	0.11020744678846	3.6760361874728
0.32803280328033	0.11054049388375	3.6982521381045
0.33003300330033	0.11087282802706	3.7204684066324
0.33203320332033	0.11120492696701	3.7426849567459
0.33403340334033	0.11153709873494	3.7649014348954
0.33603360336034	0.11186931285658	3.7871173956659
0.33803380338034	0.11220125095057	3.8093325718244
0.34003400340034	0.11253253375735	3.8315470147345
0.34203420342034	0.11286296954805	3.8537610221307
0.34403440344034	0.11319266203513	3.8759749118708
0.34603460346035	0.11352191477814	3.8981887980285
0.34803480348035	0.11385100526464	3.9204025174074
0.35003500350035	0.11417998486785	3.9426157495336
0.35203520352035	0.11450863834419	3.9648282435897
0.35403540354035	0.11483662674415	3.9870399974011
0.35603560356036	0.11516371544281	4.0092512692852
0.35803580358036	0.11548993496714	4.0314624166561
0.36003600360036	0.11581556970956	4.0536736693090
0.36203620362036	0.11614098444776	4.0758849855997
0.36403640364036	0.11646640373926	4.0980960821725
0.36603660366037	0.11679178642857	4.1203066130190
0.36803680368037	0.11711687140905	4.1425163781448
0.37003700370037	0.11744135751855	4.1647254275293
0.37203720372037	0.11776509534494	4.1869339992151
0.37403740374037	0.11808816623456	4.2091423405401
0.37603760376038	0.11841080271263	4.2313505356102
0.37803780378038	0.11873321042857	4.2535584529671
0.38003800380038	0.11905541445107	4.2757658438555
0.38203820382038	0.11937723258457	4.2979725207366
0.38403840384038	0.11969839124875	4.3201784944290
0.38603860386039	0.12001870455599	4.3423839785319
0.38803880388039	0.12033819712192	4.3645892594266
0.39003900390039	0.12065709050559	4.3867945185831
0.39203920392039	0.12097566405155	4.4089997232883
0.39403940394039	0.12129408234093	4.4312046546440
0.39603960396040	0.12161230050239	4.4534090508976
0.39803980398040	0.12193010477179	4.4756127703965
0.40004000400040	0.12224725627481	4.4978158693046
0.40204020402040	0.12256364049935	4.5200185485653
0.40404040404040	0.12287932537610	4.5422210114738
0.40604060406041	0.12319449467212	4.5644233298906
0.40804080408041	0.12350930682452	4.5866254075077
0.41004100410041	0.12382377686888	4.6088270611104
0.41204120412041	0.12413776074995	4.6310281615942
0.41404140414041	0.12445105098636	4.6532287381082
0.41604160416042	0.12476351821473	4.6754289751980
0.41804180418042	0.12507520369367	4.6976291051286
0.42004200420042	0.12538630167948	4.7198292668412
0.42204220422042	0.12569704387052	4.7420294238449
0.42404240424042	0.12600756184627	4.7642293931908
0.42604260426043	0.12631781601835	4.7864289644036
0.42804280428043	0.12662763416930	4.8086280295922
0.43004300430043	0.12693683044162	4.8308266412625
0.43204320432043	0.12724532457458	4.8530249641329
0.43404340434043	0.12755318405742	4.8752231574437
0.43604360436044	0.12786056518199	4.8974212683267
0.43804380438044	0.12816759636291	4.9196192066319
0.44004400440044	0.12847428389282	4.9418168154813
0.44204420442044	0.12878050323980	4.9640139878404
0.44404440444044	0.12908608071929	4.9862107499002
0.44604460446045	0.12939091024839	5.0084072555054
0.44804480448045	0.12969502754912	5.0306036955737
0.45004500450045	0.12999859331674	5.0528001823018
0.45204520452045	0.13030179719328	5.0749966834245
0.45404540454045	0.13060474558378	5.0971930477048
0.45604560456046	0.13090740519078	5.1193891027827
0.45804580458046	0.13120963596431	5.1415847603909
0.46004600460046	0.13151128820265	5.1637800615147
0.46204620462046	0.13181229799656	5.1859751356280
0.46404640464046	0.13211271894648	5.2081701051782
0.46604660466047	0.13241267240243	5.2303650011740
0.46804680468047	0.13271225300273	5.2525597459616
0.47004700470047	0.13301145485060	5.2747542127484
0.47204720472047	0.13331016817382	5.2969483198972
0.47404740474047	0.13360824811183	5.3191420955618
0.47604760476048	0.13390560901199	5.3413356690572
0.47804780478048	0.13420228118961	5.3635291946892
0.48004800480048	0.13449839268681	5.3857227584500
0.48204820482048	0.13479408838667	5.4079163286236
0.48404840484048	0.13508943964964	5.4301097816927
0.48604860486049	0.13538440277589	5.4523029852554
0.48804880488049	0.13567885147451	5.4744958831028
0.49004900490049	0.13597265978419	5.4966885277169
0.49204920492049	0.13626577979566	5.5188810413725
0.49404940494049	0.13655826375244	5.5410735342526
0.49604960496050	0.13685021825014	5.5632660352605
0.49804980498050	0.13714172341348	5.5854584811386
0.50005000500050	0.13743277225842	5.6076507696227
0.50205020502050	0.13772327076466	5.6298428396513
0.50405040504050	0.13801309803976	5.6520347243530
0.50605060506051	0.13830218604749	5.6742265414175
0.50805080508051	0.13859056596929	5.6964184273835
0.51005100510051	0.13887835094400	5.7186104592162
0.51205120512051	0.13916566705768	5.7408026141976
0.51405140514051	0.13945257796579	5.7629947932298
0.51605160516052	0.13973905160039	5.7851868908924
0.51805180518052	0.14002498879072	5.8073788657280
0.52005200520052	0.14031029280497	5.8295707655554
0.52205220522052	0.14059493289623	5.8517626934423
0.52405240524052	0.14087896048632	5.8739547393235
0.52605260526053	0.14116246925894	5.8961469240330
0.52805280528053	0.14144552786294	5.9183391928366
0.53005300530053	0.14172813144967	5.9405314615811
0.53205320532053	0.14201020469200	5.9627236833018
0.53405340534053	0.14229165394306	5.9849158899328
0.53605360536054	0.14257243337411	6.0071081809259
0.53805380538054	0.14285258092206	6.0293006661607
0.54005400540054	0.14313220022635	6.0514934007326
0.54205420542054	0.14341140047678	6.0736863541721
0.54405440544054	0.14369023344734	6.0958794335717
0.54605460546055	0.14396866811865	6.1180725446949
0.54805480548055	0.14424661795989	6.1402656508517
0.55005500550055	0.14452400138716	6.1624587918912
0.55205520552055	0.14480079490801	6.1846520527619
0.55405540554055	0.14507704458733	6.2068455043895
0.55605560556056	0.14535282994607	6.2290391570874
0.55805580558056	0.14562820605354	6.2512329572431
0.56005600560056	0.14590316342060	6.2734268284540
0.56205620562056	0.14617763260810	6.2956207286062
0.56405640564056	0.14645153019020	6.3178146841688
0.56605660566057	0.14672481515228	6.3400087786145
0.56805680568057	0.14699751816329	6.3622031025614
0.57005700570057	0.14726972440583	6.3843976984361
0.57205720572057	0.14754152132977	6.4065925357075
0.57405740574057	0.14781294540872	6.4287875322638
0.57605760576058	0.14808396195327	6.4509826072505
0.57805780578058	0.14835448976350	6.4731777306703
0.58005800580058	0.14862445299248	6.4953729382097
0.58205820582058	0.14889382549306	6.5175683034321
0.58405840584058	0.14916263908402	6.5397638876678
0.58605860586059	0.14943095197986	6.5619597019271
0.58805880588059	0.14969880022397	6.5841557060903
0.59005900590059	0.14996616580520	6.6063518450045
0.59205920592059	0.15023298327070	6.6285480962636
0.59405940594059	0.15049918045731	6.6507444968368
0.59605960596060	0.15076472602337	6.6729411301083
0.59805980598060	0.15102965194553	6.6951380813998
0.60006000600060	0.15129403580874	6.7173353909701
0.60206020602060	0.15155795421666	6.7395330350341
0.60406040604060	0.15182143741276	6.7617309468116
0.60606060606061	0.15208445397916	6.7839290634754
0.60806080608061	0.15234693444228	6.8061273684238
0.61006100610061	0.15260881722973	6.8283259021492
0.61206120612061	0.15287008646864	6.8505247361688
0.61406140614061	0.15313077747395	6.8727239287348
0.61606160616062	0.15339094780818	6.8949234923678
0.61806180618062	0.15365063465181	6.9171233944708
0.62006200620062	0.15390982778047	6.9393235896582
0.62206220622062	0.15416847638065	6.9615240611984
0.62406240624062	0.15442652492843	6.9837248431767
0.62606260626063	0.15468395388649	7.0059260081707
0.62806280628063	0.15494079788284	7.0281276283903
0.63006300630063	0.15519712911180	7.0503297358290
0.63206320632063	0.15545301673258	7.0725323074920
0.63406340634063	0.15570848867568	7.0947352850864
0.63606360636064	0.15596352034966	7.1169386159498
0.63806380638064	0.15621805678249	7.1391422884217
0.64006400640064	0.15647205284025	7.1613463390896
0.64206420642064	0.15672550479641	7.1835508282668
0.64406440644064	0.15697845293091	7.2057558009392
0.64606460646065	0.15723095445299	7.2279612594867
0.64806480648065	0.15748304567930	7.2501671660171
0.65006500650065	0.15773471908571	7.2723734720714
0.65206520652065	0.15798593045934	7.2945801552783
0.65406540654065	0.15823663107091	7.3167872382192
0.65606560656066	0.15848680318308	7.3389947769134
0.65806580658066	0.15873647522636	7.3612028266522
0.66006600660066	0.15898570667814	7.3834114078105
0.66206620662066	0.15923455274155	7.4056204939960
0.66406640664066	0.15948303202573	7.4278300299154
0.66606660666067	0.15973111800929	7.4500399667454
0.66806680668067	0.15997875904383	7.4722502916403
0.67006700670067	0.16022591281418	7.4944610324622
0.67206720672067	0.16047257205892	7.5166722356627
0.67406740674067	0.16071876475588	7.5388839330955
0.67606760676068	0.16096452943770	7.5610961205550
0.67806780678068	0.16120988299217	7.5833087625426
0.68006800680068	0.16145480317043	7.6055218199061
0.68206820682068	0.16169923800657	7.6277352815614
0.68406840684068	0.16194313623289	7.6499491787523
0.68606860686069	0.16218647870883	7.6721635718865
0.68806880688069	0.16242929012590	7.6943785181448
0.69006900690069	0.16267162317114	7.7165940407073
0.69206920692069	0.16291352530452	7.7388101193092
0.69406940694069	0.16315500941703	7.7610267078478
0.69606960696070	0.16339604676289	7.7832437672761
0.69806980698070	0.16363658577562	7.8054612925083
0.70007000700070	0.16387658362540	7.8276793166273
0.70207020702070	0.16411602964298	7.8498978909933
0.70407040704070	0.16435494588350	7.8721170556240
0.70607060706071	0.16459336577909	7.8943368200653
0.70807080708071	0.16483130641585	7.9165571672607
0.71007100710071	0.16506875385550	7.9387780770574
0.71207120712071	0.16530567172669	7.9609995526934
0.71407140714071	0.16554202736704	7.9832216316679
0.71607160716072	0.16577781781585	8.0054443729956
0.71807180718072	0.16601307794241	8.0276678287421
0.72007200720072	0.16624786476838	8.0498920183318
0.72207220722072	0.16648222775755	8.0721169224016
0.72407240724072	0.16671618404051	8.0943425002028
0.72607260726073	0.16694971419211	8.1165687192374
0.72807280728073	0.16718278070520	8.1387955780957
0.73007300730073	0.16741535659354	8.1610231082609
0.73207320732073	0.16764744538730	8.1832513546459
0.73407340734073	0.16787907995243	8.2054803484530
0.73607360736074	0.16811030184546	8.2277100905296
0.73807380738074	0.16834113571077	8.2499405559053
0.74007400740074	0.16857157612448	8.2721717158185
0.74207420742074	0.16880159559857	8.2944035619121
0.74407440744074	0.16903116809704	8.3166361160637
0.74607460746075	0.16926029205710	8.3388694191282
0.74807480748075	0.16948899733225	8.3611035060589
