#Parameters = {Conductivity_W=18000000; C_1=22; C_2=88.237180537789; Conductivity=10000; Conductivity_Mo=17900000; Conductivity_MoGr=1000000; Ip=90.938440877652; Pipe_lenght=40; Pipe_r=30; beta=1; cells_wave=20; conductivity_copper=59500000; d=-188.23718053779; half_gap_x=30; half_gap_y=8; half_gap_z=50; mu_copper=0.999994; offset_x=5; offset_y=1; sigma_z=5; teta=14; thcoll=22; translate_z=-138.23718053779; wakelength=20000}
#"Frequency / GHz"	"Z [Re / Ohm]"	"Z [Im / Ohm]"
#-----------------------------------------------
0.0000000000000	-0.056000643212810	4.0341211231887e-13
0.0020002000200020	-0.052668028437764	0.031492798764598
0.0040004000400040	-0.043541193582905	0.059843436198231
0.0060006000600060	-0.030945200082615	0.082846390072509
0.0080008000800080	-0.017903786815083	0.099838162333830
0.010001000100010	-0.0071975020587483	0.11177055478297
0.012001200120012	-0.00057424990758488	0.12075642101457
0.014001400140014	0.0016251984962323	0.12928711741429
0.016001600160016	0.00033768583619526	0.13942643364833
0.018001800180018	-0.0027503261285889	0.15226513917467
0.020002000200020	-0.0058882028060234	0.16779142080767
0.022002200220022	-0.0078359976328750	0.18515729993933
0.024002400240024	-0.0081417660285664	0.20317545002100
0.026002600260026	-0.0070777826793986	0.22082051660596
0.028002800280028	-0.0053309491664143	0.23754763318528
0.030003000300030	-0.0036202451197953	0.25334824412136
0.032003200320032	-0.0024074881575329	0.26858414233396
0.034003400340034	-0.0017936345170688	0.28372161878576
0.036003600360036	-0.0015948712155390	0.29910116829328
0.038003800380038	-0.0015177613169239	0.31483089028819
0.040004000400040	-0.0013293369062818	0.33081617376407
0.042004200420042	-0.00094644477142630	0.34687402355066
0.044004400440044	-0.00042517841284680	0.36285451397094
0.046004600460046	0.00011640931144886	0.37870833829198
0.048004800480048	0.00058496257075976	0.39448136781374
0.050005000500050	0.00096022144549576	0.41025868066230
0.052005200520052	0.0012890314176320	0.42610113974970
0.054005400540054	0.0016415057819968	0.44201132079488
0.056005600560056	0.0020626279498529	0.45794131818749
0.058005800580058	0.0025478889743339	0.47382915471600
0.060006000600060	0.0030522524259742	0.48963727198936
0.062006200620062	0.0035211401155215	0.50537059430317
0.064006400640064	0.0039217755080265	0.52106745103425
0.066006600660066	0.0042569494951233	0.53677328646089
0.068006800680068	0.0045564698747475	0.55251512673820
0.070007000700070	0.0048551303048066	0.56829119014470
0.072007200720072	0.0051722237062849	0.58407883999300
0.074007400740074	0.0055041327407082	0.59985294879531
0.076007600760076	0.0058319512193234	0.61560205270875
0.078007800780078	0.0061369421806532	0.63133310253040
0.080008000800080	0.0064131768115805	0.64706388898923
0.082008200820082	0.0066700757310509	0.66280974576653
0.084008400840084	0.0069247739253338	0.67857359021675
0.086008600860086	0.0071904273908004	0.69434503269633
0.088008800880088	0.0074682234154596	0.71010797397038
0.090009000900090	0.0077475899314302	0.72585100277711
0.092009200920092	0.0080135395224810	0.74157390784378
0.094009400940094	0.0082558753404166	0.75728679647836
0.096009600960096	0.0084744957051315	0.77300321818533
0.098009800980098	0.0086780943143401	0.78873214726928
0.10001000100010	0.0088778766097700	0.80447377076861
0.10201020102010	0.0090807266128555	0.82022110897287
0.10401040104010	0.0092860348573812	0.83596569896510
0.10601060106011	0.0094876332176538	0.85170331265662
0.10801080108011	0.0096789621891377	0.86743615904163
0.11001100110011	0.0098578188095212	0.88317062754358
0.11201120112011	0.010027717337295	0.89891252186363
0.11401140114011	0.010195346487733	0.91466309575573
0.11601160116012	0.010366119298142	0.93041835542369
0.11801180118012	0.010540819955261	0.94617179396718
0.12001200120012	0.010715382723706	0.96191854794196
0.12201220122012	0.010883690461619	0.97765825538077
0.12401240124012	0.011041405020144	0.99339494856766
0.12601260126013	0.011188379977826	1.0091343088698
0.12801280128013	0.011328311521187	1.0248802153663
0.13001300130013	0.011466120718422	1.0406327718112
0.13201320132013	0.011604917427406	1.0563888666511
0.13401340134013	0.011744471500753	1.0721446413559
0.13601360136014	0.011881982501247	1.0878981127169
0.13801380138014	0.012014415702298	1.1036502711782
0.14001400140014	0.012140750501409	1.1194041024862
0.14201420142014	0.012262693447656	1.1351623529996
0.14401440144014	0.012383513896938	1.1509255929231
0.14601460146015	0.012505891191407	1.1666918170891
0.14801480148015	0.012630229370694	1.1824577451381
0.15001500150015	0.012754493053419	1.1982208855692
0.15201520152015	0.012875577132524	1.2139810072887
0.15401540154015	0.012991251234458	1.2297401322176
0.15601560156016	0.013101426843541	1.2455011579691
0.15801580158016	0.013208014151447	1.2612660715668
0.16001600160016	0.013313577426679	1.2770348962448
0.16201620162016	0.013419734771574	1.2928059602430
0.16401640164016	0.013526330131014	1.3085771949200
0.16601660166017	0.013631830351405	1.3243475425858
0.16801680168017	0.013734582436661	1.3401175605180
0.17001700170017	0.013834043717908	1.3558888954633
0.17201720172017	0.013931181514109	1.3716630553458
0.17401740174017	0.014027831982707	1.3874403299334
0.17601760176018	0.014125495554459	1.4032195610721
0.17801780178018	0.014224382330345	1.4189988715181
0.18001800180018	0.014323313225824	1.4347768371424
0.18201820182018	0.014420499555630	1.4505533317441
0.18401840184018	0.014514661808826	1.4663295267504
0.18601860186019	0.014605765129401	1.4821070958332
0.18801880188019	0.014694937346459	1.4978871746445
0.19001900190019	0.014783681318815	1.5136697438963
0.19201920192019	0.014872932180742	1.5294537891470
0.19401940194019	0.014962568760122	1.5452380718426
0.19601960196020	0.015051654170174	1.5610219680191
0.19801980198020	0.015139192558926	1.5768058264419
0.20002000200020	0.015224869940626	1.5925906459741
0.20202020202020	0.015309291217547	1.6083773270179
0.20402040204020	0.015393582389767	1.6241660146684
0.20602060206021	0.015478648085919	1.6399559638370
0.20802080208021	0.015564584746429	1.6557459955188
0.21002100210021	0.015650625444608	1.6715352266441
0.21202120212021	0.015735631783273	1.6873235941584
0.21402140214021	0.015818796524540	1.7031118489706
0.21602160216022	0.015900103176464	1.7189010504765
0.21802180218022	0.015980268318490	1.7346919085087
0.22002200220022	0.016060237430650	1.7504843961717
0.22202220222022	0.016140584809495	1.7662778581842
0.22402240224022	0.016221206803855	1.7820715083226
0.22602260226023	0.016301483985012	1.7978649665567
0.22802280228023	0.016380773614935	1.8136584829216
0.23002300230023	0.016458887277313	1.8294527200644
0.23202320232023	0.016536237236957	1.8452482619497
0.23402340234023	0.016613568044612	1.8610451873987
0.23602360236024	0.016691465624579	1.8768429894767
0.23802380238024	0.016769973838219	1.8926408839057
0.24002400240024	0.016848565617030	1.9084382945860
0.24202420242024	0.016926476446056	1.9242351978131
0.24402440244024	0.017003174258417	1.9400321108188
0.24602460246025	0.017078662386442	1.9558297477371
0.24802480248025	0.017153433586605	1.9716285774223
0.25002500250025	0.017228125435657	1.9874285678001
0.25202520252025	0.017303115407237	2.0032292661845
0.25402540254025	0.017378318675682	2.0190301407184
0.25602560256026	0.017453305435950	2.0348309440500
0.25802580258026	0.017527640353876	2.0506318595979
0.26002600260026	0.017601206880706	2.0664333456859
0.26202620262026	0.017674300655271	2.0822357953453
0.26402640264026	0.017747437621984	2.0980392458826
0.26602660266027	0.017821012442891	2.1138433305731
0.26802680268027	0.017895036437598	2.1296474991766
0.27002700270027	0.017969124808886	2.1454513573633
0.27202720272027	0.018042735310281	2.1612549028107
0.27402740274027	0.018115498041194	2.1770585103055
0.27602760276028	0.018187423745358	2.1928626852443
0.27802780278028	0.018258865065904	2.2086677523885
0.28002800280028	0.018330269307481	2.2244736801515
0.28202820282028	0.018401892867387	2.2402801434496
0.28402840284028	0.018473662962930	2.2560867691046
0.28602860286029	0.018545266872074	2.2718933926827
0.28802880288029	0.018616396468933	2.2877001572173
0.29002900290029	0.018686977570600	2.3035073962003
0.29202920292029	0.018757231092700	2.3193153879106
0.29402940294029	0.018827530003460	2.3351241497543
0.29602960296030	0.018898152122817	2.3509334092463
0.29802980298030	0.018969094415701	2.3667427678213
0.30003000300030	0.019040069437238	2.3825519468486
0.30203020302030	0.019110682443674	2.3983609548416
0.30403040304030	0.019180670716907	2.4141700709314
0.30603060306031	0.019250050723487	2.4299796617672
0.30803080308031	0.019319084062292	2.4457899553305
0.31003100310031	0.019388093380185	2.4616009173586
0.31203120312031	0.019457254445299	2.4774123031792
0.31403140314031	0.019526499676503	2.4932238408850
0.31603160316032	0.019595589331076	2.5090354186945
0.31803180318032	0.019664294284149	2.5248471527329
0.32003200320032	0.019732563474929	2.5406592955478
0.32203220322032	0.019800564218397	2.5564720524635
0.32403240324032	0.019868571580487	2.5722854315730
0.32603260326033	0.019936783612374	2.5880992272270
0.32803280328033	0.020005186186610	2.6039131461861
0.33003300330033	0.020073555585295	2.6197269916582
0.33203320332033	0.020141594842267	2.6355407847622
0.33403340334033	0.020209113143378	2.6513547468886
0.33603360336034	0.020276132609962	2.6671691586245
0.33803380338034	0.020342857683040	2.6829841898261
0.34003400340034	0.020409533291420	2.6987998101478
0.34203420342034	0.020476288474928	2.7146158327184
0.34403440344034	0.020543067077394	2.7304320551116
0.34603460346035	0.020609685765278	2.7462484001640
0.34803480348035	0.020675974511671	2.7620649636537
0.35003500350035	0.020741902232592	2.7778819410177
0.35203520352035	0.020807603616101	2.7936994862857
0.35403540354035	0.020873291303564	2.8095175997169
0.35603560356036	0.020939113985441	2.8253361190699
0.35803580358036	0.021005055336379	2.8411548191980
0.36003600360036	0.021070939787228	2.8569735533355
0.36203620362036	0.021136539812967	2.8727923436838
0.36403640364036	0.021201713572178	2.8886113641305
0.36603660366037	0.021266484147186	2.9044308293830
0.36803680368037	0.021331012246553	2.9202508646647
0.37003700370037	0.021395484719528	2.9360714398384
0.37203720372037	0.021459994628554	2.9518924067858
0.37403740374037	0.021524490826068	2.9677136102879
0.37603760376038	0.021588826308718	2.9835349960585
0.37803780378038	0.021652868650944	2.9993566446391
0.38003800380038	0.021716596305686	3.0151787114849
0.38203820382038	0.021780116497568	3.0310013163408
0.38403840384038	0.021843594321397	3.0468244574178
0.38603860386039	0.021907141822734	3.0626480075677
0.38803880388039	0.021970741277421	3.0784717941963
0.39003900390039	0.022034252873582	3.0942957094276
0.39203920392039	0.022097500671569	3.1101197783347
0.39403940394039	0.022160379837552	3.1259441420059
0.39603960396040	0.022222915854071	3.1417689686230
0.39803980398040	0.022285239599014	3.1575943518756
0.40004000400040	0.022347497797554	3.1734202621710
0.40204020402040	0.022409759463015	3.1892465794498
0.40404040404040	0.022471979127353	3.2050731822244
0.40604060406041	0.022534038124904	3.2209000317945
0.40804080408041	0.022595833139068	3.2367271960844
0.41004100410041	0.022657351073035	3.2525547993702
0.41204120412041	0.022718680237858	3.2683829337176
0.41404140414041	0.022779951436270	3.2842115924801
0.41604160416042	0.022841249213356	3.3000406702572
0.41804180418042	0.022902552541946	3.3158700289059
0.42004200420042	0.022963743789668	3.3316995856846
0.42204220422042	0.023024679363656	3.3475293659156
0.42404240424042	0.023085275387104	3.3633594869053
0.42604260426043	0.023145553199773	3.3791900852695
0.42804280428043	0.023205617098509	3.3950212360764
0.43004300430043	0.023265581512983	3.4108529158545
0.43204320432043	0.023325496940175	3.4266850311624
0.43404340434043	0.023385322890618	3.4425174908598
0.43604360436044	0.023444963443335	3.4583502724453
0.43804380438044	0.023504339201875	3.4741834385026
0.44004400440044	0.023563446156526	3.4900170937316
0.44204420442044	0.023622361967101	3.5058513128024
0.44404440444044	0.023681196032175	3.5216860880383
0.44604460446045	0.023740017130636	3.5375213318926
0.44804480448045	0.023798806737370	3.5533569323893
0.45004500450045	0.023857468511727	3.5691928248651
0.45204520452045	0.023915887182791	3.5850290332967
0.45404540454045	0.023973998061772	3.6008656552292
0.45604560456046	0.024031822487330	3.6167028014939
0.45804580458046	0.024089447823273	3.6325405308119
0.46004600460046	0.024146967223057	3.6483788213324
0.46204620462046	0.024204419896465	3.6642175956751
0.46404640464046	0.024261770726426	3.6800567805573
0.46604660466047	0.024318940858839	3.6958963601248
0.46804680468047	0.024375866852211	3.7117363877166
0.47004700470047	0.024432547740580	3.7275769494220
0.47204720472047	0.024489048488734	3.7434181050711
0.47404740474047	0.024545458036382	3.7592598467681
0.47604760476048	0.024601830407116	3.7751021027196
0.47804780478048	0.024658148164734	3.7909447836346
0.48004800480048	0.024714332205374	3.8067878409028
0.48204820482048	0.024770291062855	3.8226312984860
0.48404840484048	0.024825977233195	3.8384752383044
0.48604860486049	0.024881414136245	3.8543197495969
0.48804880488049	0.024936677339634	3.8701648758429
0.49004900490049	0.024991843822004	3.8860105934197
0.49204920492049	0.025046943380153	3.9018568344225
0.49404940494049	0.025101943716883	3.9177035368309
0.49604960496050	0.025156777556775	3.9335506878449
0.49804980498050	0.025211392159999	3.9493983318305
0.50005000500050	0.025265787302178	3.9652465386014
0.50205020502050	0.025320016288865	3.9810953542897
0.50405040504050	0.025374149718850	3.9969447682264
0.50605060506051	0.025428226526509	4.0127947181031
0.50805080508051	0.025482224999729	4.0286451299944
0.51005100510051	0.025536072892067	4.0444959668239
0.51205120512051	0.025589689854062	4.0603472536562
0.51405140514051	0.025643034423120	4.0761990638206
0.51605160516052	0.025696125413847	4.0920514756313
0.51805180518052	0.025749024905782	4.1079045282765
0.52005200520052	0.025801795290681	4.1237582051307
0.52205220522052	0.025854459275872	4.1396124539856
0.52405240524052	0.025906988819852	4.1554672292561
0.52605260526053	0.025959329074200	4.1713225272832
0.52805280528053	0.026011440062902	4.1871783913056
0.53005300530053	0.026063327483187	4.2030348834679
0.53205320532053	0.026115041866453	4.2188920432680
0.53405340534053	0.026166646767085	4.2347498606118
0.53605360536054	0.026218177276913	4.2506082815788
0.53805380538054	0.026269616341773	4.2664672431504
0.54005400540054	0.026320904364351	4.2823267141235
0.54205420542054	0.026371975582951	4.2981867156875
0.54405440544054	0.026422797421765	4.3140473088286
0.54605460546055	0.026473387602104	4.3299085575100
0.54805480548055	0.026523798895687	4.3457704920236
0.55005500550055	0.026574082683142	4.3616330960239
0.55205520552055	0.026624255898673	4.3774963245376
0.55405540554055	0.026674292851970	4.3933601397429
0.55605560556056	0.026724146323722	4.4092245400414
0.55805580558056	0.026773782800753	4.4250895631470
0.56005600560056	0.026823207675606	4.4409552617293
0.56205620562056	0.026872463468829	4.4568216685049
0.56405640564056	0.026921602416185	4.4726887744790
0.56605660566057	0.026970651876786	4.4885565349598
0.56805680568057	0.027019595592746	4.5044248993668
0.57005700570057	0.027068383133973	4.5202938451602
0.57205720572057	0.027116961180882	4.5361633937213
0.57405740574057	0.027165306093922	4.5520335981630
0.57605760576058	0.027213436773302	4.5679045115206
0.57805780578058	0.027261400104376	4.5837761563612
0.58005800580058	0.027309239348723	4.5996485153628
0.58205820582058	0.027356966652269	4.6155215481612
0.58405840584058	0.027404557527113	4.6313952223924
0.58605860586059	0.027451970140033	4.6472695378490
0.58805880588059	0.027499175739916	4.6631445278085
0.59005900590059	0.027546179451069	4.6790202371449
0.59205920592059	0.027593017460881	4.6948966923577
0.59405940594059	0.027639732607590	4.7107738838382
0.59605960596060	0.027686344748650	4.7266517723463
0.59805980598060	0.027732835644260	4.7425303154922
0.60006000600060	0.027779158353006	4.7584094968343
0.60206020602060	0.027825264946594	4.7742893386500
0.60406040604060	0.027871134475842	4.7901698903501
0.60606060606061	0.027916783285796	4.8060512004813
0.60806080608061	0.027962251627449	4.8219332907239
0.61006100610061	0.028007576080716	4.8378161485074
0.61206120612061	0.028052766250459	4.8536997422393
0.61406140614061	0.028097800842018	4.8695840482072
0.61606160616062	0.028142644995253	4.8854690708572
0.61806180618062	0.028187276628116	4.9013548430186
0.62006200620062	0.028231703806583	4.9172414063085
0.62206220622062	0.028275961465430	4.9331287851533
0.62406240624062	0.028320089727023	4.9490169719756
0.62606260626063	0.028364108300907	4.9649059334737
0.62806280628063	0.028408003922216	4.9807956338625
0.63006300630063	0.028451739032660	4.9966860598023
0.63206320632063	0.028495275893341	5.0125772308088
0.63406340634063	0.028538600332863	5.0284691886560
0.63606360636064	0.028581729884187	5.0443619730686
0.63806380638064	0.028624701554569	5.0602555997432
0.64006400640064	0.028667547864960	5.0761500547691
0.64206420642064	0.028710277168770	5.0920453084074
0.64406440644064	0.028752870961594	5.1079413384050
0.64606460646065	0.028795299309560	5.1238381470325
0.64806480648065	0.028837543460511	5.1397357606395
0.65006500650065	0.028879610186233	5.1556342124482
0.65206520652065	0.028921528212483	5.1715335205075
0.65406540654065	0.028963329241010	5.1874336758215
0.65606560656066	0.029005026351526	5.2033346487133
0.65806580658066	0.029046604245986	5.2192364092651
0.66006600660066	0.029088027839953	5.2351389483705
0.66206620662066	0.029129263575915	5.2510422856239
0.66406640664066	0.029170299531582	5.2669464590521
0.66606660666067	0.029211151405203	5.2828515036294
0.66806680668067	0.029251850906065	5.2987574326898
0.67006700670067	0.029292424636790	5.3146642341380
0.67206720672067	0.029332877559994	5.3305718833667
0.67406740674067	0.029373191750968	5.3464803637613
0.67606760676068	0.029413340757170	5.3623896809148
0.67806780678068	0.029453309526474	5.3782998611547
0.68006800680068	0.029493106338048	5.3942109356365
0.68206820682068	0.029532758707043	5.4101229208807
0.68406840684068	0.029572296039921	5.4260358089063
0.68606860686069	0.029611730632616	5.4419495736081
0.68806880688069	0.029651049634793	5.4578641891916
0.69006900690069	0.029690223276952	5.4737796485409
0.69206920692069	0.029729223922305	5.4896959695327
0.69406940694069	0.029768043467086	5.5056131853245
0.69606960696070	0.029806697879838	5.5215313251766
0.69806980698070	0.029845216250109	5.5374503984109
0.70007000700070	0.029883621873887	5.5533703917958
0.70207020702070	0.029921917920278	5.5692912816364
0.70407040704070	0.029960086912058	5.5852130521820
0.70607060706071	0.029998103939586	5.6011357080306
0.70807080708071	0.030035954470953	5.6170592724511
0.71007100710071	0.030073644765163	5.6329837730447
0.71207120712071	0.030111198037656	5.6489092245546
0.71407140714071	0.030148639096628	5.6648356203593
0.71607160716072	0.030185977793029	5.6807629382661
0.71807180718072	0.030223202294044	5.6966911566786
0.72007200720072	0.030260286555122	5.7126202703790
0.72207220722072	0.030297206958194	5.7285502955632
0.72407240724072	0.030333957118082	5.7444812609660
0.72607260726073	0.030370551227734	5.7604131910991
0.72807280728073	0.030407014008940	5.7763460926728
0.73007300730073	0.030443364128750	5.7922799529722
0.73207320732073	0.030479602086359	5.8082147509185
0.73407340734073	0.030515710365690	5.8241504732117
0.73607360736074	0.030551665388590	5.8400871247698
0.73807380738074	0.030587453005208	5.8560247267252
