#Parameters = {C_1=24.92455081603; C_2=93.019690001257; Conductivity=10000000; Conductivity_Mo=17900000; Conductivity_MoGr=1000000; Ip=96.301069367431; Pipe_lenght=40; Pipe_r=30; beta=1; cells_wave=20; conductivity_copper=59500000; d=-393.01969000126; half_gap_x=5.0754491839698; half_gap_y=30; half_gap_z=150; mu_copper=0.999994; offset=2.0301796735879; offset_x=1; offset_y=5; sigma_z=5; teta=15; thcoll=24.92455081603; translate_z=-243.01969000126; wakelength=20000}
#"Frequency / GHz"	"X [Re / Ohm]"	"X [Im / Ohm]"
#-----------------------------------------------
0.0000000000000	-2.0393335772013e-12	-282.22647406952
0.0020478289222872	-139.81243876804	-235.75469738267
0.0040956578445743	-221.42272239279	-118.00270138927
0.0061434867668615	-215.45456674986	17.355349589800
0.0081913156891487	-134.64789062541	112.29005603204
0.010239144611436	-24.882583569203	133.17629007564
0.012286973533723	60.345539176994	85.232329948500
0.014334802456010	87.405265846209	5.7172101963018
0.016382631378297	57.065230208558	-58.970348510542
0.018430460300585	-0.71304996257346	-78.576660656298
0.020478289222872	-47.045845797950	-52.630725657388
0.022526118145159	-56.728996273820	-6.0811204648152
0.024573947067446	-30.256362541897	28.676739786808
0.026621775989733	10.387689439407	31.630829644157
0.028669604912020	37.867248944434	5.1746518627075
0.030717433834308	36.723996155366	-30.425458293125
0.032765262756595	11.317021093245	-51.759441093319
0.034813091678882	-19.281217766700	-47.173714125462
0.036860920601169	-34.903664732863	-22.722128632915
0.038908749523456	-27.124710460708	3.5728901665747
0.040956578445743	-3.3924381491507	14.399445292956
0.043004407368031	19.299843023911	4.1411940210951
0.045052236290318	26.230501086324	-18.623759268790
0.047100065212605	14.245397557555	-37.944556236579
0.049147894134892	-7.1991630987513	-41.475867568969
0.051195723057179	-23.235240839403	-28.211283164052
0.053243551979466	-23.719348813724	-8.2368113586251
0.055291380901754	-9.5100018482857	4.7226797142358
0.057339209824041	8.9103557225495	2.5811906769442
0.059387038746328	19.020973610883	-12.191188190036
0.061434867668615	14.661486405043	-28.926939151659
0.063482696590902	-0.32134922398266	-36.359532909998
0.065530525513189	-15.267986882966	-30.123269853658
0.067578354435477	-20.204157697942	-15.217393161505
0.069626183357764	-12.426672937650	-2.1155654395514
0.071674012280051	2.1266864780609	0.52659338441931
0.073721841202338	13.329435912451	-8.4649391911589
0.075769670124625	13.856986593977	-22.416562816759
0.077817499046912	3.9280685749688	-31.691650317384
0.079865327969200	-9.2402216379371	-30.292888972906
0.081913156891487	-16.625338031275	-19.690771598572
0.083960985813774	-13.537560182974	-7.4631337158380
0.086008814736061	-2.5542008787764	-1.9119797346101
0.088056643658348	8.5586020816061	-6.4539510151331
0.090104472580635	12.307815075180	-17.552296407348
0.092152301502923	6.5011005424330	-27.413331074356
0.094200130425210	-4.5140689244190	-29.422859540897
0.096247959347497	-13.064688807443	-22.550305890813
0.098295788269784	-13.466825604599	-11.804805471019
0.10034361719207	-5.7764976608656	-4.6035423412353
0.10239144611436	4.4834327532005	-5.6666527969419
0.10443927503665	10.272876077016	-13.937739570597
0.10648710395893	7.8516562957591	-23.525279208494
0.10853493288122	-0.81915257820051	-27.872819948968
0.11058276180351	-9.6199394614651	-24.219476731271
0.11263059072579	-12.569088337621	-15.327356598451
0.11467841964808	-7.8683172959482	-7.4095449854598
0.11672624857037	1.0291111936555	-5.7973111582043
0.11877407749266	7.9438399311789	-11.357953461515
0.12082190641494	8.2545759301864	-20.061315488100
0.12286973533723	1.9796819749554	-25.880143741950
0.12491756425952	-6.3905726276198	-24.946813290456
0.12696539318180	-11.089309200062	-18.107654489136
0.12901322210409	-9.0304722256747	-10.195571371208
0.13106105102638	-1.8197543124704	-6.6199893404091
0.13310887994867	5.4836995383285	-9.6729065346901
0.13515670887095	7.9129028539071	-17.067195935725
0.13720453779324	3.9675804747340	-23.631045794118
0.13925236671553	-3.4692659120035	-24.912082472377
0.14130019563781	-9.2222488028881	-20.185372013205
0.14334802456010	-9.4124351145530	-12.838344245588
0.14539585348239	-4.0607367005637	-7.9469015431675
0.14744368240468	3.0365663559580	-8.7713785400789
0.14949151132696	6.9987011950095	-14.586531563233
0.15153934024925	5.2153337874245	-21.285183905184
0.15358716917154	-0.93622878368205	-24.268697762633
0.15563499809382	-7.1364849752555	-21.594521062564
0.15768282701611	-9.1462260618495	-15.230398433436
0.15973065593840	-5.6951597394336	-9.6106848855365
0.16177848486069	0.72804431314326	-8.5484736464060
0.16382631378297	5.6689318772863	-12.650120011096
0.16587414270526	5.7959335020014	-18.981897972315
0.16792197162755	1.1462239595416	-23.159791238012
0.16996980054984	-4.9820347304667	-22.377438066373
0.17201762947212	-8.3601815995875	-17.283960310997
0.17406545839441	-6.7387615154265	-11.458231342905
0.17611328731670	-1.3371241152756	-8.8955410986389
0.17816111623898	4.0703538551975	-11.268797958972
0.18020894516127	5.7917652438623	-16.839128597052
0.18225677408356	2.7384804481873	-21.721776252623
0.18430460300585	-2.8895104729859	-22.589317589422
0.18635243192813	-7.1805793730545	-18.933595736160
0.18840026085042	-7.2232364678871	-13.350999470242
0.19044808977271	-3.0749921066638	-9.6996071056945
0.19249591869499	2.3409584951766	-10.433748609818
0.19454374761728	5.2960671214433	-14.955364707521
0.19659157653957	3.8238058368755	-20.087472335464
0.19863940546186	-0.97179179643728	-22.301387868312
0.20068723438414	-5.7349293395088	-20.138306300719
0.20273506330643	-7.2004020056815	-15.165224007926
0.20478289222872	-4.4263761354983	-10.841301100944
0.20683072115100	0.60750879951467	-10.112313147308
0.20887855007329	4.4132193983486	-13.404332674193
0.21092637899558	4.4119247091153	-18.381505711874
0.21297420791787	0.68204234257837	-21.599108080949
0.21502203684015	-4.1456239268752	-20.883760440756
0.21706986576244	-6.7382686166632	-16.797625091138
0.21911769468473	-5.3570691756037	-12.201693004344
0.22116552360701	-1.0184510096922	-10.252992409233
0.22321335252930	3.2533098443605	-12.236312969815
0.22526118145159	4.5350165052951	-16.718326499768
0.22730901037388	2.0057149445301	-20.579175165719
0.22935683929616	-2.5286289590940	-21.180844507590
0.23140466821845	-5.9197702399662	-18.166494953679
0.23345249714074	-5.8587798253078	-13.664644517564
0.23550032606302	-2.4440104841658	-10.786511205732
0.23754815498531	1.9282126658411	-11.476079011908
0.23959598390760	4.2461299647704	-15.197451748648
0.24164381282989	2.9580896850668	-19.344697993824
0.24369164175217	-0.98822310408389	-21.063862606805
0.24573947067446	-4.8376958064272	-19.214289576162
0.24778729959675	-5.9474455338960	-15.122353223891
0.24983512851903	-3.5976705908600	-11.630940178838
0.25188295744132	0.54613585287160	-11.124545812054
0.25393078636361	3.6144804270455	-13.900982316130
0.25597861528590	3.5218848436993	-18.000713765257
0.25802644420818	0.38518550357816	-20.587391573755
0.26007427313047	-3.5915755340240	-19.907919037828
0.26212210205276	-5.6624109708076	-16.478371436099
0.26416993097504	-4.4322761786314	-12.694406434250
0.26621775989733	-0.79355184772406	-11.158014625389
0.26826558881962	2.7215980769844	-12.888489274958
0.27031341774191	3.7042898923369	-16.646935213386
0.27236124666419	1.5205969730272	-19.820871634363
0.27440907558648	-2.2799359054182	-20.238282604465
0.27645690450877	-5.0606479337749	-17.652192209580
0.27850473343106	-4.9240989925096	-13.881742608909
0.28055256235334	-2.0040178230869	-11.532799547626
0.28260039127563	1.6561375749098	-12.197149043451
0.28464822019792	3.5340567946120	-15.374096646640
0.28669604912020	2.3676263950357	-18.844374964656
0.28874387804249	-0.99624925634069	-20.218801929177
0.29079170696478	-4.2131819014944	-18.581623014508
0.29283953588707	-5.0726161777208	-15.098789179504
0.29488736480935	-3.0143859241117	-12.188006793845
0.29693519373164	0.50936548362341	-11.840576021230
0.29898302265393	3.0594691777542	-14.259288695619
0.30103085157621	2.8989586856379	-17.743554830101
0.30307868049850	0.17691643284854	-19.883625692576
0.30512650942079	-3.1993850761782	-19.225851436255
0.30717433834308	-4.8985471875180	-16.258707137435
0.30922216726536	-3.7727128269748	-13.051303967756
0.31126999618765	-0.63072194478654	-11.810638758508
0.31331782510994	2.3434212202186	-13.363088275460
0.31536565403222	3.1094458955158	-16.604476454804
0.31741348295451	1.1712093006914	-19.283965166150
0.31946131187680	-2.1021601516661	-19.565857313884
0.32150914079909	-4.4411808174806	-17.286064045941
0.32355696972137	-4.2474608618185	-14.043668136927
0.32560479864366	-1.6839916524049	-12.079439257260
0.32765262756595	1.4589843803801	-12.727376196898
0.32970045648823	3.0149998357111	-15.508908020538
0.33174828541052	1.9354853530820	-18.484354404098
0.33379611433281	-1.0030503767860	-19.604504570948
0.33584394325510	-3.7552340154961	-18.120927397677
0.33789177217738	-4.4286343134889	-15.084786593899
0.33993960109967	-2.5831976144631	-12.602305388403
0.34198743002196	0.48357815517130	-12.373754975821
0.34403525894424	2.6496333926052	-14.529053867981
0.34608308786653	2.4374802099506	-17.557040782666
0.34813091678882	0.022726216803048	-19.364093977447
0.35017874571111	-2.9060675843594	-18.720868380446
0.35222657463339	-4.3263786705990	-16.097760668313
0.35427440355568	-3.2767104621106	-13.321686877363
0.35632223247797	-0.50573890940899	-12.303844000404
0.35837006140025	2.0622417346991	-13.724097416938
0.36041789032254	2.6643960786495	-16.577312215816
0.36246571924483	0.91020513138053	-18.883856213466
0.36451354816712	-1.9653089831035	-19.062426492218
0.36656137708940	-3.9694073570769	-17.013478076773
0.36860920601169	-3.7310401067428	-14.171239668655
0.37065703493398	-1.4372762636934	-12.499993524052
0.37270486385627	1.3125295084600	-13.136751445377
0.37475269277855	2.6226219002214	-15.617962276222
0.37680052170084	1.6085023291774	-18.215865898568
0.37884835062313	-1.0053710877174	-19.141035046284
0.38089617954541	-3.4013941605794	-17.774391360705
0.38294400846770	-3.9312829741298	-15.080714531116
0.38499183738999	-2.2485748963929	-12.927872519925
0.38703966631228	0.46670176237503	-12.791821227204
0.38908749523456	2.3361906367628	-14.744952488202
0.39113532415685	2.0832605196663	-17.420950948085
0.39318315307914	-0.094606677309573	-18.970134338334
0.39523098200142	-2.6769923725370	-18.337546005309
0.39727881092371	-3.8806571366191	-15.980895859507
0.39932663984600	-2.8896641884131	-13.540021092474
0.40137446876829	-0.40716463785777	-12.696084581904
0.40342229769057	1.8440146372496	-14.013916640278
0.40547012661286	2.3176028809790	-16.564452114638
0.40751795553515	0.70656102093644	-18.579275265829
0.40956578445743	-1.8579109802883	-18.676396200417
0.41161361337972	-3.5994045716272	-16.807822870978
0.41366144230201	-3.3256453524831	-14.279427641512
0.41570927122430	-1.2435988355292	-12.838590663842
0.41775710014658	1.1967021607401	-13.466832103855
0.41980492906887	2.3126066833516	-15.711477777953
0.42185275799116	1.3496448167366	-18.011216583979
0.42390058691344	-1.0079248318540	-18.781805793291
0.42594841583573	-3.1220534122165	-17.507137611792
0.42799624475802	-3.5379189176365	-15.084435532993
0.43004407368031	-1.9839699423624	-13.193021947008
0.43209190260259	0.45225319347195	-13.130533390450
0.43413973152488	2.0857996110654	-14.922917743315
0.43618756044717	1.8002272801210	-17.318456392312
0.43823538936945	-0.18883609533452	-18.661664181304
0.44028321829174	-2.4945267236451	-18.037125055820
0.44233104721403	-3.5246641216183	-15.893113329135
0.44437887613632	-2.5801851734180	-13.720354379653
0.44642670505860	-0.32845360227191	-13.015806839944
0.44847453398089	1.6687969452313	-14.251588226731
0.45052236290318	2.0392068758215	-16.559068795473
0.45257019182546	0.54333045642968	-18.339228589586
0.45461802074775	-1.7705862333321	-18.370587568267
0.45666584967004	-3.3001231773590	-16.647199191654
0.45871367859233	-2.9973813944969	-14.371958340801
0.46076150751461	-1.0859113925792	-13.117328399532
0.46280933643690	1.1044602496002	-13.738904360397
0.46485716535919	2.0633817677233	-15.792302347249
0.46690499428147	1.1419939026090	-17.850614277389
0.46895282320376	-1.0075517850867	-18.495914769778
0.47100065212605	-2.8925995369003	-17.295998400475
0.47304848104834	-3.2155340011861	-15.093658958998
0.47509630997062	-1.7660800436866	-13.415148808021
0.47714413889291	0.44309398626763	-13.412850182003
0.47919196781520	1.8844374124634	-15.074502705574
0.48123979673749	1.5723054181190	-17.241487025596
0.48328762565977	-0.26250370282297	-18.416736388881
0.48533545458206	-2.3419537470739	-17.799046760352
0.48738328350435	-3.2300831672943	-15.829314231824
0.48943111242663	-2.3237293708827	-13.876436319692
0.49147894134892	-0.26124831887689	-13.286419939494
0.49352677027121	1.5275607424159	-14.455102224683
0.49557459919350	1.8131616389957	-16.563177905811
0.49762242811578	0.41189092454942	-18.150675180680
0.49967025703807	-1.6959778519110	-18.128208473497
0.50171808596036	-3.0511559558602	-16.524676005821
0.50376591488264	-2.7248119512190	-14.458337390215
0.50581374380493	-0.95439762163378	-13.357454902276
0.50786157272722	1.0293040996353	-13.973548438459
0.50990940164951	1.8582724248946	-15.868867889913
0.51195723057179	0.97112225717267	-17.727491312717
0.51400505949408	-1.0063658434737	-18.269146955342
0.51605288841637	-2.7018465821768	-17.131274942000
0.51810071733865	-2.9480617668270	-15.111723179250
0.52014854626094	-1.5857233154275	-13.609826284713
0.52219637518323	0.43452311936897	-13.657293591367
0.52424420410552	1.7158864589523	-15.209965926664
0.52629203302780	1.3815874869850	-17.186530135144
0.52833986195009	-0.32480490042010	-18.221762523321
0.53038769087238	-2.2158061455600	-17.609691285778
0.53243551979466	-2.9856897056916	-15.785191546500
0.53448334871695	-2.1113950901737	-14.015596309607
0.53653117763924	-0.20716610554928	-13.520856073777
0.53857900656153	1.4073930263800	-14.632980123428
0.54062683548381	1.6222166080972	-16.573822529742
0.54267466440610	0.30041103843262	-17.999750875856
0.54472249332839	-1.6346032577042	-17.932056370759
0.54677032225067	-2.8434858287760	-16.428923875891
0.54881815117296	-2.4973192482455	-14.537686373422
0.55086598009525	-0.84529056665832	-13.565575630156
0.55291380901754	0.96497001374730	-14.176652269633
0.55496163793982	1.6850866932539	-15.938695820094
0.55700946686211	0.82729064381430	-17.629124867768
0.55905729578440	-1.0048047972978	-18.083558407885
0.56110512470668	-2.5401960486955	-16.998137159093
0.56315295362897	-2.7215314930938	-15.132843907853
0.56520078255126	-1.4325580640134	-13.779952236099
0.56724861147355	0.42842258952078	-13.869295206121
0.56929644039583	1.5750764507697	-15.329761440397
0.57134426931812	1.2226496250899	-17.145390644716
0.57339209824041	-0.37449831534407	-18.062491486550
0.57543992716269	-2.1055520540888	-17.455698701455
0.57748775608498	-2.7751123018879	-15.754767092160
0.57953558500727	-1.9280069086013	-14.140919132515
0.58158341392956	-0.15800568941342	-13.727180351021
0.58363124285184	1.3088314772802	-14.791404848409
0.58567907177413	1.4638964688670	-16.590432932210
0.58772690069642	0.21000668395008	-17.879517901870
0.58977472961871	-1.5778080935453	-17.774050217863
0.59182255854099	-2.6622945753255	-16.357085954847
0.59387038746328	-2.2995865954053	-14.615514738895
0.59591821638557	-0.74881697248091	-13.753430951054
0.59796604530785	0.91332167466191	-14.360360500063
0.60001387423014	1.5405240514830	-16.008853586168
0.60206170315243	0.70781653171666	-17.556040595127
0.60410953207472	-1.0001828150209	-17.936511103953
0.60615736099700	-2.3991141313316	-16.896510709739
0.60820518991929	-2.5255874402209	-15.163568578166
0.61025301884158	-1.3001002404635	-13.938316147284
0.61230084776386	0.42393536243698	-14.063392601390
0.61434867668615	1.4548364913889	-15.444669738978
0.61639650560844	1.0866911027019	-17.122268213298
0.61844433453073	-0.41696047309464	-17.938158537550
0.62049216345301	-2.0111474388566	-17.336087496830
0.62253999237530	-2.5951846555033	-15.741328144805
0.62458782129759	-1.7721422622170	-14.261075760626
0.62663565021987	-0.11809439754006	-13.916471773827
0.62868347914216	1.2214003059086	-14.938883841290
0.63073130806445	1.3250067719816	-16.615353359586
0.63277913698674	0.12964185785503	-17.786307506108
0.63482696590902	-1.5314331137565	-17.648148239563
0.63687479483131	-2.5089644725931	-16.305269043772
0.63892262375360	-2.1323539871661	-14.692360728639
0.64097045267588	-0.66919952731378	-13.924539683095
0.64301828159817	0.86512026212204	-14.527087644725
0.64506611052046	1.4124395316463	-16.076803093606
0.64711393944275	0.60194241095891	-17.499772916069
0.64916176836503	-0.99829951891341	-17.816125930575
0.65120959728732	-2.2789304745981	-16.815338660828
0.65325742620961	-2.3578271792882	-15.196740915664
0.65530525513189	-1.1871831342627	-14.081583748463
0.65735308405418	0.41858735532961	-14.237053096784
0.65940091297647	1.3498496948073	-15.549218427187
0.66144874189876	0.96895496642395	-17.106945164065
0.66349657082104	-0.45274952513104	-17.835199956289
0.66554439974333	-1.9275540514760	-17.237605047211
0.66759222866562	-2.4370113097469	-15.735388774988
0.66964005758790	-1.6346703327823	-14.371343807670
0.67168788651019	-0.081078323532686	-14.086785729565
0.67373571543248	1.1482736089545	-15.072801070571
0.67578354435477	1.2079064436008	-16.642855883877
0.67783137327705	0.064249839728814	-17.711562635300
0.67987920219934	-1.4859625122140	-17.545777417111
0.68192703112163	-2.3701829838487	-16.268306719246
0.68397486004391	-1.9815731293113	-14.768199007361
0.68602268896620	-0.59494161124937	-14.082963351264
0.68807051788849	0.82794269368912	-14.681953366113
0.69011834681078	1.3058226731147	-16.145844066547
0.69216617573306	0.51502387193594	-17.461029428750
0.69421400465535	-0.99101435010165	-17.722310265557
0.69626183357764	-2.1685704919393	-16.756771323576
0.69830966249993	-2.2065054195719	-15.238903406574
0.70035749142221	-1.0845574990563	-14.220449244258
0.70240532034450	0.41715519204698	-14.402648531016
0.70445314926679	1.2608740767071	-15.654410475288
0.70650097818907	0.86863139927595	-17.107436124127
0.70854880711136	-0.48156510611452	-17.759419983519
0.71059663603365	-1.8523229442408	-17.166329506302
0.71264446495594	-2.2972872890007	-15.745652937070
0.71469229387822	-1.5141287538727	-14.483567397622
0.71674012280051	-0.049571229276031	-14.251369568964
0.71878795172280	1.0825142584313	-15.204946229135
0.72083578064508	1.1032200726418	-16.681151717580
0.72288360956737	0.0047415785666906	-17.659851349651
0.72493143848966	-1.4484502080224	-17.469743776071
0.72697926741195	-2.2512867131114	-16.249647500450
0.72902709633423	-1.8528921691046	-14.848317808661
0.73107492525652	-0.53422241785341	-14.234967684343
0.73312275417881	0.79028711634055	-14.829863491777
0.73517058310109	1.2070963091094	-16.217296043912
0.73721841202338	0.43390735229149	-17.436910958182
0.73926624094567	-0.98892147119240	-17.649281434422
0.74131406986796	-2.0756189393885	-16.714485230450
0.74336189879024	-2.0775729420659	-15.284937517146
0.74540972771253	-0.99863598881724	-14.351009091483
0.74745755663482	0.41150959328101	-14.555855216976
0.74950538555710	1.1785892279577	-15.753446640189
0.75155321447939	0.77720496692083	-17.113483663463
0.75360104340168	-0.50896757579781	-17.697926996809
0.75564887232397	-1.7871556262461	-17.108856939927
0.75769670124625	-2.1747241875647	-15.760249878987
0.75974453016854	-1.4081959712675	-14.588097212987
0.76179235909083	-0.021865184092698	-14.401810871791
0.76384018801311	1.0250168895318	-15.326327552623
