#Parameters = {offset=2.6683138333226; C_1=23.329215416694; C_2=87.065817235819; Conductivity_MoGr=1000000; Ip=90.137166712181; Pipe_lenght=40; Pipe_r=30; beta=1; cells_wave=20; d=-337.06581723582; half_gap_x=6.6707845833065; half_gap_y=30; half_gap_z=125; offset_x=1; offset_y=5; sigma_z=5; teta=15; thcoll=23.329215416694; translate_z=-212.06581723582; wakelength=20000}
#"Frequency / GHz"	"X [Re / Ohm]"	"X [Im / Ohm]"
#-----------------------------------------------
0.0000000000000	1.4195893569022e-12	24.671060146849
0.0020478289222872	20.870607860604	17.670141381688
0.0040956578445743	32.951439622529	-0.051128185201819
0.0061434867668615	31.829115029008	-20.371895772932
0.0081913156891487	19.471047018439	-34.538825434850
0.010239144611436	2.8379992124433	-37.525386838297
0.012286973533723	-10.007765725294	-30.193066704278
0.014334802456010	-14.061846980768	-18.216283963913
0.016382631378297	-9.5381814064798	-8.5808237721081
0.018430460300585	-1.0212139868736	-5.7626877296624
0.020478289222872	5.6424937414033	-9.7166138543902
0.022526118145159	6.7534852214485	-16.607385205448
0.024573947067446	2.5147988957065	-21.572891037900
0.026621775989733	-3.6836458008982	-21.707512131417
0.028669604912020	-7.7501621814681	-17.506207587668
0.030717433834308	-7.4737744169635	-12.095101459214
0.032765262756595	-3.6455168258518	-8.9630560819326
0.034813091678882	0.79907818869834	-9.7399059457502
0.036860920601169	2.8744254248823	-13.382523939886
0.038908749523456	1.4451682594729	-17.127478987273
0.040956578445743	-2.2403074062452	-18.435167284500
0.043004407368031	-5.5886218825573	-16.600380445076
0.045052236290318	-6.4652841077301	-13.034734225516
0.047100065212605	-4.5399918628017	-10.158390260763
0.049147894134892	-1.3462835402713	-9.7340691770282
0.051195723057179	0.87688006592611	-11.767459154292
0.053243551979466	0.71182357805518	-14.643519756494
0.055291380901754	-1.5671126090181	-16.314856389285
0.057339209824041	-4.3002093520889	-15.686202677964
0.059387038746328	-5.6406558625732	-13.271757382341
0.061434867668615	-4.7935227845531	-10.742843936096
0.063482696590902	-2.4745829420880	-9.7390159105165
0.065530525513189	-0.33599623977967	-10.777404100880
0.067578354435477	0.19505051043554	-12.977600412391
0.069626183357764	-1.1431159718958	-14.735063157928
0.071674012280051	-3.3401672604020	-14.838241508008
0.073721841202338	-4.8642177111689	-13.258558542089
0.075769670124625	-4.7196419956305	-11.103772342602
0.077817499046912	-3.0875863768095	-9.8116563359651
0.079865327969200	-1.1421667399802	-10.164778598381
0.081913156891487	-0.20845389744537	-11.796751518278
0.083960985813774	-0.86124047504340	-13.496804047027
0.086008814736061	-2.5736904450864	-14.068409724005
0.088056643658348	-4.1259502754946	-13.137120260544
0.090104472580635	-4.4625323619578	-11.365490386316
0.092152301502923	-3.3993636180888	-9.9573616523610
0.094200130425210	-1.7097884238863	-9.8182251193051
0.096247959347497	-0.55871853131873	-10.954295093168
0.098295788269784	-0.69575881756854	-12.506512247016
0.10034361719207	-1.9637003606277	-13.369698948182
0.10239144611436	-3.4423495507792	-12.953251677737
0.10443927503665	-4.1044919232999	-11.561931400997
0.10648710395893	-3.5186794229428	-10.153476727117
0.10853493288122	-2.1199373699788	-9.6618007643085
0.11058276180351	-0.88098005495432	-10.362056389634
0.11263059072579	-0.62981658141080	-11.707542832134
0.11467841964808	-1.4907812142040	-12.732043680912
0.11672624857037	-2.8248647068514	-12.723467334765
0.11877407749266	-3.6922945247115	-11.700606055339
0.12082190641494	-3.5041489101498	-10.375145201264
0.12286973533723	-2.4125318166668	-9.6423971107009
0.12491756425952	-1.1821005787112	-9.9637614328390
0.12696539318180	-0.64769156606750	-11.065656592104
0.12901322210409	-1.1415452386990	-12.150063833941
0.13106105102638	-2.2820618968735	-12.456629424767
0.13310887994867	-3.2569700431415	-11.781451317840
0.13515670887095	-3.3921833403895	-10.599511781806
0.13720453779324	-2.6089255700201	-9.7191633433046
0.13925236671553	-1.4599954809160	-9.7188838402872
0.14130019563781	-0.73280237202556	-10.557878901502
0.14334802456010	-0.90330892854552	-11.621831662427
0.14539585348239	-1.8187881868324	-12.160023220077
0.14744368240468	-2.8200670825071	-11.803583346231
0.14949151132696	-3.2073266409705	-10.807793757975
0.15153934024925	-2.7210293491667	-9.8600788082790
0.15358716917154	-1.7081143785037	-9.5969704456647
0.15563499809382	-0.86798215517414	-10.168797535917
0.15768282701611	-0.76343152329072	-11.149201149921
0.15973065593840	-1.4379382339087	-11.842552443839
0.16177848486069	-2.3989934512264	-11.768269580969
0.16382631378297	-2.9696720908311	-10.985369697963
0.16587414270526	-2.7580447388246	-10.038584634528
0.16792197162755	-1.9194160441578	-9.5723417395421
0.16996980054984	-1.0364412909005	-9.8856368492855
0.17201762947212	-0.70860137389623	-10.734799693517
0.17406545839441	-1.1398159717005	-11.513700176573
0.17611328731670	-2.0074581411440	-11.678788457763
0.17816111623898	-2.6962323596594	-11.121334588121
0.18020894516127	-2.7278866712170	-10.232329158521
0.18225677408356	-2.0870465788293	-9.6223917773951
0.18430460300585	-1.2215451897333	-9.6968976665409
0.18635243192813	-0.72420651495043	-10.381583993271
0.18840026085042	-0.92181706899660	-11.184009187647
0.19044808977271	-1.6559322760828	-11.541359570075
0.19249591869499	-2.4021812208961	-11.209288329417
0.19454374761728	-2.6388663009988	-10.423448853341
0.19659157653957	-2.2060697723714	-9.7273292978000
0.19863940546186	-1.4083658304846	-9.5917342938132
0.20068723438414	-0.79568186081752	-10.092032630232
0.20273506330643	-0.77963361861253	-10.864153379033
0.20478289222872	-1.3527293108377	-11.364058873993
0.20683072115100	-2.1017355620074	-11.246058174759
0.20887855007329	-2.5002541957815	-10.597139620617
0.21092637899558	-2.2736217230304	-9.8687278563111
0.21297420791787	-1.5834185665547	-9.5586582375880
0.21502203684015	-0.90790514581349	-9.8671712121462
0.21706986576244	-0.70645705240816	-10.564411646519
0.21911769468473	-1.1032188756925	-11.156803645348
0.22116552360701	-1.8076186305771	-11.232160221018
0.22321335252930	-2.3222140765594	-10.742432346452
0.22526118145159	-2.2894342786044	-10.030332202259
0.22730901037388	-1.7357155095066	-9.5860469895086
0.22935683929616	-1.0465325410250	-9.7065374535527
0.23140466821845	-0.69424969028263	-10.294036910387
0.23345249714074	-0.91074045098310	-10.930286684450
0.23550032606302	-1.5314983649235	-11.170578522410
0.23754815498531	-2.1158410626882	-10.851061489343
0.23959598390760	-2.2556412232675	-10.197115357120
0.24164381282989	-1.8564593186852	-9.6613498548057
0.24369164175217	-1.1975760902266	-9.6074688674993
0.24573947067446	-0.73312680427794	-10.060654475012
0.24778729959675	-0.77576912405324	-10.695638078498
0.24983512851903	-1.2830804588425	-11.066865680542
0.25188295744132	-1.8924701573404	-10.918041116590
0.25393078636361	-2.1765804510920	-10.356133377929
0.25597861528590	-1.9394181983188	-9.7718540618398
0.25802644420818	-1.3481471626783	-9.5654413561489
0.26007427313047	-0.81207867660313	-9.8700716992817
0.26212210205276	-0.69627270381329	-10.463913228518
0.26416993097504	-1.0700196085374	-10.928697103295
0.26621775989733	-1.6633752512508	-10.941601305349
0.26826558881962	-2.0586739083623	-10.496876355544
0.27031341774191	-1.9812761091304	-9.9051725689141
0.27236124666419	-1.4872657150806	-9.5742843773490
0.27440907558648	-0.91992880095636	-9.7259442831165
0.27645690450877	-0.66840650358451	-10.245240669039
0.27850473343106	-0.89809187440077	-10.764806027288
0.28055256235334	-1.4394546229677	-10.922283960570
0.28260039127563	-1.9098936164291	-10.610732263397
0.28464822019792	-1.9811671379624	-10.049018030979
0.28669604912020	-1.6055692044322	-9.6260395820868
0.28874387804249	-1.0450949849975	-9.6295386947372
0.29079170696478	-0.68611274995798	-10.048515320644
0.29283953588707	-0.77054002698471	-10.584832304075
0.29488736480935	-1.2304753248834	-10.863190726353
0.29693519373164	-1.7392375708166	-10.691681200231
0.29898302265393	-1.9406771888035	-10.192106028879
0.30103085157621	-1.6958799262204	-9.7116655680700
0.30307868049850	-1.1764511186716	-9.5799079245729
0.30512650942079	-0.74184659501501	-9.8810027910198
0.30717433834308	-0.68833764642693	-10.398627617904
0.30922216726536	-1.0448489559007	-10.769396439518
0.31126999618765	-1.5562852215364	-10.736094468198
0.31331782510994	-1.8635406202280	-10.324318652630
0.31536565403222	-1.7532421264636	-9.8212881265660
0.31741348295451	-1.3036101500221	-9.5739127794843
0.31946131187680	-0.82679853484987	-9.7480175771849
0.32150914079909	-0.65006781922460	-10.215767637467
0.32355696972137	-0.88912617679453	-10.647640367123
0.32560479864366	-1.3705569230872	-10.742869783667
0.32765262756595	-1.7552429101680	-10.437270819397
0.32970045648823	-1.7750192884636	-9.9449006528914
0.33174828541052	-1.4174678135047	-9.6066657370763
0.33379611433281	-0.93156759741072	-9.6528813057711
0.33584394325510	-0.65235169804764	-10.045100481277
0.33789177217738	-0.76799365755787	-10.505780128444
0.33993960109967	-1.1911871885769	-10.713120912469
0.34198743002196	-1.6226737519537	-10.524357648254
0.34403525894424	-1.7607958075129	-10.072616962874
0.34608308786653	-1.5103923317287	-9.6716957292700
0.34813091678882	-1.0464293629741	-9.5967969177002
0.35017874571111	-0.68990271181322	-9.8943797267078
0.35222657463339	-0.68397081085166	-10.352457176893
0.35427440355568	-1.0263948366702	-10.650175318188
0.35632223247797	-1.4737028448703	-10.581183100712
0.35837006140025	-1.7123673467722	-10.195337399955
0.36041789032254	-1.5766960057485	-9.7614794157620
0.36246571924483	-1.1620555379217	-9.5789374453737
0.36451354816712	-0.75610839284324	-9.7698728641809
0.36656137708940	-0.63756858045672	-10.196480826682
0.36860920601169	-0.88321834850209	-10.559108380560
0.37065703493398	-1.3167655278770	-10.605484441417
0.37270486385627	-1.6335272495324	-10.305012091850
0.37475269277855	-1.6128037194490	-9.8677467471800
0.37680052170084	-1.2699524385997	-9.5964675254045
0.37884835062313	-0.84341514577136	-9.6759752380165
0.38089617954541	-0.62731359937664	-10.046202584635
0.38294400846770	-0.76710374768813	-10.446222635171
0.38499183738999	-1.1602218529762	-10.597001668684
0.38703966631228	-1.5295434558754	-10.394935501068
0.38908749523456	-1.6170972439819	-9.9819705585349
0.39113532415685	-1.3626627312866	-9.6449012909132
0.39318315307914	-0.94364121274645	-9.6152426231103
0.39523098200142	-0.64987848718777	-9.9092915420087
0.39727881092371	-0.68172822687115	-10.318834306079
0.39932663984600	-1.0120109372353	-10.557538396927
0.40137446876829	-1.4069435221747	-10.460138348410
0.40342229769057	-1.5900752234605	-10.095886059979
0.40547012661286	-1.4343067222245	-9.7184183971823
0.40751795553515	-1.0486504994918	-9.5882707011250
0.40956578445743	-0.70054467655220	-9.7922019754314
0.41161361337972	-0.62903877806684	-10.184593929277
0.41366144230201	-0.87931481051086	-10.490459489206
0.41570927122430	-1.2730640380119	-10.497229349622
0.41775710014658	-1.5340631770433	-10.201588345956
0.41980492906887	-1.4805431770871	-9.8099605376611
0.42185275799116	-1.1504101649666	-9.5935737779753
0.42390058691344	-0.77308223891358	-9.6998363341252
0.42594841583573	-0.60877879229271	-10.051173109740
0.42799624475802	-0.76781355543754	-10.400718741968
0.43004407368031	-1.1353537244172	-10.504929150616
0.43209190260259	-1.4529310780113	-10.292446892917
0.43413973152488	-1.4988797723980	-9.9121609654500
0.43618756044717	-1.2417631992728	-9.6281355564661
0.43823538936945	-0.86061996233859	-9.6355278176261
0.44028321829174	-0.61907779347289	-9.9257941179858
0.44233104721403	-0.68182194887888	-10.294261332885
0.44437887613632	-1.0011628683094	-10.483663386771
0.44642670505860	-1.3518087479193	-10.363006676609
0.44847453398089	-1.4885454944954	-10.017431882846
0.45052236290318	-1.3164894800117	-9.6874522200996
0.45257019182546	-0.95572953133746	-9.6008970478318
0.45461802074775	-0.65634823732834	-9.8149647024244
0.45666584967004	-0.62392883504884	-10.177861994953
0.45871367859233	-0.87727528182591	-10.435715219516
0.46076150751461	-1.2367927640264	-10.409477230187
0.46280933643690	-1.4505922365868	-10.118579033191
0.46485716535919	-1.3697958269035	-9.7659520049469
0.46690499428147	-1.0510590482183	-9.5958554317548
0.46895282320376	-0.71573062026992	-9.7240925939911
0.47100065212605	-0.59504969007860	-10.058610384734
0.47304848104834	-0.76962208545719	-10.364900792669
0.47509630997062	-1.1145889498991	-10.429765016309
0.47714413889291	-1.3877592108671	-10.209099614480
0.47919196781520	-1.3985192094752	-9.8572811264082
0.48123979673749	-1.1397383341036	-9.6186140639097
0.48328762565977	-0.79140995482372	-9.6571518327564
0.48533545458206	-0.59441444257724	-9.9434151509892
0.48738328350435	-0.68292023128992	-10.276212547046
0.48943111242663	-0.99201522204215	-10.423471146763
0.49147894134892	-1.3041415706763	-10.283517325810
0.49352677027121	-1.4011459728395	-9.9547424667487
0.49557459919350	-1.2156967035023	-9.6659393898502
0.49762242811578	-0.87698867056553	-9.6166113270167
0.49967025703807	-0.61973692512928	-9.8386949707394
0.50171808596036	-0.62054596019538	-10.175521245831
0.50376591488264	-0.87571136865506	-10.391827035211
0.50581374380493	-1.2049905182819	-10.337585938169
0.50786157272722	-1.3778878616627	-10.051588193375
0.50990940164951	-1.2739911048901	-9.7332728956804
0.51195723057179	-0.96584279967001	-9.6032289257805
0.51400505949408	-0.66732872721940	-9.7499215816029
0.51605288841637	-0.58428086935435	-10.069128714869
0.51810071733865	-0.77163096969642	-10.337530530590
0.52014854626094	-1.0962339983897	-10.368509728336
0.52219637518323	-1.3304971719954	-10.141483134919
0.52424420410552	-1.3109892467083	-9.8151485606561
0.52629203302780	-1.0515109064530	-9.6161798108855
0.52833986195009	-0.73241221291928	-9.6814201797177
0.53038769087238	-0.57434139287276	-9.9634214606220
0.53243551979466	-0.68479048702979	-10.264519685744
0.53448334871695	-0.98414626694019	-10.375001528824
0.53653117763924	-1.2621054479558	-10.218797914893
0.53857900656153	-1.3244950521000	-9.9055012954722
0.54062683548381	-1.1280116590528	-9.6531525191958
0.54267466440610	-0.80939545119922	-9.6361825933696
0.54472249332839	-0.58940848928940	-9.8645378710315
0.54677032225067	-0.61903166511279	-10.177737842050
0.54881815117296	-0.87501937886067	-10.357317869766
0.55086598009525	-1.1770523607277	-10.278885659029
0.55291380901754	-1.3138733303247	-9.9979701944761
0.55496163793982	-1.1901849046158	-9.7104270225693
0.55700946686211	-0.89217712693544	-9.6156136069885
0.55905729578440	-0.62663989111366	-9.7779074397953
0.56110512470668	-0.57665903639100	-10.082749627740
0.56315295362897	-0.77458253939673	-10.317211559118
0.56520078255126	-1.0803870363981	-10.318436405648
0.56724861147355	-1.2798862060492	-10.086483295574
0.56929644039583	-1.2339122283595	-9.7833952142702
0.57134426931812	-0.97457724305389	-9.6197598285755
0.57339209824041	-0.68204209797489	-9.7081652990290
0.57543992716269	-0.55857304385842	-9.9855165159312
0.57748775608498	-0.68791650682327	-10.257801406164
0.57953558500727	-0.97774961730493	-10.335560159242
0.58158341392956	-1.2247421065376	-10.165477563880
0.58363124285184	-1.2563907959262	-9.8667101070748
0.58567907177413	-1.0507006116715	-9.6472107066320
0.58772690069642	-0.75068917764595	-9.6587996356531
0.58977472961871	-0.56418103656856	-9.8919759441927
0.59182255854099	-0.61909054712048	-10.183339169101
0.59387038746328	-0.87495494523627	-10.329892709199
0.59591821638557	-1.1518925264006	-10.230280709959
0.59796604530785	-1.2562785019280	-9.9547023084132
0.60001387423014	-1.1153443431725	-9.6952867887391
0.60206170315243	-0.82714336702015	-9.6319987817255
0.60410953207472	-0.59158484049117	-9.8076534194372
0.60615736099700	-0.57103395246682	-10.098833367913
0.60820518991929	-0.77767328690717	-10.302448434100
0.61025301884158	-1.0657580179145	-10.277238076838
0.61230084776386	-1.2336432673060	-10.041635653673
0.61434867668615	-1.1641697706334	-9.7602035675215
0.61639650560844	-0.90568114784590	-9.6285916410302
0.61844433453073	-0.63765676364079	-9.7374320875705
0.62049216345301	-0.54537893563005	-10.009843635298
0.62253999237530	-0.69114659022675	-10.255630510041
0.62458782129759	-0.97154317428577	-10.303977051941
0.62663565021987	-1.1900599336396	-10.122069851223
0.62868347914216	-1.1940841820465	-9.8372795182192
0.63073130806445	-0.98076613979668	-9.6479223039524
0.63277913698674	-0.69833320890261	-9.6851152843381
0.63482696590902	-0.54240326306105	-9.9219457688763
0.63687479483131	-0.61981851268349	-10.192869409136
0.63892262375360	-0.87477366126192	-10.309372533236
0.64097045267588	-1.1283066039858	-10.191096400298
0.64301828159817	-1.2032157481652	-9.9212261594678
0.64506611052046	-1.0472191600104	-9.6879741537623
0.64711393944275	-0.76876557089469	-9.6533131593038
0.64916176836503	-0.56097739857489	-9.8405013538520
0.65120959728732	-0.56705839349545	-10.118494376059
0.65325742620961	-0.78095835962199	-10.293674532907
0.65530525513189	-1.0521927581879	-10.244695284645
0.65735308405418	-1.1910387608977	-10.006537297944
0.65940091297647	-1.1005780321928	-9.7455577736178
0.66144874189876	-0.84369557426194	-9.6433180892477
0.66349657082104	-0.59872547065859	-9.7703086683749
0.66554439974333	-0.53501982201239	-10.037386912892
0.66759222866562	-0.69525357610599	-10.258376457083
0.66964005758790	-0.96625264311073	-10.279874978649
0.67168788651019	-1.1582778144697	-10.087772540441
0.67373571543248	-1.1372288593766	-9.8165240768164
0.67578354435477	-0.91766112727590	-9.6551047988543
0.67783137327705	-0.65210158758978	-9.7154212209150
0.67987920219934	-0.52448529173073	-9.9547992333917
0.68192703112163	-0.62215614533138	-10.206231556968
0.68397486004391	-0.87549815675220	-10.294953398855
0.68602268896620	-1.1069156205199	-10.159980500432
0.68807051788849	-1.1547071492711	-9.8960946579996
0.69011834681078	-0.98543790493562	-9.6873775139214
0.69216617573306	-0.71672514807089	-9.6788964359496
0.69421400465535	-0.53491764707776	-9.8759765068726
0.69626183357764	-0.56527914564979	-10.140993121937
0.69830966249993	-0.78510277854599	-10.289569738861
0.70035749142221	-1.0400160616868	-10.218946212193
0.70240532034450	-1.1517797838812	-9.9791512725711
0.70445314926679	-1.0423108664271	-9.7376902424066
0.70650097818907	-0.78763825797122	-9.6626666864264
0.70854880711136	-0.56451342399459	-9.8058843554903
0.71059663603365	-0.52716162974007	-10.067212960050
0.71264446495594	-0.70010851815399	-10.264723643369
0.71469229387822	-0.96155214450699	-10.261473630255
0.71674012280051	-1.1285445229516	-10.060591819405
0.71878795172280	-1.0844168685423	-9.8026489509384
0.72083578064508	-0.85970227114667	-9.6674579208634
0.72288360956737	-0.61043239175344	-9.7488988117758
0.72493143848966	-0.50922796997776	-9.9899014246567
0.72697926741195	-0.62519566609819	-10.222608818836
0.72902709633423	-0.87618830961277	-10.285461495282
0.73107492525652	-1.0864030244524	-10.135539433015
0.73312275417881	-1.1089365443335	-9.8780498756051
0.73517058310109	-0.92786859744766	-9.6927070909805
0.73721841202338	-0.66894115208656	-9.7085161907728
0.73926624094567	-0.51168126786703	-9.9141992586306
0.74131406986796	-0.56437728525832	-10.166453603982
0.74336189879024	-0.78896962188814	-10.290009647714
0.74540972771253	-1.0279475471898	-10.199630483655
0.74745755663482	-1.1142491497438	-9.9591391070498
0.74950538555710	-0.98748960373705	-9.7366007902937
0.75155321447939	-0.73566131197334	-9.6871281106427
0.75360104340168	-0.53351325184683	-9.8450249848233
0.75564887232397	-0.52075809325578	-10.100260698848
0.75769670124625	-0.70498591667300	-10.275403012000
