#Parameters = {Conductivity_Mo=17900000; offset=1.0022162318482; C_1=27.494459420379; C_2=102.6107194835; Ip=106.230433736; Pipe_lenght=40; Pipe_r=30; beta=1; cells_wave=20; d=-402.6107194835; half_gap_x=30; half_gap_y=2.5055405796205; half_gap_z=150; mu_copper=0.999994; offset_x=5; offset_y=1; sigma_z=5; teta=15; thcoll=27.494459420379; translate_z=-252.6107194835; wakelength=20000}
#"Frequency / GHz"	"Y [Re / Ohm]"	"Y [Im / Ohm]"
#-----------------------------------------------
0.0000000000000	-7.2870259938154e-12	-265.97526034495
0.0020478289222872	-88.223529919891	-236.90982547118
0.0040956578445743	-139.97457170199	-163.33967482287
0.0061434867668615	-136.96257131225	-78.978933523374
0.0081913156891487	-87.398518510903	-20.145732845839
0.010239144611436	-20.214537935899	-7.6519423275857
0.012286973533723	31.121386962245	-37.839010647768
0.014334802456010	45.889781090724	-87.071322717804
0.016382631378297	25.079313940776	-126.31074445026
0.018430460300585	-12.168645078764	-137.00349086244
0.020478289222872	-41.509322269555	-119.42364661031
0.022526118145159	-47.577355529765	-89.600319147103
0.024573947067446	-31.270986310363	-67.798905529630
0.026621775989733	-6.7460121542739	-66.102787057602
0.028669604912020	8.9487247626873	-82.418779322269
0.030717433834308	6.6254463574279	-103.70437780973
0.032765262756595	-10.387603475053	-115.43068168396
0.034813091678882	-29.838017184358	-110.83698831732
0.036860920601169	-39.287696718316	-94.308210737408
0.038908749523456	-34.029887374923	-77.387899837554
0.040956578445743	-19.299869657096	-70.665572809438
0.043004407368031	-5.9297385069901	-77.065572690445
0.045052236290318	-2.8195659921718	-90.681745519206
0.047100065212605	-11.330887705246	-101.41238085162
0.049147894134892	-25.049527943436	-101.91487218442
0.051195723057179	-34.629869622559	-92.188466629050
0.053243551979466	-34.169434682795	-78.994336511107
0.055291380901754	-24.837540173060	-70.885692011518
0.057339209824041	-13.584482836418	-72.425642901925
0.059387038746328	-8.1293295874007	-81.448569664045
0.061434867668615	-11.784090381431	-90.959524306546
0.063482696590902	-21.543506354600	-94.108306057451
0.065530525513189	-30.494393693802	-88.746896295446
0.067578354435477	-32.675850228070	-78.572502709142
0.069626183357764	-27.010372640355	-70.303393010737
0.071674012280051	-17.742075839339	-69.002312134148
0.073721841202338	-11.289401279217	-74.773973696538
0.075769670124625	-11.815169513416	-82.967462999593
0.077817499046912	-18.548582339187	-87.558515363879
0.079865327969200	-26.562024167351	-85.277120213411
0.081913156891487	-30.304153816968	-77.671835691841
0.083960985813774	-27.377263606691	-69.826641704204
0.086008814736061	-20.005587108217	-66.756710085728
0.088056643658348	-13.315321408271	-70.020990793111
0.090104472580635	-11.733908821496	-76.825474943084
0.092152301502923	-16.023847995063	-82.109537601674
0.094200130425210	-22.926653958510	-82.074033722898
0.096247959347497	-27.544816173963	-76.703468578587
0.098295788269784	-26.734224795444	-69.618143234567
0.10034361719207	-21.167981652858	-65.466839566678
0.10239144611436	-14.726762982340	-66.726536793727
0.10443927503665	-11.735108270316	-72.102974701666
0.10648710395893	-14.002741104015	-77.555351345930
0.10853493288122	-19.687445374214	-79.149564869896
0.11058276180351	-24.684276197559	-75.733174759844
0.11263059072579	-25.504352522291	-69.619968437194
0.11467841964808	-21.631580772535	-64.889744449728
0.11672624857037	-15.771628893334	-64.544289242404
0.11877407749266	-11.896265025635	-68.495657626592
0.12082190641494	-12.490041308695	-73.729186148814
0.12286973533723	-16.902538993666	-76.457898789681
0.12491756425952	-21.893777035712	-74.734203054722
0.12696539318180	-23.930440018147	-69.722455798790
0.12901322210409	-21.610622189965	-64.805998923218
0.13106105102638	-16.557530670601	-63.205340071825
0.13310887994867	-12.218245061867	-65.779639621382
0.13515670887095	-11.450957725245	-70.508279540953
0.13720453779324	-14.585543025717	-73.957510065008
0.13925236671553	-19.269929633825	-73.671917025020
0.14130019563781	-22.156573274990	-69.828608943719
0.14334802456010	-21.223591930086	-65.042901122223
0.14539585348239	-17.124383897809	-62.509405364462
0.14744368240468	-12.668041153456	-63.796367817302
0.14949151132696	-10.836289993808	-67.813074014488
0.15153934024925	-12.733919037297	-71.626873074758
0.15358716917154	-16.878865468214	-72.522091402664
0.15563499809382	-20.284398763038	-69.857950221187
0.15768282701611	-20.546451323851	-65.456747571002
0.15973065593840	-17.479795046217	-62.292467862457
0.16177848486069	-13.191751192902	-62.420790333228
0.16382631378297	-10.580409200235	-65.588942379986
0.16587414270526	-11.325276733201	-69.463287315894
0.16792197162755	-14.761442306708	-71.280651962152
0.16996980054984	-18.389854870973	-69.756890463672
0.17201762947212	-19.636167046109	-65.936241987566
0.17406545839441	-17.622150966935	-62.421831829337
0.17611328731670	-13.732501167488	-61.551692650358
0.17816111623898	-10.613820298673	-63.796537536737
0.18020894516127	-10.327415538720	-67.475613792430
0.18225677408356	-12.943535261372	-69.957988465010
0.18430460300585	-16.534232599187	-69.492319893627
0.18635243192813	-18.540870154001	-66.393993658567
0.18840026085042	-17.547792092435	-62.786322496528
0.19044808977271	-14.234018849093	-61.102921405938
0.19249591869499	-10.864596574648	-62.406136829976
0.19454374761728	-9.7002215988777	-65.682124544566
0.19659157653957	-11.440500295263	-68.578745749663
0.19863940546186	-14.771621092651	-69.050829497935
0.20068723438414	-17.308934839442	-66.763152285105
0.20273506330643	-17.259507360441	-63.289783172945
0.20478289222872	-14.646646908430	-60.994716613537
0.20683072115100	-11.261132131471	-61.388626243299
0.20887855007329	-9.3956259102220	-64.102897740024
0.21092637899558	-10.255638335481	-67.176671066699
0.21297420791787	-13.147396379231	-68.436104840023
0.21502203684015	-15.988688103741	-66.996635840613
0.21706986576244	-16.768005915816	-63.850976124888
0.21911769468473	-14.930371572275	-61.153118040280
0.22116552360701	-11.735931249056	-60.713651878685
0.22321335252930	-9.3611365338567	-62.756617160962
0.22526118145159	-9.3826945072270	-65.790602489955
0.22730901037388	-11.699498160779	-67.664951103855
0.22935683929616	-14.628884924763	-67.063861018705
0.23140466821845	-16.092290202861	-64.401148715726
0.23345249714074	-15.055584527588	-61.507960076559
0.23550032606302	-12.226726297275	-60.347466541508
0.23754815498531	-9.5408407199398	-61.657997351773
0.23959598390760	-8.8062607505351	-64.461729359819
0.24164381282989	-10.458183042645	-66.764968460938
0.24369164175217	-13.278300872559	-66.949239323216
0.24573947067446	-15.259764568892	-64.883181968707
0.24778729959675	-15.004008507889	-61.991970385771
0.24983512851903	-12.677810358640	-60.251245244479
0.25188295744132	-9.8762241811349	-60.815171105472
0.25393078636361	-8.5013053454109	-63.230748329928
0.25597861528590	-9.4442920769369	-65.772647693392
0.25802644420818	-11.983729287274	-66.652063971448
0.26007427313047	-14.305391646533	-65.253118114178
0.26212210205276	-14.769972812840	-62.542722975541
0.26416993097504	-13.043241310340	-60.381846804652
0.26621775989733	-10.309999631082	-60.228220907110
0.26826558881962	-8.4359756997931	-62.134346665563
0.27031341774191	-8.6700308447721	-64.729065336688
0.27236124666419	-10.788951166940	-66.182914125620
0.27440907558648	-13.270008980973	-65.478045183012
0.27645690450877	-14.359285304426	-63.101629496176
0.27850473343106	-13.286646517973	-60.690804286978
0.28055256235334	-10.786149703252	-59.887263630078
0.28260039127563	-8.5706899411343	-61.202456885935
0.28464822019792	-8.1364036358486	-63.677406746279
0.28669604912020	-9.7309544389139	-65.562822249226
0.28874387804249	-12.196772237183	-65.537549357710
0.29079170696478	-13.787440591237	-63.617031178489
0.29283953588707	-13.381816149933	-61.127452337885
0.29488736480935	-11.252174609673	-59.774054956527
0.29693519373164	-8.8604374831362	-60.457820764248
0.29898302265393	-7.8341655172667	-62.661305574131
0.30103085157621	-8.8392582574445	-64.821921488335
0.30307868049850	-11.129828508096	-65.423822379561
0.30512650942079	-13.079132932217	-64.045728196651
0.30717433834308	-13.313969129999	-61.640691360059
0.30922216726536	-11.661778632331	-59.862506816392
0.31126999618765	-9.2575292737819	-59.914540439641
0.31331782510994	-7.7452018906639	-61.721977745645
0.31536565403222	-8.1354006876019	-63.996581767046
0.31741348295451	-10.112630081725	-65.140077490105
0.31946131187680	-12.266783511105	-64.352919303392
0.32150914079909	-13.079500712919	-62.179534828480
0.32355696972137	-11.975699278214	-60.118502876489
0.32560479864366	-9.7123120901095	-59.576468329171
0.32765262756595	-7.8417717495922	-60.895758780151
0.32970045648823	-7.6302713402788	-63.127632625998
0.33174828541052	-9.1843095511392	-64.700915795248
0.33379611433281	-11.387807868905	-64.515018351341
0.33584394325510	-12.685728141059	-62.697190950389
0.33789177217738	-12.164209181053	-60.503222425361
0.33993960109967	-10.177184345147	-59.438138049855
0.34198743002196	-8.0900431998525	-60.212372528102
0.34403525894424	-7.3256493678806	-62.257147940733
0.34608308786653	-8.3790407790619	-64.129405846862
0.34813091678882	-10.482890515367	-64.518236004764
0.35017874571111	-12.149536064746	-63.151093490842
0.35222657463339	-12.206885055894	-60.973550709813
0.35427440355568	-10.607064436609	-59.484423939963
0.35632223247797	-8.4501052678212	-59.693594566886
0.35837006140025	-7.2128835254034	-61.426985707356
0.36041789032254	-7.7236090053329	-63.456832022689
0.36246571924483	-9.5937577113624	-64.360256146197
0.36451354816712	-11.496893206607	-63.505918610067
0.36656137708940	-12.094512878120	-61.484765828357
0.36860920601169	-10.962850736621	-59.691181009133
0.37065703493398	-8.8790799641092	-59.351236886511
0.37270486385627	-7.2738479325920	-60.675090883276
0.37475269277855	-7.2356443747344	-62.719312524890
0.37680052170084	-8.7597237029096	-64.048954252385
0.37884835062313	-10.759672184394	-63.734883865538
0.38089617954541	-11.827816285318	-61.993365505043
0.38294400846770	-11.212380470575	-60.027781663466
0.38499183738999	-9.3332446893145	-59.188031553680
0.38703966631228	-7.4826195435110	-60.034652131259
0.38908749523456	-6.9238554533801	-61.956345138996
0.39113532415685	-8.0167364066689	-63.601718174768
0.39318315307914	-9.9747276032246	-63.820441618313
0.39523098200142	-11.417764117261	-62.458505768020
0.39727881092371	-11.332187748250	-60.457934514321
0.39932663984600	-9.7702634144913	-59.196772635072
0.40137446876829	-7.8066798985565	-59.531656912537
0.40342229769057	-6.7872606082366	-61.208027280171
0.40547012661286	-7.3949753329884	-63.043910388369
0.40751795553515	-9.1812940748027	-63.754785133797
0.40956578445743	-10.884329511356	-62.843995863146
0.41161361337972	-11.308229033847	-60.941621052477
0.41366144230201	-10.151096862495	-59.360726068234
0.41570927122430	-8.2083777204986	-59.183417609153
0.41775710014658	-6.8148618714577	-60.512721744127
0.41980492906887	-6.9166420042897	-62.407382505249
0.42185275799116	-8.4181440575133	-63.540422557504
0.42390058691344	-10.254777019405	-63.120789635300
0.42594841583573	-11.136375971434	-61.438080149139
0.42799624475802	-10.442359112197	-59.655351158167
0.43004407368031	-8.6476244500337	-58.998117627985
0.43209190260259	-6.9870093485948	-59.904950362021
0.43413973152488	-6.5952978702275	-61.728280992100
0.43618756044717	-7.7216091680948	-63.189404939369
0.43823538936945	-9.5619370547109	-63.268060926373
0.44028321829174	-10.822245424477	-61.907818421121
0.44233104721403	-10.617824708573	-60.049685763438
0.44437887613632	-9.0839564220255	-58.974498503109
0.44642670505860	-7.2764768303058	-59.413572871934
0.44847453398089	-6.4351138260358	-61.045039892420
0.45052236290318	-7.1234898012538	-62.722644744695
0.45257019182546	-8.8422698315147	-63.274462156526
0.45461802074775	-10.380881590534	-62.315062037898
0.45666584967004	-10.660132131829	-60.508374499129
0.45871367859233	-9.4793044291849	-59.102083001965
0.46076150751461	-7.6506296923726	-59.060005859028
0.46280933643690	-6.4311952194624	-60.395705617456
0.46485716535919	-6.6495583663978	-62.167984660116
0.46690499428147	-8.1337796784923	-63.137963998909
0.46895282320376	-9.8356280286030	-62.629084937751
0.47100065212605	-10.561363066112	-60.993127239836
0.47304848104834	-9.7996934121921	-59.361328925167
0.47509630997062	-8.0727382030615	-58.856620150945
0.47714413889291	-6.5691662947873	-59.815479164112
0.47919196781520	-6.3172291003043	-61.558548020106
0.48123979673749	-7.4729403545591	-62.866291126013
0.48328762565977	-9.2160890795001	-62.826711369107
0.48533545458206	-10.323247556214	-61.465939851858
0.48738328350435	-10.017518360604	-59.725761067370
0.48943111242663	-8.5048942507807	-58.806700417349
0.49147894134892	-6.8270077069559	-59.334825275965
0.49352677027121	-6.1354467453270	-60.930446347071
0.49557459919350	-6.8931460388063	-62.475769886951
0.49762242811578	-8.5566012219476	-62.892874608562
0.49967025703807	-9.9569813356238	-61.890608267674
0.50171808596036	-10.112940484768	-60.162947314526
0.50376591488264	-8.9099590637198	-58.903759781611
0.50581374380493	-7.1760061546269	-58.977211160641
0.50786157272722	-6.1036842294312	-60.320213619490
0.50990940164951	-6.4221054301284	-61.990044205824
0.51195723057179	-7.8934668665650	-62.821408245621
0.51400505949408	-9.4818567235884	-62.235033597292
0.51605288841637	-10.074517590621	-60.636781316978
0.51810071733865	-9.2534326748854	-59.132351546741
0.52014854626094	-7.5822823133737	-58.758089603124
0.52219637518323	-6.2118450520014	-59.762935048484
0.52424420410552	-6.0800428274496	-61.438963363081
0.52629203302780	-7.2626539776015	-62.615799045082
0.52833986195009	-8.9241074364429	-62.473638285245
0.53038769087238	-9.9001356368500	-61.110158461812
0.53243551979466	-9.5060335801464	-59.469344215407
0.53448334871695	-8.0094717395982	-58.683986484895
0.53653117763924	-6.4414233311063	-59.289772143056
0.53857900656153	-5.8787213753821	-60.856155685456
0.54062683548381	-6.6974593989108	-62.288316211422
0.54267466440610	-8.3148154045190	-62.588454756173
0.54472249332839	-9.5964729160987	-61.547102892252
0.54677032225067	-9.6448590071175	-59.885537185700
0.54881815117296	-8.4205013579576	-58.752541514242
0.55086598009525	-6.7664146365110	-58.926597937667
0.55291380901754	-5.8206961834209	-60.277518025271
0.55496163793982	-6.2265941387780	-61.859778913987
0.55700946686211	-7.6882718104800	-62.570707455127
0.55905729578440	-9.1790142524973	-61.915383689323
0.56110512470668	-9.6553695584887	-60.347716685607
0.56315295362897	-8.7805368321482	-58.952685544502
0.56520078255126	-7.1555521571701	-58.692170137471
0.56724861147355	-5.8996292250213	-59.738551768997
0.56929644039583	-5.8726471241857	-61.357722095337
0.57134426931812	-7.0798730310500	-62.420838055297
0.57339209824041	-8.6709703426619	-62.188100464879
0.57543992716269	-9.5321174513141	-60.820410407585
0.57748775608498	-9.0589546529874	-59.265079878843
0.57953558500727	-7.5740129440341	-58.596742281345
0.58158341392956	-6.1003512285866	-59.271988853709
0.58363124285184	-5.6502513435711	-60.814666488485
0.58567907177413	-6.5234850135536	-62.148701972359
0.58772690069642	-8.1015607248132	-62.345831433245
0.58977472961871	-9.2791296509356	-61.268700745435
0.59182255854099	-9.2316592235290	-59.663842872306
0.59387038746328	-7.9862598639836	-58.641653764768
0.59591821638557	-6.4005226166709	-58.905585505118
0.59796604530785	-5.5656966819978	-60.265588377712
0.60001387423014	-6.0495269321346	-61.772300137418
0.60206170315243	-7.5040661713261	-62.377256499155
0.60410953207472	-8.9093408861051	-61.660025512261
0.60615736099700	-9.2822470205593	-60.118023310438
0.60820518991929	-8.3580165155965	-58.819268941661
0.61025301884158	-6.7719185382265	-58.660474527925
0.61230084776386	-5.6165379881662	-59.745810269905
0.61434867668615	-5.6831486298005	-61.316690663813
0.61639650560844	-6.9138903489879	-62.279850207800
0.61844433453073	-8.4439871782797	-61.966118533385
0.62049216345301	-9.2032652562705	-60.593308839906
0.62253999237530	-8.6585936284269	-59.113058962596
0.62458782129759	-7.1822135973772	-58.549306864869
0.62663565021987	-5.7915196580604	-59.288226608450
0.62868347914216	-5.4421907371428	-60.811988926016
0.63073130806445	-6.3657626952888	-62.059866080142
0.63277913698674	-7.9107650373523	-62.164877772476
0.63482696590902	-8.9963886051049	-61.054428940839
0.63687479483131	-8.8627762115895	-59.498857151009
0.63892262375360	-7.5971227424937	-58.575483477810
0.64097045267588	-6.0713644927818	-58.921025057179
0.64301828159817	-5.3359574475272	-60.291108504272
0.64506611052046	-5.8912038358999	-61.731583551594
0.64711393944275	-7.3415529058031	-62.241547874645
0.64916176836503	-8.6717168973123	-61.467380622325
0.65120959728732	-8.9518654860284	-59.946570349672
0.65325742620961	-7.9821140881817	-58.733241259038
0.65530525513189	-6.4296287395150	-58.666266476229
0.65735308405418	-5.3643338541857	-59.788093146036
0.65940091297647	-5.5163177634994	-61.316886344090
0.66144874189876	-6.7703115834269	-62.190198981348
0.66349657082104	-8.2472380091843	-61.802128124279
0.66554439974333	-8.9151495800401	-60.422528513474
0.66759222866562	-8.3049873768288	-59.008265124226
0.66964005758790	-6.8347410841825	-58.538516635603
0.67168788651019	-5.5180136706098	-59.335845239051
0.67373571543248	-5.2601810425132	-60.843748176835
0.67578354435477	-6.2308632985574	-62.014072441705
0.67783137327705	-7.7476240865056	-62.034598809911
0.67987920219934	-8.7506117856573	-60.891763613679
0.68192703112163	-8.5380355117755	-59.378683298629
0.68397486004391	-7.2521249292449	-58.543887543850
0.68602268896620	-5.7790946304658	-58.963912172132
0.68807051788849	-5.1334649394730	-60.344354768973
0.69011834681078	-5.7544503778723	-61.725424422880
0.69216617573306	-7.2023690279552	-62.148476055226
0.69421400465535	-8.4648939013590	-61.320671007249
0.69626183357764	-8.6598377847409	-59.816962601433
0.69830966249993	-7.6466020965899	-58.680110148554
0.70035749142221	-6.1225194573618	-58.696978070765
0.70240532034450	-5.1380969623926	-59.853362033371
0.70445314926679	-5.3681316293749	-61.345035315291
0.70650097818907	-6.6444010819551	-62.136515281637
0.70854880711136	-8.0735236034337	-61.679340680266
0.71059663603365	-8.6574137474759	-60.291644185863
0.71264446495594	-7.9854421677958	-58.936354625273
0.71469229387822	-6.5183225335038	-58.552662484670
0.71674012280051	-5.2674830479469	-59.404874962992
0.71878795172280	-5.0930563592755	-60.900076022127
0.72083578064508	-6.1077162826094	-62.000364631504
0.72288360956737	-7.5995396507935	-61.943060970026
0.72493143848966	-8.5266813327951	-60.769148733097
0.72697926741195	-8.2401510281869	-59.293834558100
0.72902709633423	-6.9332923335262	-58.540358214901
0.73107492525652	-5.5066868332874	-59.030280351855
0.73312275417881	-4.9428806293593	-60.422475317759
0.73517058310109	-5.6250457887270	-61.750685645273
0.73721841202338	-7.0720212890852	-62.094210347632
0.73926624094567	-8.2729314082694	-61.216214233580
0.74131406986796	-8.3886793866786	-59.727151960984
0.74336189879024	-7.3335382999131	-58.660556176752
0.74540972771253	-5.8337544372993	-58.755972356937
0.74745755663482	-4.9231220727003	-59.946518198135
0.74950538555710	-5.2258765083006	-61.406120972819
0.75155321447939	-6.5243149022164	-62.123072827826
0.75360104340168	-7.9106130557641	-61.601687969035
0.75564887232397	-8.4169666096840	-60.205459891828
0.75769670124625	-7.6866772587436	-58.904174764985
0.75974453016854	-6.2208701707310	-58.600916513464
0.76179235909083	-5.0302144277244	-59.505979022484
0.76384018801311	-4.9336970621575	-60.991713880206
