#Parameters = {C_1=26.243897880769; C_2=601.08408413811; Conductivity=10000000; Conductivity_Mo=17900000; Conductivity_MoGr=1000000; Ip=601.65672802697; Pipe_lenght=40; Pipe_r=30; beta=1; cells_wave=30; conductivity_copper=59500000; d=-901.08408413811; half_gap_x=3.7561021192308; half_gap_y=30; half_gap_z=150; mu_copper=0.999994; offset=1.5024408476923; offset_x=1; offset_y=5; sigma_z=5; teta=2.5; thcoll=26.243897880769; translate_z=-751.08408413811; wakelength=20000}
#"Frequency / GHz"	"Z [Re / Ohm]"	"Z [Im / Ohm]"
#-----------------------------------------------
0.0000000000000	-0.20871929378672	-1.7368069560311e-13
0.0020478289222872	-0.18377999086676	0.095480803601437
0.0040956578445743	-0.11934432712123	0.16174376353534
0.0061434867668615	-0.041392398387087	0.18303991972628
0.0081913156891487	0.021203199501738	0.16356130415180
0.010239144611436	0.050125955132387	0.12379686433972
0.012286973533723	0.044842720119530	0.089169271088898
0.014334802456010	0.020314001015998	0.077357742336415
0.016382631378297	-0.0027984366610263	0.091007275629482
0.018430460300585	-0.0095250671689274	0.11910671999957
0.020478289222872	0.0026658512365384	0.14531789581509
0.022526118145159	0.024853387113740	0.15788910087050
0.024573947067446	0.043835106129472	0.15547300195465
0.026621775989733	0.050619970512686	0.14611342652517
0.028669604912020	0.045179266003624	0.14089526336887
0.030717433834308	0.035158625570272	0.14668576744361
0.032765262756595	0.030090356011026	0.16242082630813
0.034813091678882	0.035169474367682	0.18075724348252
0.036860920601169	0.048472697363785	0.19344949954894
0.038908749523456	0.062968247087276	0.19669486043370
0.040956578445743	0.071550317654635	0.19309653009862
0.043004407368031	0.071611560057105	0.18934406804466
0.045052236290318	0.066289091166397	0.19149879431819
0.047100065212605	0.061893639516203	0.20112138644111
0.049147894134892	0.063512897849935	0.21465718064811
0.051195723057179	0.071784540169596	0.22619913116247
0.053243551979466	0.082836403701001	0.23155998117680
0.055291380901754	0.091183521937569	0.23089943899749
0.057339209824041	0.093465535976453	0.22829983105893
0.059387038746328	0.090514571453226	0.22879131403853
0.061434867668615	0.086513130309458	0.23496075101680
0.063482696590902	0.085995169341529	0.24540557820114
0.065530525513189	0.090811985200839	0.25593101272339
0.067578354435477	0.099071543530812	0.26252314700801
0.069626183357764	0.10663134504816	0.26401776488954
0.071674012280051	0.10999994926673	0.26271188148434
0.073721841202338	0.10863564208769	0.26263196598097
0.075769670124625	0.10514603695974	0.26674534363340
0.077817499046912	0.10337175992183	0.27503266688933
0.079865327969200	0.10574769999280	0.28466194565181
0.081913156891487	0.11174366545857	0.29203743195279
0.083960985813774	0.11837272854817	0.29525618537569
0.086008814736061	0.12232339565574	0.29530616608186
0.088056643658348	0.12220649394174	0.29526372448614
0.090104472580635	0.11940297828678	0.29812446821000
0.092152301502923	0.11700807887264	0.30478854766645
0.094200130425210	0.11766838695655	0.31354822593883
0.096247959347497	0.12181682258238	0.32135583007538
0.098295788269784	0.12747701849333	0.32594059917129
0.10034361719207	0.13170212992454	0.32731142699233
0.10239144611436	0.13260939105882	0.32765750028963
0.10443927503665	0.13061281729248	0.32977938598979
0.10648710395893	0.12805361934437	0.33516907544694
0.10853493288122	0.12754103252542	0.34305028714081
0.11058276180351	0.13017515979632	0.35099097529803
0.11263059072579	0.13485864505432	0.35661421637147
0.11467841964808	0.13912271442964	0.35920859554642
0.11672624857037	0.14085296864145	0.36015111688818
0.11877407749266	0.13971336136573	0.36189858469271
0.12082190641494	0.13731367083013	0.36628153792829
0.12286973533723	0.13605031493546	0.37328189457584
0.12491756425952	0.13745208032802	0.38110722593560
0.12696539318180	0.14117017150754	0.38746792506103
0.12901322210409	0.14527719579454	0.39115049769647
0.13106105102638	0.14762966075793	0.39280868024114
0.13310887994867	0.14733426890549	0.39445968458026
0.13515670887095	0.14531800395591	0.39806858192395
0.13720453779324	0.14364199357556	0.40421159049387
0.13925236671553	0.14406405131819	0.41172514756813
0.14130019563781	0.14685050372592	0.41855005147112
0.14334802456010	0.15063869196442	0.42316085988517
0.14539585348239	0.15341323044412	0.42559031661074
0.14744368240468	0.15389923074559	0.42736271915040
0.14949151132696	0.15241158998730	0.43041243875067
0.15153934024925	0.15059676803197	0.43575281045468
0.15358716917154	0.15027348681805	0.44280954201628
0.15563499809382	0.15218715738529	0.44985509901067
0.15768282701611	0.15552975298521	0.45521840066859
0.15973065593840	0.15853242809045	0.45842422818143
0.16177848486069	0.15969862314275	0.46048680106637
0.16382631378297	0.15881969958611	0.46317892816897
0.16587414270526	0.15708539185305	0.46780158954308
0.16792197162755	0.15623636213514	0.47430648772849
0.16996980054984	0.15736125049593	0.48136199279865
0.17201762947212	0.16016851024368	0.48729436964971
0.17406545839441	0.16321897834567	0.49124017176745
0.17611328731670	0.16493734209372	0.49371739287436
0.17816111623898	0.16469291914894	0.49623878173377
0.18020894516127	0.16320942939961	0.50025395270823
0.18225677408356	0.16203910126205	0.50615895060902
0.18430460300585	0.16248200441046	0.51304892210266
0.18635243192813	0.16470211626996	0.51936628365801
0.18840026085042	0.16764030862292	0.52398111620297
0.19044808977271	0.16976621601988	0.52695520537569
0.19249591869499	0.17013629818916	0.52947389179414
0.19454374761728	0.16902749461550	0.53301030778229
0.19659157653957	0.16772187094557	0.53831034700375
0.19863940546186	0.16760758070456	0.54489690706222
0.20068723438414	0.16922587247997	0.55142193671806
0.20273506330643	0.17191773245274	0.55660773035720
0.20478289222872	0.17429985539821	0.56012086252828
0.20683072115100	0.17522718443305	0.56278162212773
0.20887855007329	0.17457299483534	0.56597882245865
0.21092637899558	0.17329577719478	0.57070662377252
0.21297420791787	0.17276111776548	0.57689066720559
0.21502203684015	0.17379771072156	0.58345960672571
0.21706986576244	0.17613950342133	0.58909865139846
0.21911769468473	0.17862892052763	0.59315566511308
0.22116552360701	0.18002747969941	0.59607588474444
0.22321335252930	0.17986674993895	0.59907609395458
0.22526118145159	0.17875551776511	0.60329574491394
0.22730901037388	0.17794255850118	0.60901666949872
0.22935683929616	0.17844838976493	0.61548517963218
0.23140466821845	0.18036921471534	0.62144767731054
0.23345249714074	0.18282736051554	0.62601965842827
0.23550032606302	0.18459073879818	0.62928613607991
0.23754815498531	0.18492462879082	0.63222632879429
0.23959598390760	0.18408737490105	0.63602605860629
0.24164381282989	0.18313605108798	0.64126020601502
0.24369164175217	0.18318725992887	0.64750842039704
0.24573947067446	0.18464958175846	0.65366043697999
0.24778729959675	0.18695491224007	0.65868985029016
0.24983512851903	0.18896475162706	0.66235744327428
0.25188295744132	0.18976138768655	0.66536247085079
0.25393078636361	0.18927453363014	0.66884711622516
0.25597861528590	0.18831590495903	0.67360485771023
0.25802644420818	0.18800756447055	0.67954104359367
0.26007427313047	0.18900626691548	0.68575201419211
0.26212210205276	0.19105967278930	0.69115860215786
0.26416993097504	0.19319395576343	0.69525022047517
0.26621775989733	0.19439407419639	0.69842678200249
0.26826558881962	0.19430182295644	0.70170985692769
0.27031341774191	0.19345191405548	0.70603119049446
0.27236124666419	0.19289098192309	0.71159378263108
0.27440907558648	0.19345061438315	0.71774335076201
0.27645690450877	0.19517906565869	0.72343079478682
0.27850473343106	0.19731973104887	0.72793908211965
0.28055256235334	0.19884305908365	0.73137117542082
0.28260039127563	0.19915823993149	0.73456723938203
0.28464822019792	0.19851296676165	0.73851636846409
0.28669604912020	0.19781106411714	0.74367446181346
0.28874387804249	0.19798171562366	0.74965841496356
0.29079170696478	0.19934025686651	0.75552143472840
0.29283953588707	0.20138002656517	0.76041197678649
0.29488736480935	0.20313227907004	0.76415793154951
0.29693519373164	0.20383877737154	0.76737550491420
0.29898302265393	0.20347031396794	0.77103455106010
0.30103085157621	0.20273678834176	0.77578671376734
0.30307868049850	0.20258888766059	0.78152158055943
0.30512650942079	0.20356094645842	0.78745293490497
0.30717433834308	0.20540901427040	0.79266862159164
0.30922216726536	0.20728905749892	0.79675966073163
0.31126999618765	0.20834553093570	0.80009489900486
0.31331782510994	0.20830008368449	0.80355700698822
0.31536565403222	0.20763549219398	0.80792849789341
0.31741348295451	0.20725360510304	0.81335465961287
0.31946131187680	0.20784942524640	0.81925182637607
0.32150914079909	0.20943556010267	0.82471833549044
0.32355696972137	0.21134225291385	0.82915900897038
0.32560479864366	0.21268690729566	0.83269081963894
0.32765262756595	0.21298412697421	0.83605342057134
0.32970045648823	0.21247478036217	0.84009233105469
0.33174828541052	0.21195119226287	0.84517572268471
0.33379611433281	0.21220501202722	0.85094693175010
0.33584394325510	0.21348235195576	0.85657884838450
0.33789177217738	0.21532105057730	0.86134896092509
0.33993960109967	0.21687738700059	0.86513540951139
0.34198743002196	0.21751146085633	0.86849362102209
0.34403525894424	0.21722523981848	0.87226584120057
0.34608308786653	0.21665354931106	0.87699790827830
0.34813091678882	0.21661953370485	0.88256699464954
0.35017874571111	0.21756573294338	0.88827404991180
0.35222657463339	0.21925385601459	0.89333183990104
0.35427440355568	0.22093677381142	0.89740799686166
0.35632223247797	0.22187883518144	0.90084860397107
0.35837006140025	0.22186227540993	0.90443208891643
0.36041789032254	0.22133123786039	0.90882826310301
0.36246571924483	0.22107839769556	0.91413832019269
0.36451354816712	0.22169515120321	0.91983158725410
0.36656137708940	0.22316660661663	0.92511809083571
0.36860920601169	0.22488862021268	0.92949550452611
0.37065703493398	0.22609042803980	0.93309191002404
0.37270486385627	0.22636733672702	0.93657061450430
0.37475269277855	0.22595542930165	0.94066741221142
0.37680052170084	0.22556194539445	0.94568299870133
0.37884835062313	0.22587300818487	0.95128059130911
0.38089617954541	0.22708123634756	0.95672481551660
0.38294400846770	0.22875837112873	0.96139255720984
0.38499183738999	0.23015693448476	0.96520100673312
0.38703966631228	0.23072855428448	0.96865895692355
0.38908749523456	0.23049963202638	0.97251003129480
0.39113532415685	0.23004709796696	0.97721791212416
0.39318315307914	0.23009516577817	0.98264982591849
0.39523098200142	0.23101483562651	0.98817424300598
0.39727881092371	0.23257194101499	0.99310117173424
0.39932663984600	0.23409473352317	0.99715817705636
0.40137446876829	0.23494122623587	1.0006738158490
0.40342229769057	0.23494124807316	1.0043451145171
0.40547012661286	0.23450890846385	1.0087535337540
0.40751795553515	0.23435133323783	1.0139654663637
0.40956578445743	0.23497843258647	1.0194916720101
0.41161361337972	0.23635348206894	1.0246299909463
0.41366144230201	0.23792387255548	1.0289513589289
0.41570927122430	0.23900705696127	1.0325928030395
0.41775710014658	0.23926222793102	1.0361574321094
0.41980492906887	0.23892184878801	1.0402942109048
0.42185275799116	0.23862584021649	1.0452502432600
0.42390058691344	0.23897656779928	1.0507043707181
0.42594841583573	0.24012402421660	1.0559940316284
0.42799624475802	0.24166679601693	1.0605752354134
0.43004407368031	0.24293403140341	1.0643963997309
0.43209190260259	0.24345042802515	1.0679292223899
0.43413973152488	0.24326201517665	1.0718385763961
0.43618756044717	0.24289950579699	1.0765223727874
0.43823538936945	0.24300789706190	1.0818397733424
0.44028321829174	0.24390076180105	1.0872133225331
0.44233104721403	0.24534716008134	1.0920311056420
0.44437887613632	0.24673589242305	1.0960689295974
0.44642670505860	0.24750037698362	1.0996413190203
0.44847453398089	0.24750886159234	1.1033797374035
0.45052236290318	0.24715129070539	1.1077943383627
0.45257019182546	0.24706571224067	1.1129233427640
0.45461802074775	0.24769611376792	1.1183109632030
0.45666584967004	0.24898804560604	1.1233261228739
0.45871367859233	0.25043063562592	1.1275991665723
0.46076150751461	0.25141292368869	1.1312744189883
0.46280933643690	0.25164603300422	1.1349061054449
0.46485716535919	0.25135951762634	1.1390725635058
0.46690499428147	0.25113850415149	1.1439772337954
0.46895282320376	0.25151708203457	1.1493116646821
0.47100065212605	0.25261044428652	1.1544726946212
0.47304848104834	0.25403909151743	1.1589809664325
0.47509630997062	0.25519482626470	1.1628104384063
0.47714413889291	0.25566216083360	1.1664024439155
0.47919196781520	0.25550320695467	1.1703573218014
0.48123979673749	0.25521076101398	1.1750190318581
0.48328762565977	0.25536477125134	1.1802401204060
0.48533545458206	0.25623161588883	1.1854875863305
0.48738328350435	0.25758302714569	1.1902137523040
0.48943111242663	0.25885768741180	1.1942341369154
0.49147894134892	0.25955117409430	1.1978516658781
0.49352677027121	0.25956340956765	1.2016436780962
0.49557459919350	0.25926433865563	1.2060614331341
0.49762242811578	0.25923487223533	1.2111198941266
0.49967025703807	0.25986445272534	1.2163910012822
0.50171808596036	0.26108398976684	1.2213025798007
0.50376591488264	0.26241726202796	1.2255342110427
0.50581374380493	0.26331273337646	1.2292362235253
0.50786157272722	0.26352463095276	1.2329221883033
0.50990940164951	0.26328002787107	1.2371117140054
0.51195723057179	0.26311840269948	1.2419719493478
0.51400505949408	0.26351697581044	1.2472050956984
0.51605288841637	0.26456198279203	1.2522575591807
0.51810071733865	0.26589228356362	1.2567039037118
0.52014854626094	0.26695204892346	1.2605393537151
0.52219637518323	0.26737576824141	1.2641797854339
0.52424420410552	0.26723893538589	1.2681715132241
0.52629203302780	0.26700252332366	1.2728133549628
0.52833986195009	0.26719194272890	1.2779523926800
0.53038769087238	0.26803403370449	1.2830929826871
0.53243551979466	0.26930285807888	1.2877413831642
0.53448334871695	0.27047907313421	1.2917464167755
0.53653117763924	0.27111052103360	1.2954011649370
0.53857900656153	0.27112370823429	1.2992373591023
0.54062683548381	0.27087164282275	1.3036566720224
0.54267466440610	0.27088702561886	1.3086545435603
0.54472249332839	0.27151331606200	1.3138263946493
0.54677032225067	0.27266915287047	1.3186498139152
0.54881815117296	0.27390767762651	1.3228459371382
0.55086598009525	0.27472762211174	1.3265700724119
0.55291380901754	0.27491962749720	1.3303013081374
0.55496163793982	0.27470856337910	1.3345095118105
0.55700946686211	0.27459514928129	1.3393311498509
0.55905729578440	0.27500838297526	1.3444775641536
0.56110512470668	0.27601000975963	1.3494372939873
0.56315295362897	0.27725458930169	1.3538306766165
0.56520078255126	0.27823085501547	1.3576709140899
0.56724861147355	0.27861576423739	1.3613521252961
0.56929644039583	0.27849609387828	1.3653746030641
0.57134426931812	0.27830561049541	1.3699987729769
0.57339209824041	0.27852321714229	1.3750671758660
0.57543992716269	0.27934210490603	1.3801161271427
0.57748775608498	0.28053844745951	1.3846979274660
0.57953558500727	0.28162884161700	1.3886897557262
0.58158341392956	0.28220579121957	1.3923761533588
0.58363124285184	0.28221843829006	1.3962497686642
0.58567907177413	0.28200517176106	1.4006698629118
0.58772690069642	0.28205734509099	1.4056152690095
0.58977472961871	0.28267906028528	1.4107016507792
0.59182255854099	0.28377855999179	1.4154493126896
0.59387038746328	0.28493430003342	1.4196149778197
0.59591821638557	0.28568820095044	1.4233580913721
0.59796604530785	0.28586210357841	1.4271280002585
0.60001387423014	0.28567883877258	1.4313517961348
0.60206170315243	0.28560567807849	1.4361396506026
0.60410953207472	0.28603011569033	1.4412109186000
0.60615736099700	0.28699291712364	1.4460905201190
0.60820518991929	0.28816231769943	1.4504382143314
0.61025301884158	0.28906555579597	1.4542825770214
0.61230084776386	0.28941618605039	1.4579988080728
0.61434867668615	0.28931058590781	1.4620474035088
0.61639650560844	0.28915887742995	1.4666556853229
0.61844433453073	0.28939971636474	1.4716624154571
0.62049216345301	0.29019727000547	1.4766316806005
0.62253999237530	0.29132968881087	1.4811556504989
0.62458782129759	0.29234480431297	1.4851359588059
0.62663565021987	0.29287381355875	1.4888495945729
0.62868347914216	0.29288536142228	1.4927552245491
0.63073130806445	0.29270499861856	1.4971753471720
0.63277913698674	0.29278810618786	1.5020745185307
0.63482696590902	0.29340465230218	1.5070861377883
0.63687479483131	0.29445399216330	1.5117676954791
0.63892262375360	0.29553673684789	1.5159067913639
0.64097045267588	0.29623242398138	1.5196663188412
0.64301828159817	0.29638996651053	1.5234696059924
0.64506611052046	0.29623026520394	1.5277064711719
0.64711393944275	0.29619133053030	1.5324642789155
0.64916176836503	0.29662447754544	1.5374695276618
0.65120959728732	0.29755229471749	1.5422789717658
0.65325742620961	0.29865510981452	1.5465867475766
0.65530525513189	0.29949386538491	1.5504347175361
0.65735308405418	0.29981403798450	1.5541814008809
0.65940091297647	0.29972024727359	1.5582524472472
0.66144874189876	0.29960179316434	1.5628463035042
0.66349657082104	0.29986207863595	1.5677985854938
0.66554439974333	0.30063996132494	1.5726978263940
0.66759222866562	0.30171549164581	1.5771711305446
0.66964005758790	0.30266399564964	1.5811414433849
0.67168788651019	0.30315058717902	1.5848789612263
0.67373571543248	0.30316088508471	1.5888124357442
0.67578354435477	0.30300900523566	1.5932321326015
0.67783137327705	0.30311865766950	1.5980902195010
0.67987920219934	0.30372988181377	1.6030358367538
0.68192703112163	0.30473438264700	1.6076592193387
0.68397486004391	0.30575240633076	1.6117750345516
0.68602268896620	0.30639662214739	1.6155490367458
0.68807051788849	0.30653966498626	1.6193815093432
0.69011834681078	0.30640055678816	1.6236294334019
0.69216617573306	0.30639139932183	1.6283602060509
0.69421400465535	0.30683162863753	1.6333068029594
0.69626183357764	0.30772794795861	1.6380541623603
0.69830966249993	0.30877153304812	1.6423267136466
0.70035749142221	0.30955316705953	1.6461778866672
0.70240532034450	0.30984645528300	1.6499512953183
0.70445314926679	0.30976312755705	1.6540417329234
0.70650097818907	0.30967391412902	1.6586222064412
0.70854880711136	0.30995099852925	1.6635257271042
0.71059663603365	0.31071095130357	1.6683626048952
0.71264446495594	0.31173568514104	1.6727908816503
0.71469229387822	0.31262500265356	1.6767522471044
0.71674012280051	0.31307405220040	1.6805106966869
0.71878795172280	0.31308334855969	1.6844683569069
0.72083578064508	0.31295668589043	1.6888869512579
0.72288360956737	0.31308958791494	1.6937078205623
0.72493143848966	0.31369559535764	1.6985942500250
0.72697926741195	0.31465979306217	1.7031656138190
0.72902709633423	0.31562002992085	1.7072605344039
0.73107492525652	0.31621845531369	1.7110471279772
0.73312275417881	0.31634868008693	1.7149050434277
0.73517058310109	0.31622786783879	1.7191620454325
0.73721841202338	0.31624493495908	1.7238678991035
0.73926624094567	0.31669095387825	1.7287615340104
0.74131406986796	0.31755863112904	1.7334530997169
0.74336189879024	0.31854898818432	1.7376939744496
0.74540972771253	0.31927949089285	1.7415477354327
0.74745755663482	0.31954875678139	1.7453445356698
0.74950538555710	0.31947468194015	1.7494515862099
0.75155321447939	0.31941126460772	1.7540192893684
0.75360104340168	0.31970278466986	1.7588785188620
0.75564887232397	0.32044602787160	1.7636591835643
0.75769670124625	0.32142476225239	1.7680469765836
0.75974453016854	0.32226080063715	1.7720002055921
0.76179235909083	0.32267613156001	1.7757771344211
0.76384018801311	0.32268444351670	1.7797559647249
0.76588801693540	0.32258011469060	1.7841729240121
