#Parameters = {C_1=27.494459420379; C_2=629.72665244523; Conductivity=10000; Conductivity_Mo=17900000; Conductivity_MoGr=1000000; Ip=630.32658368396; Pipe_lenght=40; Pipe_r=30; beta=1; cells_wave=30; conductivity_copper=59500000; d=-929.72665244523; half_gap_x=30; half_gap_y=2.5055405796205; half_gap_z=150; mu_copper=0.999994; offset_x=5; offset_y=1; sigma_z=5; teta=2.5; thcoll=27.494459420379; translate_z=-779.72665244523; wakelength=20000}
#"Frequency / GHz"	"Z [Re / Ohm]"	"Z [Im / Ohm]"
#-----------------------------------------------
0.0000000000000	-0.049536176969400	2.1993228801176e-12
0.020478289222872	0.019478982116614	0.10859377584507
0.040956578445743	0.057985003554196	0.18566542869508
0.061434867668615	0.089152856510868	0.24068293410919
0.081913156891487	0.11041345475572	0.28868885482420
0.10239144611436	0.12538542646955	0.33573589520642
0.12286973533723	0.13667315312685	0.38313631963858
0.14334802456010	0.14585724724049	0.43111713926811
0.16382631378297	0.15391773297847	0.47960877888975
0.18430460300585	0.16131553040020	0.52841204433588
0.20478289222872	0.16831201811215	0.57736886085102
0.22526118145159	0.17508124189545	0.62635430472368
0.24573947067446	0.18168714360776	0.67527982428077
0.26621775989733	0.18816845073088	0.72408648181420
0.28669604912020	0.19455235689323	0.77272781973686
0.30717433834308	0.20083825672661	0.82118393321423
0.32765262756595	0.20702611358332	0.86944326968640
0.34813091678882	0.21311519959060	0.91749797163872
0.36860920601169	0.21910062434246	0.96535406268860
0.38908749523456	0.22497995120001	1.0130170815397
0.40956578445743	0.23075111828313	1.0604924419707
0.43004407368031	0.23641351054586	1.1077923689441
0.45052236290318	0.24196745522827	1.1549261263516
0.47100065212605	0.24741308338388	1.2019023422226
0.49147894134892	0.25275338032689	1.2487322989653
0.51195723057179	0.25799032459917	1.2954247349372
0.53243551979466	0.26312638738781	1.3419880438828
0.55291380901754	0.26816619560386	1.3884306238089
0.57339209824041	0.27311277202744	1.4347592619450
0.59387038746328	0.27796930214437	1.4809804609436
0.61434867668615	0.28274022515312	1.5270998117263
0.63482696590902	0.28742836071775	1.5731227595622
0.65530525513189	0.29203696861546	1.6190545800877
0.67578354435477	0.29657041957171	1.6648990944581
0.69626183357764	0.30103144776144	1.7106603482015
0.71674012280051	0.30542322000283	1.7563419860110
0.73721841202338	0.30974922215598	1.8019467399950
0.75769670124625	0.31401212016732	1.8474774572687
0.77817499046912	0.31821466373258	1.8929365632706
0.79865327969200	0.32235925144915	1.9383259084612
0.81913156891487	0.32644831819298	1.9836476738133
0.83960985813774	0.33048383075949	2.0289037299666
0.86008814736061	0.33446786446661	2.0740955610222
0.88056643658348	0.33840256597107	2.1192249304861
0.90104472580636	0.34228953414161	2.1642930680499
0.92152301502923	0.34613059870110	2.2093013183810
0.94200130425210	0.34992746685604	2.2542507959801
0.96247959347497	0.35368163833092	2.2991424867307
0.98295788269784	0.35739433858637	2.3439774558367
1.0034361719207	0.36106711482677	2.3887564771784
1.0239144611436	0.36470116171272	2.4334806134870
1.0443927503665	0.36829753651621	2.4781505882564
1.0648710395893	0.37185779169765	2.5227671345633
1.0853493288122	0.37538274715692	2.5673310114905
1.1058276180351	0.37887372263862	2.6118426409187
1.1263059072579	0.38233157556875	2.6563026202040
1.1467841964808	0.38575718147355	2.7007113448963
1.1672624857037	0.38915150646590	2.7450695158048
1.1877407749266	0.39251509753333	2.7893773513208
1.2082190641494	0.39584900390266	2.8336356241621
1.2286973533723	0.39915388465976	2.8778449030175
1.2491756425952	0.40243086884730	2.9220051559006
1.2696539318180	0.40568055335161	2.9661171365523
1.2901322210409	0.40890354768137	3.0101806925371
1.3106105102638	0.41210076286156	3.0541964362181
1.3310887994867	0.41527254730787	3.0981645169674
1.3515670887095	0.41841990413658	3.1420851044268
1.3720453779324	0.42154294730792	3.1859586385306
1.3925236671553	0.42464268970923	3.2297850619830
1.4130019563781	0.42771957340523	3.2735650717853
1.4334802456010	0.43077397558864	3.3172982626454
1.4539585348239	0.43380703543109	3.3609852560333
1.4744368240468	0.43681854903244	3.4046260602441
1.4949151132696	0.43980980359616	3.4482204391624
1.5153934024925	0.44278072974582	3.4917689772850
1.5358716917154	0.44573186905187	3.5352711503585
1.5563499809382	0.44866384506024	3.5787277664296
1.5768282701611	0.45157670548640	3.6221382672049
1.5973065593840	0.45447163674207	3.6655031560683
1.6177848486069	0.45734799492869	3.7088223322820
1.6382631378297	0.46020705110124	3.7520953484639
1.6587414270526	0.46304864221593	3.7953234562713
1.6792197162755	0.46587295746121	3.8385054642291
1.6996980054984	0.46868116704605	3.8816425398720
1.7201762947212	0.47147279605254	3.9247343781585
1.7406545839441	0.47424943182171	3.9677807743078
1.7611328731670	0.47701043218280	4.0107821086482
1.7816111623898	0.47975696207809	4.0537373470537
1.8020894516127	0.48248887975814	4.0966478333730
1.8225677408356	0.48520589892908	4.1395119476198
1.8430460300585	0.48790968208516	4.1823309713462
1.8635243192813	0.49059861603749	4.2251049396557
1.8840026085042	0.49327486198705	4.2678329678719
1.9044808977271	0.49593799285198	4.3105165150752
1.9249591869499	0.49858841947035	4.3531538379797
1.9454374761728	0.50122691013595	4.3957462246394
1.9659157653957	0.50385253389705	4.4382923263031
1.9863940546186	0.50646719350611	4.4807930304071
2.0068723438414	0.50906892526692	4.5232486245849
2.0273506330643	0.51166002314970	4.5656576194803
2.0478289222872	0.51424017805443	4.6080224423274
2.0683072115100	0.51680874812725	4.6503404726792
2.0887855007329	0.51936771144601	4.6926131254914
2.1092637899558	0.52191511180156	4.7348401321156
2.1297420791787	0.52445289937864	4.7770211363839
2.1502203684015	0.52697967933360	4.8191574386861
2.1706986576244	0.52949720400799	4.8612474590097
2.1911769468473	0.53200559133545	4.9032937188755
2.2116552360701	0.53450397683007	4.9452933757020
2.2321335252930	0.53699523890228	4.9872478165533
2.2526118145159	0.53947624193454	5.0291571409449
2.2730901037388	0.54194916429284	5.0710197723701
2.2935683929616	0.54441307508385	5.1128383537723
2.3140466821845	0.54686820127123	5.1546112079169
2.3345249714074	0.54931568575421	5.1963406366444
2.3550032606302	0.55175482157692	5.2380249664590
2.3754815498531	0.55418844498488	5.2796653521615
2.3959598390760	0.55661382659639	5.3212615146044
2.4164381282989	0.55903357539127	5.3628116426144
2.4369164175217	0.56144619722840	5.4043188859685
2.4573947067446	0.56385150238107	5.4457806004837
2.4778729959675	0.56625118782273	5.4871995775695
2.4983512851903	0.56864363025623	5.5285747151538
2.5188295744132	0.57103110393370	5.5699067628148
2.5393078636361	0.57341189916489	5.6111967123192
2.5597861528590	0.57578885887652	5.6524429174574
2.5802644420818	0.57815889620950	5.6936482771097
2.6007427313047	0.58052387614915	5.7348096855236
2.6212210205276	0.58288492656160	5.7759326800230
2.6416993097505	0.58523832599157	5.8170140122016
2.6621775989733	0.58759148869162	5.8580559952799
2.6826558881962	0.58993829270716	5.8990590265710
2.7031341774191	0.59228266500593	5.9400204959104
2.7236124666419	0.59462195765139	5.9809467237344
2.7440907558648	0.59695730012433	6.0218311669614
2.7645690450877	0.59928945886979	6.0626840438048
2.7850473343106	0.60161233747280	6.1034994061104
2.8055256235334	0.60394015519428	6.1442820672137
2.8260039127563	0.60625844271136	6.1850379900910
2.8464822019792	0.60857790646254	6.2257544481290
2.8669604912020	0.61089777257712	6.2664491842159
2.8874387804249	0.61320960976044	6.3071089430002
2.9079170696478	0.61552468528037	6.3477465264580
2.9283953588707	0.61782882021207	6.3883594964666
2.9488736480935	0.62014140133417	6.4289494377796
2.9693519373164	0.62244131264321	6.4695311462558
2.9898302265393	0.62474233529151	6.5100814413451
3.0103085157621	0.62705009958094	6.5506396863615
3.0307868049850	0.62933769370423	6.5911810391226
3.0512650942079	0.63164392253445	6.6317169976827
3.0717433834308	0.63393254730538	6.6722694436627
3.0922216726536	0.63622591869995	6.7128168102819
3.1126999618765	0.63851565936118	6.7534004064250
3.1331782510994	0.64080032510592	6.7939886182118
3.1536565403222	0.64310049325992	6.8346360582212
3.1741348295451	0.64536233022695	6.8753177452743
3.1946131187680	0.64766452016406	6.9160486080420
3.2150914079909	0.64993125248218	6.9569017390040
3.2355696972137	0.65219096883243	6.9978017550710
3.2560479864366	0.65447755212457	7.0388733419394
3.2765262756595	0.65671254322966	7.0800868451984
3.2970045648823	0.65898938794948	7.1215023512161
3.3174828541052	0.66120874490423	7.1631826604308
3.3379611433281	0.66348008893333	7.2051419979928
3.3584394325510	0.66569832015341	7.2476062408527
3.3789177217738	0.66788450006298	7.2904759977366
3.3993960109967	0.67020164152628	7.3341828037183
3.4198743002196	0.67233563763328	7.3788724290554
3.4403525894424	0.67472643727486	7.4248224937511
3.4608308786653	0.67724975172164	7.4730582640918
3.4813091678882	0.68025920941794	7.5242317333528
3.5017874571111	0.68491095201482	7.5808542903649
3.5222657463339	0.69366694597628	7.6462747760311
3.5427440355568	0.71810159890314	7.7270853827518
3.5632223247797	0.79338915676202	7.8194204290477
3.5837006140025	0.94194982639897	7.8102017818351
3.6041789032254	0.95253197441074	7.7014859094549
3.6246571924483	0.89629547450116	7.6931898242761
3.6451354816712	0.86676115263234	7.7227106240245
3.6656137708940	0.85912697935692	7.7553031467653
3.6860920601169	0.85703261458642	7.7822942985195
3.7065703493398	0.85042905981408	7.8005553999620
3.7270486385627	0.83467977547884	7.8206603938592
3.7475269277855	0.81149875344110	7.8513817474100
3.7680052170084	0.79057500943695	7.8922213629460
3.7884835062313	0.77631436751240	7.9401303270012
3.8089617954541	0.76807075371164	7.9905055956501
3.8294400846770	0.76575710527049	8.0410131128940
3.8499183738999	0.76830013836212	8.0909002036986
3.8703966631228	0.77455509672582	8.1385180819787
3.8908749523456	0.78373573326516	8.1832789906515
3.9113532415685	0.79494359952589	8.2257598790835
3.9318315307914	0.80805392622249	8.2650599214547
3.9523098200142	0.82308005462844	8.2991313545290
3.9727881092371	0.83658586996646	8.3269371206714
3.9932663984600	0.84362559045300	8.3499620849052
4.0137446876829	0.84380407134367	8.3733871091240
4.0342229769057	0.83995784753190	8.4009685980087
4.0547012661286	0.83488097679350	8.4318889323413
4.0751795553515	0.82968840603491	8.4649543279517
4.0956578445743	0.82361640733987	8.5003279186157
4.1161361337972	0.81699627346506	8.5391286596938
4.1366144230201	0.81228037767748	8.5824120137519
4.1570927122430	0.81221044008975	8.6290407725412
4.1775710014658	0.81828255354713	8.6758432800620
4.1980492906887	0.83015093653624	8.7192963018469
4.2185275799116	0.84496316138680	8.7567294131105
4.2390058691344	0.85863371103118	8.7877268392673
4.2594841583573	0.86875652809789	8.8146791250147
4.2799624475802	0.87489820266195	8.8398672475746
4.3004407368031	0.87706775291222	8.8640771428462
4.3209190260259	0.87446798327966	8.8887268895935
4.3413973152488	0.86674359030756	8.9166985822146
4.3618756044717	0.85645812744360	8.9510783215693
4.3823538936945	0.84806147664770	8.9926677869280
4.4028321829174	0.84522727812809	9.0390683552102
4.4233104721403	0.84963648011252	9.0863920870600
4.4437887613632	0.86060851286100	9.1308030574347
4.4642670505860	0.87535801549770	9.1695423683901
4.4847453398089	0.89063385596392	9.2018749688174
4.5052236290318	0.90389876644321	9.2286294063271
4.5257019182546	0.91280157401595	9.2508804250734
4.5461802074775	0.91510766790718	9.2707693086398
4.5666584967004	0.90984896200678	9.2926568742637
4.5871367859233	0.89924045691580	9.3209825305038
4.6076150751461	0.88828143897650	9.3575132294203
4.6280933643690	0.88157566707961	9.4008520706222
4.6485716535919	0.88168934543932	9.4475087950009
4.6690499428147	0.88920087247335	9.4934150861053
4.6895282320376	0.90264453835349	9.5351529290448
4.7100065212605	0.91911067059290	9.5705301767796
4.7304848104834	0.93536727634847	9.5986490801090
4.7509630997062	0.94779028239480	9.6201824403541
4.7714413889291	0.95272175062982	9.6379216734735
4.7919196781520	0.94894934484265	9.6569031610180
4.8123979673749	0.93905931266915	9.6822221889638
4.8328762565977	0.92789136443480	9.7158965454424
4.8533545458206	0.92012680368597	9.7566891610088
4.8738328350435	0.91874295053798	9.8016317871851
4.8943111242663	0.92470324116188	9.8469345664805
4.9147894134892	0.93719195333912	9.8888467519637
4.9352677027121	0.95384737167175	9.9245476599395
4.9557459919350	0.97096477198416	9.9524641969300
4.9762242811578	0.98406278499247	9.9730060343583
4.9967025703807	0.98931579595310	9.9896995575607
5.0171808596036	0.98586371553429	10.008086616103
5.0376591488264	0.97670016643590	10.032709327110
5.0581374380493	0.96654512745787	10.065219221150
5.0786157272722	0.95955834476441	10.104496224989
5.0990940164951	0.95856615917622	10.147750873029
5.1195723057179	0.96473288888165	10.191440933483
5.1400505949408	0.97739558304515	10.231884171005
5.1605288841637	0.99416641091327	10.265929888879
5.1810071733865	1.0110347892677	10.291944914373
5.2014854626094	1.0231581900112	10.311005213162
5.2219637518323	1.0272412930804	10.327237815623
5.2424420410552	1.0235086321406	10.345976826208
5.2629203302780	1.0151601668605	10.370884761979
5.2833986195009	1.0064178994505	10.402926091156
5.3038769087238	1.0009398440283	10.440968567817
5.3243551979466	1.0011967911420	10.482424359787
5.3448334871695	1.0082111634026	10.523886508325
5.3653117763924	1.0212336778368	10.561785819177
5.3857900656153	1.0375683184397	10.593155424427
5.4062683548381	1.0529357043108	10.616919648185
5.4267466440610	1.0629949866583	10.635066006294
5.4472249332839	1.0656329482842	10.651925759682
5.4677032225067	1.0619563397385	10.671845062278
5.4881815117296	1.0550460404359	10.697433113870
5.5086598009525	1.0483832388309	10.729153220976
5.5291380901754	1.0450565975915	10.765790519883
5.5496163793982	1.0471383413266	10.804957761118
5.5700946686211	1.0552637587113	10.843455670933
5.5905729578440	1.0683673632713	10.877977489545
5.6110512470668	1.0834939656578	10.906225937324
5.6315295362897	1.0965703218479	10.928114881456
5.6520078255126	1.1044073285488	10.946138962902
5.6724861147355	1.1061799931425	10.964109813396
5.6929644039583	1.1032499034249	10.985196605349
5.7134426931812	1.0982272586332	11.011047196264
5.7339209824041	1.0939620812317	11.041859029526
5.7543992716269	1.0928514993330	11.076437014674
5.7748775608498	1.0964591175749	11.112512137206
5.7953558500727	1.1050076828084	11.147322983172
5.8158341392956	1.1170268010335	11.178268304131
5.8363124285184	1.1296972152337	11.203978140938
5.8567907177413	1.1399772886568	11.225199518693
5.8772690069642	1.1459667838215	11.244300413570
5.8977472961871	1.1475814649176	11.263951526701
5.9182255854099	1.1461295492683	11.286265136206
5.9387038746328	1.1435620699883	11.312308621968
5.9591821638557	1.1420288440248	11.341945058663
5.9796604530785	1.1433312762162	11.374061095184
6.0001387423014	1.1483826046318	11.406793199145
6.0206170315243	1.1569852391856	11.437947029067
6.0410953207472	1.1677532412270	11.465807590955
6.0615736099700	1.1784922775853	11.489845825718
6.0820518991929	1.1872128036674	11.510831850563
6.1025301884158	1.1928822607746	11.530414319588
6.1230084776386	1.1954540523518	11.550419958843
6.1434867668615	1.1957636195775	11.572264142421
6.1639650560844	1.1952494725220	11.596704658623
6.1844433453073	1.1953906107576	11.623687420089
6.2049216345301	1.1973535182065	11.652408632071
6.2253999237530	1.2017856075908	11.681662162688
6.2458782129759	1.2086105172899	11.710133827612
6.2663565021987	1.2170650933094	11.736706397530
6.2868347914216	1.2259834349580	11.760854869410
6.3073130806445	1.2341189771771	11.782788651624
6.3277913698674	1.2405250625190	11.803277089178
6.3482696590902	1.2448811122227	11.823432456792
6.3687479483131	1.2474827834451	11.844328306218
6.3892262375360	1.2490250797805	11.866609846406
6.4097045267588	1.2503349836216	11.890523418627
6.4301828159817	1.2522152968075	11.916045867669
6.4506611052046	1.2554740034047	11.942802226617
6.4711393944275	1.2607710451381	11.969958455663
6.4916176836503	1.2682055687035	11.996336030319
6.5120959728732	1.2771120788576	12.020824175029
6.5325742620961	1.2863073676503	12.042896674952
6.5530525513189	1.2945615970846	12.062819418274
6.5735308405418	1.3010409633081	12.081378922123
6.5940091297647	1.3054166328814	12.099539027663
6.6144874189876	1.3076928700681	12.118320433830
6.6349657082104	1.3083081074339	12.138806504148
6.6554439974333	1.3084281731644	12.161916250563
6.6759222866562	1.3098153585733	12.187738787401
6.6964005758790	1.3140624818538	12.215097727108
6.7168788651019	1.3216999963881	12.242004722726
6.7373571543248	1.3319249797735	12.266615468884
6.7578354435477	1.3431067894701	12.287936662383
6.7783137327705	1.3535143721744	12.305987620467
6.7987920219934	1.3616790841727	12.321538392711
6.8192703112163	1.3665189301541	12.335915554487
6.8397486004392	1.3676428450832	12.351085115783
6.8602268896620	1.3659084250170	12.369299200653
6.8807051788849	1.3636733539014	12.391975461901
6.9011834681078	1.3639064758868	12.418682667800
6.9216617573306	1.3686230275353	12.447198514523
6.9421400465535	1.3780333184209	12.474614557444
6.9626183357764	1.3907708906426	12.498601554281
6.9830966249993	1.4046020605870	12.518012629534
7.0035749142221	1.4170933471419	12.532843759065
7.0240532034450	1.4260007187628	12.544230488135
7.0445314926679	1.4297003457816	12.554582484326
7.0650097818907	1.4281714454557	12.567227211989
7.0854880711136	1.4237392225017	12.585123784580
7.1059663603365	1.4202838003925	12.609152635608
7.1264446495594	1.4213244893836	12.637492876975
7.1469229387822	1.4284966145015	12.666702770866
7.1674012280051	1.4412013922248	12.693322806075
7.1878795172280	1.4572259208301	12.714872401615
7.2083578064508	1.4735740063085	12.730256932384
7.2288360956737	1.4869410397905	12.739970525946
7.2493143848966	1.4943678681445	12.746309938991
7.2697926741195	1.4945931811285	12.753305614193
7.2902709633423	1.4892517915889	12.765385857754
7.3107492525652	1.4825731032788	12.785018031509
7.3312275417881	1.4793798363585	12.811403384134
7.3517058310109	1.4828528173754	12.841198114385
7.3721841202338	1.4935995799428	12.870154855799
7.3926624094567	1.5100364663476	12.894552785153
7.4131406986796	1.5290687915874	12.912030469313
7.4336189879024	1.5466463934177	12.921963624872
7.4540972771253	1.5586097951959	12.925995453459
7.4745755663482	1.5621765792951	12.928333532293
7.4950538555710	1.5577070980159	12.934481899916
7.5155321447939	1.5491359202312	12.948583892992
7.5360104340168	1.5420735617912	12.971383563681
7.5564887232397	1.5411209790560	13.000246328047
7.5769670124625	1.5483993645268	13.030688267615
7.5974453016854	1.5634297935047	13.058108748741
7.6179235909083	1.5835393913093	13.078863429185
7.6384018801311	1.6044755322833	13.090952649956
7.6588801693540	1.6211805887309	13.094952992173
7.6793584585769	1.6293523318861	13.094596430719
7.6998367477998	1.6277804633654	13.095903520051
7.7203150370226	1.6194580474662	13.104493357288
7.7407933262455	1.6101377224638	13.122822803356
7.7612716154684	1.6054890626313	13.149445997709
7.7817499046912	1.6091219486776	13.180234388274
7.8022281939141	1.6218710425355	13.210215208369
7.8227064831370	1.6419333845054	13.234718289191
7.8431847723599	1.6654410575858	13.250487331186
7.8636630615827	1.6868760015714	13.256840427620
7.8841413508056	1.7008181871575	13.256598871670
7.9046196400285	1.7044528551336	13.256100346095
7.9250979292514	1.7010931537836	13.262749817995
7.9455762184742	1.6983347103848	13.276588217152
7.9660545076971	1.6960898149451	13.293355651635
