#Parameters = {C_1=27.02612532093; C_2=619.00003803311; Conductivity=10000; Conductivity_Mo=17900000; Conductivity_MoGr=1000000; Ip=619.58975018543; Pipe_lenght=40; Pipe_r=30; beta=1; cells_wave=30; conductivity_copper=59500000; d=-919.00003803311; half_gap_x=30; half_gap_y=2.9738746790698; half_gap_z=150; mu_copper=0.999994; offset_x=5; offset_y=1; sigma_z=5; teta=2.5; thcoll=27.02612532093; translate_z=-769.00003803311; wakelength=20000}
#"Frequency / GHz"	"Z [Re / Ohm]"	"Z [Im / Ohm]"
#-----------------------------------------------
0.0000000000000	0.086661416280253	-1.7580855778552e-12
0.020478289222872	0.026317392242044	0.11374860248893
0.040956578445743	0.071220848419593	0.19563026330280
0.061434867668615	0.10882508762404	0.25531218393226
0.081913156891487	0.13508655778513	0.30614110331800
0.10239144611436	0.15329092338999	0.35444452791734
0.12286973533723	0.16700020581112	0.40284886298951
0.14334802456010	0.17827712483335	0.45183296216403
0.16382631378297	0.18808809584112	0.50125870985454
0.18430460300585	0.19710017384492	0.55098465075621
0.20478289222872	0.20566387282692	0.60083732120587
0.22526118145159	0.21391435630183	0.65068387121516
0.24573947067446	0.22197550941972	0.70042515377660
0.26621775989733	0.22989932055642	0.74998753968471
0.28669604912020	0.23769067195155	0.79933777563848
0.30717433834308	0.24536759166044	0.84844341542638
0.32765262756595	0.25292875512743	0.89729100852610
0.34813091678882	0.26036584535508	0.94588647894981
0.36860920601169	0.26767767910559	0.99422791400008
0.38908749523456	0.27485985603584	1.0423247679577
0.40956578445743	0.28190993732894	1.0901930529420
0.43004407368031	0.28882657776211	1.1378414244842
0.45052236290318	0.29561061560738	1.1852836492460
0.47100065212605	0.30226447698436	1.2325346223537
0.49147894134892	0.30878866864905	1.2796046638404
0.51195723057179	0.31518756948710	1.3265063856516
0.53243551979466	0.32146621892311	1.3732506046049
0.55291380901754	0.32762595949489	1.4198462841437
0.57339209824041	0.33367197083324	1.4663031206518
0.59387038746328	0.33960908489944	1.5126292999545
0.61434867668615	0.34543994985426	1.5588331300159
0.63482696590902	0.35117044835368	1.6049213190847
0.65530525513189	0.35680517864947	1.6508996351218
0.67578354435477	0.36234767263821	1.6967742226517
0.69626183357764	0.36780255147863	1.7425490032975
0.71674012280051	0.37317326570665	1.7882285857448
0.73721841202338	0.37846376491458	1.8338180071898
0.75769670124625	0.38367834821008	1.8793193806057
0.77817499046912	0.38881952704614	1.9247350104833
0.79865327969200	0.39388938299287	1.9700687978313
0.81913156891487	0.39889076495552	2.0153236127093
0.83960985813774	0.40382704562665	2.0605022830386
0.86008814736061	0.40870143155929	2.1056067121722
0.88056643658348	0.41351558259185	2.1506380536769
0.90104472580636	0.41827129500791	2.1955984116337
0.92152301502923	0.42297075117670	2.2404902064841
0.94200130425210	0.42761616786834	2.2853154131779
0.96247959347497	0.43221056240958	2.3300750793527
0.98295788269784	0.43675579319321	2.3747693042849
1.0034361719207	0.44125204803922	2.4193990715751
1.0239144611436	0.44570061131401	2.4639661676031
1.0443927503665	0.45010320821011	2.5084720828549
1.0648710395893	0.45446132727313	2.5529180534451
1.0853493288122	0.45877661389908	2.5973047217082
1.1058276180351	0.46305010325930	2.6416326766179
1.1263059072579	0.46728239223088	2.6859033065349
1.1467841964808	0.47147503365987	2.7301181216613
1.1672624857037	0.47563018809909	2.7742779950612
1.1877407749266	0.47974996944493	2.8183828143041
1.2082190641494	0.48383483661923	2.8624314090094
1.2286973533723	0.48788411529367	2.9064240931012
1.2491756425952	0.49189783172855	2.9503627803534
1.2696539318180	0.49587746130886	2.9942490633455
1.2901322210409	0.49982492316252	3.0380830695318
1.3106105102638	0.50374091753231	3.0818643709025
1.3310887994867	0.50762476486927	3.1255932069486
1.3515670887095	0.51147641959461	3.1692718449390
1.3720453779324	0.51529846823815	3.2129025836089
1.3925236671553	0.51909418266066	3.2564850355931
1.4130019563781	0.52286518447621	3.3000168705364
1.4334802456010	0.52661052134585	3.3434962220731
1.4539585348239	0.53032817784281	3.3869236782113
1.4744368240468	0.53401818118267	3.4303016496168
1.4949151132696	0.53768270023329	3.4736311135240
1.5153934024925	0.54132291035485	3.5169109134839
1.5358716917154	0.54493757981793	3.5601401119424
1.5563499809382	0.54852466879180	3.6033207106953
1.5768282701611	0.55208535069694	3.6464572407428
1.5973065593840	0.55562501656390	3.6895516299043
1.6177848486069	0.55914854599824	3.7326003047853
1.6382631378297	0.56265523669381	3.7755978232598
1.6587414270526	0.56614047122528	3.8185429734644
1.6792197162755	0.56960208114288	3.8614392408225
1.6996980054984	0.57304253948490	3.9042894783726
1.7201762947212	0.57646478829581	3.9470919961036
1.7406545839441	0.57986721581014	3.9898433978746
1.7611328731670	0.58324464515554	4.0325451266371
1.7816111623898	0.58659602382510	4.0752046606034
1.8020894516127	0.58992862254090	4.1178274847261
1.8225677408356	0.59325149174321	4.1604103386954
1.8430460300585	0.59656649289176	4.2029440441365
1.8635243192813	0.59986695567936	4.2454233831930
1.8840026085042	0.60314674044695	4.2878522429376
1.9044808977271	0.60640801736153	4.3302366361080
1.9249591869499	0.60965661405271	4.3725749814155
1.9454374761728	0.61289140180704	4.4148605289581
1.9659157653957	0.61610345564315	4.4570925569875
1.9863940546186	0.61928723562627	4.4992813499431
2.0068723438414	0.62245053110689	4.5414386256109
2.0273506330643	0.62560854947600	4.5835634394351
2.0478289222872	0.62876784331757	4.6256423703724
2.0683072115100	0.63192045133424	4.6676645742640
2.0887855007329	0.63505529354621	4.7096326180067
2.1092637899558	0.63817174424250	4.7515558760238
2.1297420791787	0.64127789710064	4.7934358879322
2.1502203684015	0.64437573560708	4.8352640660178
2.1706986576244	0.64745474198297	4.8770360106254
2.1911769468473	0.65050490627382	4.9187625935266
2.2116552360701	0.65353263596117	4.9604603986208
2.2321335252930	0.65655734486493	5.0021320734377
2.2526118145159	0.65959095546752	5.0437615863911
2.2730901037388	0.66262512534995	5.0853317596622
2.2935683929616	0.66564238729031	5.1268428987390
2.3140466821845	0.66863708146076	5.1683093426825
2.3345249714074	0.67161922028105	5.2097398149053
2.3550032606302	0.67459817549434	5.2511278335774
2.3754815498531	0.67756911066180	5.2924639291078
2.3959598390760	0.68052099878772	5.3337516445559
2.4164381282989	0.68345396748006	5.3750045429025
2.4369164175217	0.68638212796555	5.4162285649905
2.4573947067446	0.68931785644609	5.4574127178912
2.4778729959675	0.69225657484842	5.4985403180458
2.4983512851903	0.69518068115866	5.5396073476590
2.5188295744132	0.69807702803363	5.5806272529901
2.5393078636361	0.70094921830897	5.6216191347768
2.5597861528590	0.70381490175669	5.6625916387275
2.5802644420818	0.70669119252162	5.7035357437480
2.6007427313047	0.70957993597228	5.7444331477538
2.6212210205276	0.71246721868834	5.7852740709863
2.6416993097505	0.71533991965588	5.8260665469009
2.6621775989733	0.71820256438012	5.8668238464137
2.6826558881962	0.72106981663452	5.9075410164104
2.7031341774191	0.72393623820658	5.9481952606611
2.7236124666419	0.72676517345632	5.9887826425783
2.7440907558648	0.72952766209312	6.0293471576342
2.7645690450877	0.73225391512210	6.0699491516918
2.7850473343106	0.73502246587208	6.1105938292217
2.8055256235334	0.73787948830419	6.1512102075197
2.8260039127563	0.74078287743654	6.1917244721001
2.8464822019792	0.74365312029319	6.2321442239677
2.8669604912020	0.74647413599721	6.2725379184722
2.8874387804249	0.74930371877985	6.3129278204409
2.9079170696478	0.75216574157622	6.3532483743705
2.9283953588707	0.75497239960423	6.3934508071072
2.9488736480935	0.75761408582247	6.4336253442465
2.9693519373164	0.76012905055207	6.4739493849990
2.9898302265393	0.76271845089069	6.5144841627893
3.0103085157621	0.76554272831276	6.5550728888327
3.0307868049850	0.76853518202631	6.5955017894894
3.0512650942079	0.77148596496479	6.6357457613596
3.0717433834308	0.77431143770448	6.6759750090945
3.0922216726536	0.77714814319463	6.7162908227093
3.1126999618765	0.78011049669770	6.7565483306169
3.1331782510994	0.78302353871131	6.7965593376169
3.1536565403222	0.78554909799661	6.8364584414995
3.1741348295451	0.78763648324244	6.8767134057777
3.1946131187680	0.78972811377433	6.9176487202690
3.2150914079909	0.79235591277250	6.9590236451378
3.2355696972137	0.79554244889429	7.0002587602192
3.2560479864366	0.79878266974011	7.0411226257671
3.2765262756595	0.80171972842813	7.0820071785709
3.2970045648823	0.80465848048129	7.1233330447783
3.3174828541052	0.80809965799898	7.1648010666233
3.3379611433281	0.81173009489437	7.2056439527407
3.3584394325510	0.81428545872219	7.2458858375832
3.3789177217738	0.81490015353539	7.2870875943690
3.3993960109967	0.81457675204781	7.3312403360001
3.4198743002196	0.81570876140259	7.3786720728811
3.4403525894424	0.81962428486202	7.4276058656842
3.4608308786653	0.82500064194754	7.4766814173723
3.4813091678882	0.83002110975574	7.5279996273684
3.5017874571111	0.83715589039409	7.5862693277736
3.5222657463339	0.85519322367548	7.6527658708447
3.5427440355568	0.89400109214301	7.7189976149991
3.5632223247797	0.95429274146525	7.7676896648649
3.5837006140025	1.0213954696384	7.7835359674528
3.6041789032254	1.0710692152271	7.7665259550115
3.6246571924483	1.0857250703244	7.7355790292659
3.6451354816712	1.0682844363144	7.7155437540674
3.6656137708940	1.0350494360168	7.7155944451947
3.6860920601169	0.99053766359152	7.7407576273633
3.7065703493398	0.96773174168704	7.7990020542580
3.7270486385627	0.97610055308053	7.8426249862399
3.7475269277855	0.97521433613777	7.8651008899046
3.7680052170084	0.95911761321645	7.8923617278336
3.7884835062313	0.94019588803775	7.9309343636457
3.8089617954541	0.92475475846726	7.9788763649566
3.8294400846770	0.91700427347082	8.0331753298415
3.8499183738999	0.91911378776814	8.0889236548175
3.8703966631228	0.93028403651720	8.1408335024575
3.8908749523456	0.94679841350337	8.1842950095283
3.9113532415685	0.96078294022695	8.2179250526471
3.9318315307914	0.96560434490716	8.2507844071462
3.9523098200142	0.97183746251480	8.2921077522755
3.9727881092371	0.98864496198443	8.3300435158281
3.9932663984600	1.0062120610335	8.3548475911095
4.0137446876829	1.0124329589651	8.3708929556382
4.0342229769057	1.0053345317021	8.3909607523569
4.0547012661286	0.99424113206988	8.4214640353214
4.0751795553515	0.98630500913029	8.4587611928717
4.0956578445743	0.98209555696444	8.4980972253888
4.1161361337972	0.97977556279251	8.5377021173995
4.1366144230201	0.97781397042899	8.5780376385841
4.1570927122430	0.97635323212265	8.6213033888655
4.1775710014658	0.97942378949784	8.6685265135925
4.1980492906887	0.99061254873175	8.7149346274760
4.2185275799116	1.0076190486546	8.7547328299256
4.2390058691344	1.0250164045019	8.7854760459412
4.2594841583573	1.0368748839092	8.8093601109515
4.2799624475802	1.0415997715637	8.8319040719167
4.3004407368031	1.0413035092328	8.8561672197189
4.3209190260259	1.0374621386286	8.8830304499571
4.3413973152488	1.0311327045750	8.9134860501062
4.3618756044717	1.0238309586435	8.9482810489770
4.3823538936945	1.0171817242955	8.9878391349526
4.4028321829174	1.0136560773814	9.0323071367564
4.4233104721403	1.0163844637970	9.0798104875973
4.4437887613632	1.0268938588904	9.1262318161941
4.4642670505860	1.0437100145888	9.1667020184768
4.4847453398089	1.0618824294897	9.1982359645648
4.5052236290318	1.0758742791174	9.2222448709677
4.5257019182546	1.0828969967436	9.2427750802547
4.5461802074775	1.0829399157104	9.2639618720127
4.5666584967004	1.0779152966644	9.2887670499213
4.5871367859233	1.0702366771732	9.3183845936448
4.6076150751461	1.0617306935000	9.3533360181639
4.6280933643690	1.0547835413201	9.3943026683954
4.6485716535919	1.0530163754398	9.4404673931454
4.6690499428147	1.0594810590868	9.4882561824677
4.6895282320376	1.0743442905502	9.5320987900197
4.7100065212605	1.0935623175567	9.5672634922002
4.7304848104834	1.1108948337125	9.5931271034718
4.7509630997062	1.1216880271419	9.6130831009738
4.7714413889291	1.1246351032069	9.6319703732254
4.7919196781520	1.1212017232361	9.6536438313544
4.8123979673749	1.1137878077638	9.6801316772281
4.8328762565977	1.1047277125262	9.7125635159539
4.8533545458206	1.0969485933738	9.7515597916973
4.8738328350435	1.0941032682553	9.7961719599498
4.8943111242663	1.0993106822906	9.8430207318964
4.9147894134892	1.1130928158491	9.8867003264955
4.9352677027121	1.1319714642067	9.9223152677156
4.9557459919350	1.1500031476735	9.9485214581974
4.9762242811578	1.1620713144249	9.9680093634370
4.9967025703807	1.1660584094680	9.9855862173370
5.0171808596036	1.1629563875954	10.005739414549
5.0376591488264	1.1555139780979	10.031216450031
5.0581374380493	1.1468608001317	10.063048694784
5.0786157272722	1.1400424331068	10.101101317783
5.0990940164951	1.1381253251698	10.144083974790
5.1195723057179	1.1437044096137	10.188885160990
5.1400505949408	1.1571834706086	10.230651322774
5.1605288841637	1.1754810541774	10.264877933169
5.1810071733865	1.1930848287822	10.290031365750
5.2014854626094	1.2047618315593	10.308476969431
5.2219637518323	1.2080907503212	10.325236473763
5.2424420410552	1.2043630774508	10.345304045623
5.2629203302780	1.1971327565439	10.371288884299
5.2833986195009	1.1898169896147	10.403337212515
5.3038769087238	1.1849153168125	10.440610857824
5.3243551979466	1.1847330091246	10.481750643549
5.3448334871695	1.1913112222730	10.524018875772
5.3653117763924	1.2048891004332	10.563147700845
5.3857900656153	1.2226091927166	10.595047154131
5.4062683548381	1.2391429825086	10.618305510327
5.4267466440610	1.2493081039443	10.635574492721
5.4472249332839	1.2512062210314	10.652334620514
5.4677032225067	1.2471307261470	10.673341198728
5.4881815117296	1.2410354459282	10.700114958864
5.5086598009525	1.2357603694890	10.731906983840
5.5291380901754	1.2329720008611	10.767700007848
5.5496163793982	1.2343591822340	10.806385926466
5.5700946686211	1.2415956282759	10.845664621533
5.5905729578440	1.2548026360336	10.881762114140
5.6110512470668	1.2711471581597	10.911046048219
5.6315295362897	1.2854475047048	10.932700289501
5.6520078255126	1.2932573437210	10.950057299344
5.6724861147355	1.2940668903298	10.968451922862
5.6929644039583	1.2909565052525	10.991272997158
5.7134426931812	1.2872989972263	11.018702343377
5.7339209824041	1.2848546310224	11.049627215259
5.7543992716269	1.2845420486803	11.083293424601
5.7748775608498	1.2876595967193	11.118969774275
5.7953558500727	1.2956311384118	11.154701323102
5.8158341392956	1.3083192109154	11.187123804364
5.8363124285184	1.3227204591781	11.213340176301
5.8567907177413	1.3341411326402	11.233592152719
5.8772690069642	1.3396363461695	11.251650900755
5.8977472961871	1.3400867757940	11.271759717674
5.9182255854099	1.3384684994862	11.295636484919
5.9387038746328	1.3370345203268	11.322713428326
5.9591821638557	1.3366226734774	11.352087608537
5.9796604530785	1.3377761745672	11.383458722066
6.0001387423014	1.3416821232376	11.416394584387
6.0206170315243	1.3495784317280	11.449145808216
6.0410953207472	1.3610394913087	11.478824122947
6.0615736099700	1.3731943081136	11.503477366675
6.0820518991929	1.3824979794136	11.524085074140
6.1025301884158	1.3875467256029	11.543810179435
6.1230084776386	1.3896022164919	11.565228677072
6.1434867668615	1.3906443320480	11.588907891712
6.1639650560844	1.3917285327724	11.614289161126
6.1844433453073	1.3930868061996	11.641067103011
6.2049216345301	1.3951887042197	11.669464041558
6.2253999237530	1.3992479462923	11.699296503858
6.2458782129759	1.4063564774478	11.729083127311
6.2663565021987	1.4160588812612	11.756588950216
6.2868347914216	1.4261914295917	11.780617012580
6.3073130806445	1.4345500159282	11.802023166734
6.3277913698674	1.4404829320199	11.822676931466
6.3482696590902	1.4446652022365	11.843825877058
6.3687479483131	1.4478521433281	11.865709859834
6.3892262375360	1.4502317922178	11.888318776873
6.4097045267588	1.4518412942396	11.912101022035
6.4301828159817	1.4533561033230	11.937769972513
6.4506611052046	1.4562008989839	11.965383576375
6.4711393944275	1.4616392708946	11.993751880693
6.4916176836503	1.4696895759286	12.021005962084
6.5120959728732	1.4790780615016	12.045880473326
6.5325742620961	1.4882760064621	12.068340809791
6.5530525513189	1.4963630990463	12.089069277963
6.5735308405418	1.5029668202622	12.108745221874
6.5940091297647	1.5078082475541	12.127940386082
6.6144874189876	1.5106216824811	12.147475233767
6.6349657082104	1.5116098019347	12.168572472288
6.6554439974333	1.5119191379821	12.192371476580
6.6759222866562	1.5134753826982	12.219065754824
6.6964005758790	1.5180475507708	12.247421881363
6.7168788651019	1.5261809204291	12.275270056829
6.7373571543248	1.5369403128132	12.300663045533
6.7578354435477	1.5485836181045	12.322679436606
6.7783137327705	1.5593468453346	12.341433332370
6.7987920219934	1.5678049654347	12.357764026342
6.8192703112163	1.5729956403939	12.373063500099
6.8397486004392	1.5746625557281	12.389192767514
6.8602268896620	1.5736369395710	12.408142618911
6.8807051788849	1.5719780536305	12.431277751176
6.9011834681078	1.5724483872841	12.458461473923
6.9216617573306	1.5772994524279	12.487742168258
6.9421400465535	1.5870947724520	12.516114237849
6.9626183357764	1.6004857471682	12.540890779120
6.9830966249993	1.6149273887107	12.560699676115
7.0035749142221	1.6276339833476	12.575750664822
7.0240532034450	1.6363444596239	12.587645473170
7.0445314926679	1.6399010679560	12.598984256905
7.0650097818907	1.6386985448792	12.612744601960
7.0854880711136	1.6348166293924	12.631366875573
7.1059663603365	1.6315533747194	12.655757499438
7.1264446495594	1.6323007453611	12.684685143856
7.1469229387822	1.6391515528573	12.715061575900
7.1674012280051	1.6520030460330	12.743113834938
7.1878795172280	1.6686189563962	12.765802531443
7.2083578064508	1.6854433108346	12.781843786036
7.2288360956737	1.6987450224400	12.792128366571
7.2493143848966	1.7058263732516	12.799541075550
7.2697926741195	1.7060640963707	12.808125369983
7.2902709633423	1.7013243568656	12.821646299058
7.3107492525652	1.6953404266831	12.842120089009
7.3312275417881	1.6923153506385	12.869087439181
7.3517058310109	1.6954792048895	12.899848977249
7.3721841202338	1.7060810975458	12.930360698441
7.3926624094567	1.7229630153285	12.956462993405
7.4131406986796	1.7427760841237	12.975192899215
7.4336189879024	1.7608721537250	12.985905875728
7.4540972771253	1.7728247400583	12.990845027430
7.4745755663482	1.7762778170554	12.994667030246
7.4950538555710	1.7722300507410	13.002634605389
7.5155321447939	1.7646444266284	13.018247141835
7.5360104340168	1.7585233253446	13.041946680781
7.5564887232397	1.7579980716340	13.071486712620
7.5769670124625	1.7653677393755	13.102983830368
7.5974453016854	1.7806961438123	13.131888961386
7.6179235909083	1.8015931815929	13.154045781844
7.6384018801311	1.8234594996665	13.167055216845
7.6588801693540	1.8406776400159	13.171628593300
7.6793584585769	1.8488687934296	13.172040591185
7.6998367477998	1.8472918479982	13.174652244549
7.7203150370226	1.8394289942948	13.184787379576
7.7407933262455	1.8309402238575	13.204298587107
7.7612716154684	1.8269345180454	13.231607489712
7.7817499046912	1.8306611657890	13.263126260103
7.8022281939141	1.8432953110897	13.294320534905
7.8227064831370	1.8636695900536	13.320422444291
7.8431847723599	1.8879644772353	13.337620920389
7.8636630615827	1.9102651669536	13.344855039648
7.8841413508056	1.9247276183063	13.345221244443
7.9046196400285	1.9287943753802	13.345277987657
7.9250979292514	1.9250012277339	13.351642139979
7.9455762184742	1.9193922490555	13.367406548863
7.9660545076971	1.9182946282456	13.389150726595
7.9865327969200	1.9200541607052	13.418242008364
