#Parameters = {C_1=26.243897880769; C_2=601.08408413811; Conductivity=10000000; Conductivity_Mo=17900000; Conductivity_MoGr=1000000; Ip=601.65672802697; Pipe_lenght=40; Pipe_r=30; beta=1; cells_wave=30; conductivity_copper=59500000; d=-901.08408413811; half_gap_x=3.7561021192308; half_gap_y=30; half_gap_z=150; mu_copper=0.999994; offset=1.5024408476923; offset_x=1; offset_y=5; sigma_z=5; teta=2.5; thcoll=26.243897880769; translate_z=-751.08408413811; wakelength=20000}
#"Frequency / GHz"	"X [Re / Ohm]"	"X [Im / Ohm]"
#-----------------------------------------------
0.0000000000000	1.3891054785983e-11	-103.85202532880
0.0020002000200020	-35.521755062131	-94.866896358243
0.0040004000400040	-61.862329207494	-70.614972235428
0.0060006000600060	-72.862475465290	-38.243683619928
0.0080008000800080	-67.271692324775	-6.8367453850910
0.010001000100010	-48.830744479059	15.657235441778
0.012001200120012	-24.608573517763	24.893376132956
0.014001400140014	-2.3278086168915	21.125220832978
0.016001600160016	12.245205020412	8.4862799177371
0.018001800180018	16.886689722890	-6.9958925078836
0.020002000200020	13.013661174532	-19.759797399335
0.022002200220022	4.4644330555806	-26.508910449914
0.024002400240024	-4.3732817527667	-26.857027287278
0.026002600260026	-10.259820369097	-22.770265992332
0.028002800280028	-12.000769674633	-17.244967095205
0.030003000300030	-10.349347865807	-12.894608489190
0.032003200320032	-7.1634579237426	-11.032688703466
0.034003400340034	-4.3293028781498	-11.517488462274
0.036003600360036	-2.9579778142449	-13.246680885652
0.038003800380038	-3.1352908806573	-14.932125521405
0.040004000400040	-4.1984776148612	-15.742684680272
0.042004200420042	-5.2809402194276	-15.555897296102
0.044004400440044	-5.8015705590881	-14.800348236691
0.046004600460046	-5.6768196435014	-14.069169812412
0.048004800480048	-5.2203381641772	-13.754414928916
0.050005000500050	-4.8589255833663	-13.883774273768
0.052005200520052	-4.8578646650141	-14.196436209764
0.054005400540054	-5.2007306927508	-14.361987737531
0.056005600560056	-5.6551923954998	-14.191040345333
0.058005800580058	-5.9491610085340	-13.722428586175
0.060006000600060	-5.9364003578045	-13.162741136148
0.062006200620062	-5.6600475397983	-12.740543687760
0.064006400640064	-5.2967850017668	-12.573684545366
0.066006600660066	-5.0347860697783	-12.622813326409
0.068006800680068	-4.9666766656435	-12.742431890117
0.070007000700070	-5.0561110854958	-12.783267089274
0.072007200720072	-5.1844057075757	-12.678231460229
0.074007400740074	-5.2364608973909	-12.465056251978
0.076007600760076	-5.1691371237222	-12.243156106407
0.078007800780078	-5.0246994252479	-12.101107639618
0.080008000800080	-4.8901905374377	-12.062675673850
0.082008200820082	-4.8355291673882	-12.080963140784
0.084008400840084	-4.8709651023262	-12.077138961559
0.086008600860086	-4.9470907866870	-11.993941390084
0.088008800880088	-4.9917589549421	-11.829350085258
0.090009000900090	-4.9566985508000	-11.632404651592
0.092009200920092	-4.8442560302885	-11.468380055590
0.094009400940094	-4.7004431743002	-11.378177057613
0.096009600960096	-4.5825849078072	-11.357212314370
0.098009800980098	-4.5242267631638	-11.364183662341
0.10001000100010	-4.5188581733388	-11.350713012158
0.10201020102010	-4.5299623290897	-11.291287778516
0.10401040104010	-4.5179651996931	-11.195231478768
0.10601060106011	-4.4654597296313	-11.095610028092
0.10801080108011	-4.3853424588349	-11.024742453561
0.11001100110011	-4.3088176673396	-10.993130231758
0.11201120112011	-4.2630427659954	-10.984612898754
0.11401140114011	-4.2535738109124	-10.969074493366
0.11601160116012	-4.2621940662657	-10.922938228343
0.11801180118012	-4.2600346193561	-10.843802289048
0.12001200120012	-4.2263498955574	-10.750558156540
0.12201220122012	-4.1606956885048	-10.670218338426
0.12401240124012	-4.0815173317705	-10.620851032695
0.12601260126013	-4.0132668730741	-10.601566781095
0.12801280128013	-3.9711032726395	-10.595093726210
0.13001300130013	-3.9528800868164	-10.580129987597
0.13201320132013	-3.9426700371851	-10.544843569015
0.13401340134013	-3.9224770816517	-10.492994947867
0.13601360136014	-3.8839818530867	-10.439579634684
0.13801380138014	-3.8329072474576	-10.399758597192
0.14001400140014	-3.7839201932307	-10.378731869487
0.14201420142014	-3.7501577550621	-10.368936982743
0.14401440144014	-3.7345287257448	-10.355763322505
0.14601460146015	-3.7282294264306	-10.327463923660
0.14801480148015	-3.7168982442567	-10.282616921376
0.15001500150015	-3.6899483553707	-10.230552201476
0.15201520152015	-3.6469359201582	-10.184963081531
0.15401540154015	-3.5971535386538	-10.155219611064
0.15601560156016	-3.5532023594069	-10.141014569733
0.15801580158016	-3.5230371861616	-10.133445151898
0.16001600160016	-3.5055960698662	-10.121337190432
0.16201620162016	-3.4924655371215	-10.098404150255
0.16401640164016	-3.4740244954598	-10.066652091699
0.16601660166017	-3.4457928464091	-10.034181992201
0.16801680168017	-3.4109117745199	-10.009248190585
0.17001700170017	-3.3774600352123	-9.9946815096217
0.17201720172017	-3.3527122846326	-9.9862526263484
0.17401740174017	-3.3382614173937	-9.9757723542634
0.17601760176018	-3.3291098889417	-9.9566283198323
0.17801780178018	-3.3170859315485	-9.9280395993088
0.18001800180018	-3.2961433874449	-9.8953647992004
0.18201820182018	-3.2660473814507	-9.8664892404992
0.18401840184018	-3.2321934671896	-9.8468197568067
0.18601860186019	-3.2019120642120	-9.8361458753132
0.18801880188019	-3.1798241697421	-9.8292314445641
0.19001900190019	-3.1652506197648	-9.8195068405695
0.19201920192019	-3.1531706274904	-9.8033005020782
0.19401940194019	-3.1378616841586	-9.7818770905217
0.19601960196020	-3.1166970110939	-9.7601358805875
0.19801980198020	-3.0916432512159	-9.7430414649801
0.20002000200020	-3.0676399216965	-9.7322491906219
0.20202020202020	-3.0491056946105	-9.7251093114038
0.20402040204020	-3.0369544193036	-9.7165662498530
0.20602060206021	-3.0280396981671	-9.7025664503717
0.20802080208021	-3.0172722460989	-9.6826871785931
0.21002100210021	-3.0009151674937	-9.6603216238983
0.21202120212021	-2.9788806402940	-9.6404165237765
0.21402140214021	-2.9546067572403	-9.6263318139543
0.21602160216022	-2.9327207171003	-9.6178712637409
0.21802180218022	-2.9161005805901	-9.6116709094000
0.22002200220022	-2.9042414505707	-9.6035560808335
0.22202220222022	-2.8938859498902	-9.5912397724910
0.22402240224022	-2.8813696544985	-9.5756120232992
0.22602260226023	-2.8650613270838	-9.5598795528535
0.22802280228023	-2.8463106548531	-9.5472452052080
0.23002300230023	-2.8283716771280	-9.5387232728260
0.23202320232023	-2.8141126341145	-9.5325127371303
0.23402340234023	-2.8040706232901	-9.5252650039593
0.23602360236024	-2.7961097532179	-9.5143341428230
0.23802380238024	-2.7868410493022	-9.4995012837394
0.24002400240024	-2.7738123069176	-9.4830738483412
0.24202420242024	-2.7570221502786	-9.4683611342825
0.24402440244024	-2.7388142541423	-9.4575756533348
0.24602460246025	-2.7222948557628	-9.4505304086584
0.24802480248025	-2.7093592294281	-9.4449240737519
0.25002500250025	-2.6996094358485	-9.4379455992792
0.25202520252025	-2.6908058229719	-9.4280950422286
0.25402540254025	-2.6804724246753	-9.4160363070486
0.25602560256026	-2.6675507714566	-9.4039856130926
0.25802580258026	-2.6530225242232	-9.3941145019165
0.26002600260026	-2.6391458743218	-9.3870631368809
0.26202620262026	-2.6278712613746	-9.3815357181920
0.26402640264026	-2.6195124937643	-9.3751998287989
0.26602660266027	-2.6125371748109	-9.3662506167991
0.26802680268027	-2.6045753754588	-9.3545926682275
0.27002700270027	-2.5939484638726	-9.3418822606249
0.27202720272027	-2.5807094483382	-9.3304421980148
0.27402740274027	-2.5665426480880	-9.3217909891215
0.27602760276028	-2.5536343610625	-9.3157465811400
0.27802780278028	-2.5432850711653	-9.3106526519443
0.28002800280028	-2.5351654411220	-9.3045268595277
0.28202820282028	-2.5276605412976	-9.2963449604473
0.28402840284028	-2.5190218911082	-9.2866245281608
0.28602860286029	-2.5085365888845	-9.2769661896794
0.28802880288029	-2.4969488297179	-9.2689044259305
0.29002900290029	-2.4858913803305	-9.2628545663320
0.29202920292029	-2.4767424414850	-9.2578461531576
0.29402940294029	-2.4696830848943	-9.2521902581719
0.29602960296030	-2.4635700557206	-9.2446110350756
0.29802980298030	-2.4566833909680	-9.2350847277157
0.30003000300030	-2.4478350744560	-9.2248464852889
0.30203020302030	-2.4371076025344	-9.2155858346172
0.30403040304030	-2.4257575642181	-9.2083777317826
0.30603060306031	-2.4153774721351	-9.2030470959110
0.30803080308031	-2.4068851800015	-9.1983570279424
0.31003100310031	-2.3999982401873	-9.1928623001814
0.31203120312031	-2.3935085993687	-9.1858460008171
0.31403140314031	-2.3861403229206	-9.1777287757728
0.31603160316032	-2.3774034839328	-9.1697097225949
0.31803180318032	-2.3678849539567	-9.1629094181097
0.32003200320032	-2.3588080674130	-9.1576001745679
0.32203220322032	-2.3511789687465	-9.1530289151432
0.32403240324032	-2.3450973953686	-9.1479309048267
0.32603260326033	-2.3396823790804	-9.1413757637793
0.32803280328033	-2.3336459040728	-9.1333806920645
0.33003300330033	-2.3261226513051	-9.1248955447664
0.33203320332033	-2.3172090286876	-9.1171864391678
0.33403340334033	-2.3078713318211	-9.1110350132886
0.33603360336034	-2.2993038356373	-9.1062760118937
0.33803380338034	-2.2921712179807	-9.1019578480298
0.34003400340034	-2.2862281738522	-9.0969963606310
0.34203420342034	-2.2805449654452	-9.0908772924863
0.34403440344034	-2.2741646598149	-9.0839493491866
0.34603460346035	-2.2667435647462	-9.0771350126732
0.34803480348035	-2.2587550460315	-9.0712736779862
0.35003500350035	-2.2511389136608	-9.0665446477129
0.35203520352035	-2.2446469748321	-9.0623493148459
0.35403540354035	-2.2393270419303	-9.0577174678902
0.35603560356036	-2.2344832420779	-9.0519559697575
0.35803580358036	-2.2291279644653	-9.0451069110214
0.36003600360036	-2.2226181516454	-9.0379192401157
0.36203620362036	-2.2150567752987	-9.0313641413294
0.36403640364036	-2.2072055997707	-9.0260209109240
0.36603660366037	-2.1999809861834	-9.0217341800430
0.36803680368037	-2.1938728758148	-9.0177538802226
0.37003700370037	-2.1886650266508	-9.0132485297410
0.37203720372037	-2.1836249427627	-9.0078438386152
0.37403740374037	-2.1780197742969	-9.0018352047364
0.37603760376038	-2.1716070016247	-8.9959487644982
0.37803780378038	-2.1647780060768	-8.9908258960500
0.38003800380038	-2.1582717140350	-8.9865816783854
0.38203820382038	-2.1526611216597	-8.9827278942237
0.38403840384038	-2.1479591502846	-8.9785024149608
0.38603860386039	-2.1436022289331	-8.9733780029268
0.38803880388039	-2.1388149220384	-8.9674114114055
0.39003900390039	-2.1331088233550	-8.9612069707843
0.39203920392039	-2.1265873865719	-8.9555268399419
0.39403940394039	-2.1198637725101	-8.9508097727606
0.39603960396040	-2.1136562470793	-8.9469122928152
0.39803980398040	-2.1083333052315	-8.9432318824511
0.40004000400040	-2.1037044051951	-8.9391182076495
0.40204020402040	-2.0991821440783	-8.9342942115443
0.40404040404040	-2.0941950268608	-8.9290123122730
0.40604060406041	-2.0885703494101	-8.9238538588636
0.40804080408041	-2.0826358838435	-8.9193171642134
0.41004100410041	-2.0769821285141	-8.9154738568217
0.41204120412041	-2.0720523845127	-8.9119199521751
0.41404140414041	-2.0678369955339	-8.9080474307989
0.41604160416042	-2.0638724978114	-8.9034500495391
0.41804180418042	-2.0595409095161	-8.8981930586003
0.42004200420042	-2.0544672952821	-8.8927720831466
0.42204220422042	-2.0487540482207	-8.8877941357693
0.42404240424042	-2.0429034317739	-8.8835944558297
0.42604260426043	-2.0374870692900	-8.8800390427271
0.42804280428043	-2.0327841275988	-8.8766346904345
0.43004300430043	-2.0286234968309	-8.8728644194185
0.43204320432043	-2.0245247270330	-8.8685219814376
0.43404340434043	-2.0200342520531	-8.8638272186757
0.43604360436044	-2.0150289637743	-8.8592547603498
0.43804380438044	-2.0097879096284	-8.8551989750183
0.44004400440044	-2.0047915712832	-8.8517022553947
0.44204420442044	-2.0003890672850	-8.8484256566213
0.44404440444044	-1.9965573266055	-8.8448763487530
0.44604460446045	-1.9929104056449	-8.8407364640167
0.44804480448045	-1.9889488136637	-8.8360744397908
0.45004500450045	-1.9843810926916	-8.8313018548639
0.45204520452045	-1.9793061401871	-8.8269086196977
0.45404540454045	-1.9741406949809	-8.8231535901188
0.45604560456046	-1.9693456002601	-8.8199123632823
0.45804580458046	-1.9651341831158	-8.8167760987955
0.46004600460046	-1.9613524287003	-8.8133288491180
0.46204620462046	-1.9576027267236	-8.8094165961138
0.46404640464046	-1.9535214303238	-8.8052324397587
0.46604660466047	-1.9490223686732	-8.8011683871067
0.46804680468047	-1.9443464354218	-8.7975391842614
0.47004700470047	-1.9398897054388	-8.7943650873968
0.47204720472047	-1.9359295478286	-8.7913567813263
0.47404740474047	-1.9324328880418	-8.7881087209577
0.47604760476048	-1.9290726267278	-8.7843693308911
0.47804780478048	-1.9254384349260	-8.7802083995138
0.48004800480048	-1.9213005196347	-8.7759731348004
0.48204820482048	-1.9167530362673	-8.7720651873426
0.48404840484048	-1.9121463116145	-8.7686874030176
0.48604860486049	-1.9078570948508	-8.7657253311843
0.48804880488049	-1.9040504493976	-8.7628363546506
0.49004900490049	-1.9005880878322	-8.7596818231724
0.49204920492049	-1.8971377606420	-8.7561460344518
0.49404940494049	-1.8934050323278	-8.7523991720346
0.49604960496050	-1.8893307217942	-8.7487679870908
0.49804980498050	-1.8851243048320	-8.7455056630537
0.50005000500050	-1.8811152823970	-8.7426164997399
0.50205020502050	-1.8775253639462	-8.7398511213693
0.50405040504050	-1.8743145563390	-8.7368726008473
0.50605060506051	-1.8712024412419	-8.7334808368593
0.50805080508051	-1.8678484519394	-8.7297460764620
0.51005100510051	-1.8640705496288	-8.7259649321681
0.51205120512051	-1.8599587078014	-8.7224703753172
0.51405140514051	-1.8558113562472	-8.7194221650507
0.51605160516052	-1.8519402000635	-8.7167141581833
0.51805180518052	-1.8484736316975	-8.7140553258051
0.52005200520052	-1.8452864235948	-8.7111664001145
0.52205220522052	-1.8420972680770	-8.7079601116804
0.52405240524052	-1.8386645621256	-8.7045875048832
0.52605260526053	-1.8349482342087	-8.7013241472476
0.52805280528053	-1.8311313511341	-8.6983762955879
0.53005300530053	-1.8274905589734	-8.6957380012679
0.53205320532053	-1.8242047495489	-8.6931934861379
0.53405340534053	-1.8212304999333	-8.6904610030953
0.53605360536054	-1.8183263362691	-8.6873807864540
0.53805380538054	-1.8152081591620	-8.6840221684326
0.54005400540054	-1.8117319957670	-8.6806402526888
0.54205420542054	-1.8079840447244	-8.6775125964375
0.54405440544054	-1.8042209681545	-8.6747644389673
0.54605460546055	-1.8007025142726	-8.6722962707817
0.54805480548055	-1.7975279452749	-8.6698580665512
0.55005500550055	-1.7945824850305	-8.6672175572737
0.55205520552055	-1.7916252124621	-8.6643097668765
0.55405540554055	-1.7884562129650	-8.6612703623746
0.55605560556056	-1.7850503202306	-8.6583343726466
0.55805580558056	-1.7815696617820	-8.6556711090582
0.56005600560056	-1.7782494070821	-8.6532666723391
0.56205620562056	-1.7752352261908	-8.6509315986608
0.56405640564056	-1.7724815285811	-8.6484268429722
0.56605660566057	-1.7697775114555	-8.6456230488888
0.56805680568057	-1.7668825482476	-8.6425873588372
0.57005700570057	-1.7636806569416	-8.6395413885734
0.57205720572057	-1.7602526987976	-8.6367195694204
0.57405740574057	-1.7568206801568	-8.6342218472905
0.57605760576058	-1.7536031030584	-8.6319565457449
0.57805780578058	-1.7506775768919	-8.6297081431348
0.58005800580058	-1.7479398185600	-8.6272822099504
0.58205820582058	-1.7451827705960	-8.6246304651385
0.58405840584058	-1.7422401109003	-8.6218745078662
0.58605860586059	-1.7390974798134	-8.6192155824932
0.58805880588059	-1.7358984254705	-8.6167932938528
0.59005900590059	-1.7328433901663	-8.6145885847676
0.59205920592059	-1.7300510198165	-8.6124350557414
0.59405940594059	-1.7274748773342	-8.6101297227839
0.59605960596060	-1.7249304891005	-8.6075685298729
0.59805980598060	-1.7222138785058	-8.6048166132621
0.60006000600060	-1.7192326390157	-8.6020676303125
0.60206020602060	-1.7160635241716	-8.5995201283493
0.60406040604060	-1.7129001679738	-8.5972528980104
0.60606060606061	-1.7099271746070	-8.5951803885296
0.60806080608061	-1.7072042271212	-8.5931151836514
0.61006100610061	-1.7046353863690	-8.5908938548389
0.61206120612061	-1.7020410904045	-8.5884820363402
0.61406140614061	-1.6992824617386	-8.5859903064890
0.61606160616062	-1.6963542923759	-8.5835928905603
0.61806180618062	-1.6933856897158	-8.5814055992442
0.62006200620062	-1.6905498017790	-8.5794052480589
0.62206220622062	-1.6879443337822	-8.5774437767114
0.62406240624062	-1.6855229671008	-8.5753465912074
0.62606260626063	-1.6831229109950	-8.5730289578778
0.62806280628063	-1.6805696136832	-8.5705532010739
0.63006300630063	-1.6777889891689	-8.5680895315707
0.63206320632063	-1.6748535478077	-8.5658072641370
0.63406340634063	-1.6719333542361	-8.5637684443163
0.63606360636064	-1.6691855980694	-8.5618930345217
0.63806380638064	-1.6666560563300	-8.5600165773186
0.64006400640064	-1.6642563138269	-8.5580002420646
0.64206420642064	-1.6618294271689	-8.5558197553394
0.64406440644064	-1.6592582756767	-8.5535753594695
0.64606460646065	-1.6565437716057	-8.5514183661160
0.64806480648065	-1.6538016330478	-8.5494451225335
0.65006500650065	-1.6511814237080	-8.5476298048417
0.65206520652065	-1.6487631087549	-8.5458404401593
0.65406540654065	-1.6465004863470	-8.5439266237214
0.65606560656066	-1.6442488512179	-8.5418199771960
0.65806580658066	-1.6418580263437	-8.5395806621567
0.66006600660066	-1.6392689594329	-8.5373596772242
0.66206620662066	-1.6365505277900	-8.5353024990092
0.66406640664066	-1.6338533747743	-8.5334577645819
0.66606660666067	-1.6313123541119	-8.5317503186569
0.66806680668067	-1.6289621948539	-8.5300346780389
0.67006700670067	-1.6267209708502	-8.5281919691192
0.67206720672067	-1.6244502590189	-8.5262057259115
0.67406740674067	-1.6220502570064	-8.5241673337404
0.67606760676068	-1.6195260377598	-8.5222094073461
0.67806780678068	-1.6169815742550	-8.5204130791144
0.68006800680068	-1.6145468897117	-8.5187515751741
0.68206820682068	-1.6122880006336	-8.5171073036584
0.68406840684068	-1.6101600245961	-8.5153503026733
0.68606860686069	-1.6080344050796	-8.5134253217151
0.68806880688069	-1.6057817400111	-8.5113897040547
0.69006900690069	-1.6033551689777	-8.5093774163276
0.69206920692069	-1.6008195857895	-8.5075135434319
0.69406940694069	-1.5983083156111	-8.5058357862571
0.69606960696070	-1.5959367788889	-8.5042739989188
0.69806980698070	-1.5937303231122	-8.5026998265644
0.70007000700070	-1.5916129641377	-8.5010122945289
0.70207020702070	-1.5894627820226	-8.4992023199264
0.70407040704070	-1.5871957185835	-8.4973542309747
0.70607060706071	-1.5848215886534	-8.4955848461778
0.70807080708071	-1.5824356196561	-8.4939619824039
0.71007100710071	-1.5801522528670	-8.4924571656939
0.71207120712071	-1.5780261898333	-8.4909637576902
0.71407140714071	-1.5760135504208	-8.4893678395069
0.71607160716072	-1.5739987813725	-8.4876243242524
0.71807180718072	-1.5718691320180	-8.4857878085692
0.72007200720072	-1.5695872838325	-8.4839781113195
0.72207220722072	-1.5672145121420	-8.4823037060177
0.72407240724072	-1.5648699003317	-8.4807936113655
0.72607260726073	-1.5626532971034	-8.4793819715332
0.72807280728073	-1.5605829810997	-8.4779542382952
0.73007300730073	-1.5585883534853	-8.4764232985692
0.73207320732073	-1.5565610000330	-8.4747848860717
0.73407340734073	-1.5544289709246	-8.4731163294063
0.73607360736074	-1.5522045283545	-8.4715208373770
0.73807380738074	-1.5499741346117	-8.4700555305807
0.74007400740074	-1.5478383110373	-8.4686915518688
0.74207420742074	-1.5458421846484	-8.4673325553950
