#Parameters = {C_1=13.247618914885; C_2=303.4203577015; Conductivity=10000000; Conductivity_Mo=17900000; Conductivity_MoGr=1000000; Ip=303.70942177453; Pipe_lenght=40; Pipe_r=30; beta=1; cells_wave=30; conductivity_copper=59500000; d=-603.4203577015; half_gap_x=16.752381085115; half_gap_y=30; half_gap_z=150; mu_copper=0.999994; offset=6.7009524340459; offset_x=1; offset_y=5; sigma_z=5; teta=2.5; thcoll=13.247618914885; translate_z=-453.4203577015; wakelength=20000}
#"Frequency / GHz"	"X [Re / Ohm]"	"X [Im / Ohm]"
#-----------------------------------------------
0.0000000000000	-1.6087200489803e-12	10.160704078856
0.0020002000200020	4.3929392418637	9.0389307342255
0.0040004000400040	7.6388103067203	6.0112785623796
0.0060006000600060	8.9678762850171	1.9705506117097
0.0080008000800080	8.2234034344032	-1.9483561042297
0.010001000100010	5.8721416258177	-4.7519260430283
0.012001200120012	2.7968867485628	-5.8963670917590
0.014001400140014	-0.037307305964310	-5.4120701767216
0.016001600160016	-1.9090316357125	-3.8142520049107
0.018001800180018	-2.5388205036646	-1.8553054330526
0.020002000200020	-2.1018123482469	-0.23025947074856
0.022002200220022	-1.0759111518826	0.64793902265769
0.024002400240024	-0.0083639625244698	0.72933370923618
0.026002600260026	0.69611627800829	0.25772775811815
0.028002800280028	0.88756273009990	-0.39400344713186
0.030003000300030	0.65892393216874	-0.90014643527144
0.032003200320032	0.24119574955684	-1.0966980986708
0.034003400340034	-0.13071238094147	-1.0009815714717
0.036003600360036	-0.31822578768431	-0.75019938216427
0.038003800380038	-0.31046439847939	-0.50494656379019
0.040004000400040	-0.18991618973469	-0.36905591087693
0.042004200420042	-0.064632263983513	-0.35812093056837
0.044004400440044	-0.0072401503348026	-0.41902172236229
0.046004600460046	-0.028446790280910	-0.47801635530693
0.048004800480048	-0.089459227275539	-0.48629415987306
0.050005000500050	-0.13732029820231	-0.44036402953561
0.052005200520052	-0.13911861296526	-0.37266121830895
0.054005400540054	-0.096988000858641	-0.32431682683063
0.056005600560056	-0.039947877863767	-0.31892814715031
0.058005800580058	-0.0019866261250393	-0.35167999217344
0.060006000600060	-0.0014369047130386	-0.39685225144495
0.062006200620062	-0.033050180643614	-0.42596132185335
0.064006400640064	-0.074931620506225	-0.42428710711828
0.066006600660066	-0.10372992452030	-0.39667421519117
0.068006800680068	-0.10796834230794	-0.36118908736622
0.070007000700070	-0.092216491954271	-0.33638021152079
0.072007200720072	-0.071294036710587	-0.33057367396508
0.074007400740074	-0.059577664284510	-0.33904877411438
0.076007600760076	-0.062486887294493	-0.34940248004977
0.078007800780078	-0.074806053924447	-0.35057620380085
0.080008000800080	-0.085739012326082	-0.33957713106014
0.082008200820082	-0.086615259556276	-0.32220962630182
0.084008400840084	-0.076188557054865	-0.30825559444255
0.086008600860086	-0.060637722021764	-0.30481305363379
0.088008800880088	-0.048971176882879	-0.31210217139580
0.090009000900090	-0.047222051449625	-0.32398432065857
0.092009200920092	-0.055116639155608	-0.33229795729118
0.094009400940094	-0.066938380574625	-0.33191670091984
0.096009600960096	-0.075556121847132	-0.32338056106594
0.098009800980098	-0.076795585237900	-0.31180688251246
0.10001000100010	-0.071469176733760	-0.30320002225852
0.10201020102010	-0.064127461906726	-0.30072181101268
0.10401040104010	-0.059704911329153	-0.30319835869817
0.10601060106011	-0.060378514403741	-0.30649875657745
0.10801080108011	-0.064552768324849	-0.30658292240647
0.11001100110011	-0.068351316502854	-0.30212534766901
0.11201120112011	-0.068399248451870	-0.29511953830462
0.11401140114011	-0.064008899273675	-0.28929730685928
0.11601160116012	-0.057451062073503	-0.28757771549189
0.11801180118012	-0.052322226674158	-0.29024467482104
0.12001200120012	-0.051207212198542	-0.29493162564671
0.12201220122012	-0.054162637013570	-0.29826111429945
0.12401240124012	-0.058892173197641	-0.29796958330832
0.12601260126013	-0.062350246809863	-0.29415462883279
0.12801280128013	-0.062647181633690	-0.28895503684787
0.13001300130013	-0.060047458727873	-0.28501322876125
0.13201320132013	-0.056531688200772	-0.28379432368161
0.13401340134013	-0.054338941727569	-0.28482328127238
0.13601360136014	-0.054504485490262	-0.28622671900327
0.13801380138014	-0.056315957320528	-0.28611059314137
0.14001400140014	-0.057947686070016	-0.28382077805192
0.14201420142014	-0.057764401558531	-0.28029195297968
0.14401440144014	-0.055404098366711	-0.27733631981264
0.14601460146015	-0.051962860956570	-0.27640964895654
0.14801480148015	-0.049228653610232	-0.27768226688057
0.15001500150015	-0.048519311119624	-0.27998583313108
0.15201520152015	-0.049889501186242	-0.28160866354814
0.15401540154015	-0.052181128369679	-0.28137736189905
0.15601560156016	-0.053823507603518	-0.27932367043683
0.15801580158016	-0.053823837665276	-0.27655011394140
0.16001600160016	-0.052311581860293	-0.27444285684559
0.16201620162016	-0.050331498392851	-0.27378045368718
0.16401640164016	-0.049079043431045	-0.27430978618500
0.16601660166017	-0.049110160136206	-0.27501939653000
0.16801680168017	-0.050032504610162	-0.27487889558609
0.17001700170017	-0.050839437917284	-0.27353302453736
0.17201720172017	-0.050624642417752	-0.27150527532062
0.17401740174017	-0.049189157317742	-0.26981190494966
0.17601760176018	-0.047154337628904	-0.26927273324624
0.17801780178018	-0.045536472006948	-0.26998160958073
0.18001800180018	-0.045087001927774	-0.27126820730500
0.18201820182018	-0.045833774421615	-0.27214789091448
0.18401840184018	-0.047103678255104	-0.27194483566964
0.18601860186019	-0.047982795936481	-0.27068271321499
0.18801880188019	-0.047894578073034	-0.26901093542130
0.19001900190019	-0.046922284432878	-0.26774494567186
0.19201920192019	-0.045689545446213	-0.26733946520150
0.19401940194019	-0.044907176843172	-0.26763488710753
0.19601960196020	-0.044900498725220	-0.26801946526446
0.19801980198020	-0.045423065024622	-0.26787373710476
0.20002000200020	-0.045858619800849	-0.26699056431161
0.20202020202020	-0.045656174502377	-0.26569890963032
0.20402040204020	-0.044701478562586	-0.26462714151390
0.20602060206021	-0.043386004956600	-0.26427858504226
0.20802080208021	-0.042343115704671	-0.26470419237851
0.21002100210021	-0.042037606235349	-0.26547957976614
0.21202120212021	-0.042479662914950	-0.26598684886083
0.21402140214021	-0.043240186641674	-0.26580572197512
0.21602160216022	-0.043741779453169	-0.26495885261479
0.21802180218022	-0.043624635575570	-0.26386354783277
0.22002200220022	-0.042950042270106	-0.26303837451549
0.22202220222022	-0.042121996286953	-0.26276724909843
0.22402240224022	-0.041595340250046	-0.26293890700664
0.22602260226023	-0.041572110610273	-0.26315393848509
0.22802280228023	-0.041883659742155	-0.26301352218827
0.23002300230023	-0.042124693065532	-0.26239117587967
0.23202320232023	-0.041938246509464	-0.26151056410417
0.23402340234023	-0.041257614953969	-0.26078755998661
0.23602360236024	-0.040348622996158	-0.26055016672439
0.23802380238024	-0.039632658882103	-0.26082406937292
0.24002400240024	-0.039414035693340	-0.26132058321818
0.24202420242024	-0.039691672269344	-0.26162667650545
0.24402440244024	-0.040172537164897	-0.26146631928426
0.24602460246025	-0.040468906625281	-0.26086255789704
0.24802480248025	-0.040344170366167	-0.26010179091948
0.25002500250025	-0.039847516494169	-0.25953378755936
0.25202520252025	-0.039257567326000	-0.25934488848793
0.25402540254025	-0.038882354507946	-0.25945185624251
0.25602560256026	-0.038853339436140	-0.25957810143256
0.25802580258026	-0.039047899448226	-0.25945259658581
0.26002600260026	-0.039184440876846	-0.25899500652424
0.26202620262026	-0.039019670799220	-0.25836604720965
0.26402640264026	-0.038514029872147	-0.25785550110674
0.26602660266027	-0.037857754049071	-0.25768749810152
0.26802680268027	-0.037345296740093	-0.25787343261232
0.27002700270027	-0.037185054511693	-0.25820675650642
0.27202720272027	-0.037369951822414	-0.25839806973120
0.27402740274027	-0.037690014755728	-0.25825813468995
0.27602760276028	-0.037872959838328	-0.25780930626082
0.27802780278028	-0.037756842502647	-0.25725723805886
0.28002800280028	-0.037382486345159	-0.25684792409706
0.28202820282028	-0.036950461903983	-0.25670796932112
0.28402840284028	-0.036677624189272	-0.25677214769308
0.28602860286029	-0.036651685255744	-0.25684072479710
0.28802880288029	-0.036778970781316	-0.25672261058886
0.29002900290029	-0.036855430030818	-0.25636636975533
0.29202920292029	-0.036709072409557	-0.25589321354231
0.29402940294029	-0.036317280526847	-0.25551370506788
0.29602960296030	-0.035822502180970	-0.25538675531286
0.29802980298030	-0.035439012668833	-0.25551516326434
0.30003000300030	-0.035314793699929	-0.25574484616747
0.30203020302030	-0.035439574769603	-0.25586508550159
0.30403040304030	-0.035656873147122	-0.25574163795486
0.30603060306031	-0.035768357028536	-0.25539582270322
0.30803080308031	-0.035659612672115	-0.25498105880362
0.31003100310031	-0.035365499259849	-0.25467663810736
0.31203120312031	-0.035035894389776	-0.25457122624885
0.31403140314031	-0.034828949730073	-0.25461205950536
0.31603160316032	-0.034804929218031	-0.25464974828635
0.31803180318032	-0.034890194368624	-0.25454494236444
0.32003200320032	-0.034932155420276	-0.25426401136978
0.32203220322032	-0.034805545909477	-0.25390089356527
0.32403240324032	-0.034498090876491	-0.25361299140072
0.32603260326033	-0.034119563045944	-0.25351583320147
0.32803280328033	-0.033830224781131	-0.25360684894126
0.33003300330033	-0.033737517607292	-0.25376740040938
0.33203320332033	-0.033829066983241	-0.25383963494777
0.33403340334033	-0.033984266672498	-0.25372616486716
0.33603360336034	-0.034054277835762	-0.25344751718133
0.33803380338034	-0.033956303070189	-0.25312200451267
0.34003400340034	-0.033720803147454	-0.25288427683607
0.34203420342034	-0.033463273347430	-0.25279793867161
0.34403440344034	-0.033302373825415	-0.25281923085066
0.34603460346035	-0.033280290895939	-0.25283319206064
0.34803480348035	-0.033337549225751	-0.25273548665429
0.35003500350035	-0.033356837415667	-0.25250414587114
0.35203520352035	-0.033244549921262	-0.25221404713457
0.35403540354035	-0.032994949844043	-0.25198615135709
0.35603560356036	-0.032694942787363	-0.25190666778514
0.35803580358036	-0.032467650603590	-0.25197006731759
0.36003600360036	-0.032393124057870	-0.25208274454954
0.36203620362036	-0.032458395443826	-0.25212347150340
0.36403640364036	-0.032568429406166	-0.25201989760749
0.36603660366037	-0.032608961750578	-0.25179118852689
0.36803680368037	-0.032518833174825	-0.25153054056523
0.37003700370037	-0.032324763996118	-0.25134126047898
0.37203720372037	-0.032117662104866	-0.25126976282953
0.37403740374037	-0.031988417217992	-0.25127920114699
0.37603760376038	-0.031966911802181	-0.25127926377787
0.37803780378038	-0.032004268558775	-0.25119030357423
0.38003800380038	-0.032008559240617	-0.25099817094217
0.38203820382038	-0.031908669997395	-0.25076364589229
0.38403840384038	-0.031703208326132	-0.25058135697693
0.38603860386039	-0.031462368805495	-0.25051650034074
0.38803880388039	-0.031282450148662	-0.25056155369794
0.39003900390039	-0.031223804498410	-0.25064100183631
0.39203920392039	-0.031273065456316	-0.25065995631628
0.39403940394039	-0.031353571088461	-0.25056401259501
0.39603960396040	-0.031375834880187	-0.25037129899744
0.39803980398040	-0.031294124983975	-0.25015695087664
0.40004000400040	-0.031132351442123	-0.25000182055283
0.40204020402040	-0.030963699200549	-0.24994010358586
0.40404040404040	-0.030859157207488	-0.24994004886510
0.40604060406041	-0.030839904541664	-0.24992908592995
0.40804080408041	-0.030864797288484	-0.24984518078990
0.41004100410041	-0.030860108962861	-0.24967956072665
0.41204120412041	-0.030770614272082	-0.24948267022325
0.41404140414041	-0.030597592005817	-0.24933024065140
0.41604160416042	-0.030398808198821	-0.24927273858218
0.41804180418042	-0.030251161166762	-0.24930185567666
0.42004200420042	-0.030201180487286	-0.24935573551065
0.42204220422042	-0.030235936328765	-0.24935875113908
0.42404240424042	-0.030292775252160	-0.24926918321180
0.42604260426043	-0.030300499272999	-0.24910371380053
0.42804280428043	-0.030224350774357	-0.24892364610657
0.43004300430043	-0.030085548436014	-0.24879314460617
0.43204320432043	-0.029943661213602	-0.24873768926025
0.43404340434043	-0.029854772973960	-0.24872985585937
0.43604360436044	-0.029833821026626	-0.24871073393478
0.43804380438044	-0.029845843034379	-0.24863160853282
0.44004400440044	-0.029831077385587	-0.24848763750983
0.44204420442044	-0.029746373928461	-0.24832131445035
0.44404440444044	-0.029595029011283	-0.24819402347336
0.44604460446045	-0.029425434856854	-0.24814510425254
0.44804480448045	-0.029299910836439	-0.24816566824815
0.45004500450045	-0.029254664939508	-0.24820413966118
0.45204520452045	-0.029277201167752	-0.24819932999687
0.45404540454045	-0.029315479724313	-0.24811894854459
0.45604560456046	-0.029312064183798	-0.24797845595883
0.45804580458046	-0.029240391629086	-0.24782866076786
0.46004600460046	-0.029119589126449	-0.24772116808025
0.46204620462046	-0.028998986361437	-0.24767495953557
0.46404640464046	-0.028923572060298	-0.24766590829213
0.46604660466047	-0.028903788980771	-0.24764530690540
0.46804680468047	-0.028909505012680	-0.24757421414493
0.47004700470047	-0.028891492453238	-0.24745035916204
0.47204720472047	-0.028815479440594	-0.24730985348813
0.47404740474047	-0.028685863795090	-0.24720303264242
0.47604760476048	-0.028543490627137	-0.24716086626698
0.47804780478048	-0.028439315430328	-0.24717428004670
0.48004800480048	-0.028401613093141	-0.24719980682627
0.48204820482048	-0.028418280828835	-0.24718743930562
0.48404840484048	-0.028445446967408	-0.24711211358402
0.48604860486049	-0.028436156607222	-0.24698831410395
0.48804880488049	-0.028369967696784	-0.24685882525296
0.49004900490049	-0.028264227111685	-0.24676576871421
0.49204920492049	-0.028160323549725	-0.24672339885430
0.49404940494049	-0.028094795949801	-0.24671039621464
0.49604960496050	-0.028074827604313	-0.24668607318987
0.49804980498050	-0.028074215600691	-0.24661903335799
0.50005000500050	-0.028051962873272	-0.24650890318143
0.50205020502050	-0.027980624192804	-0.24638679808919
0.50405040504050	-0.027865355350293	-0.24629456628156
0.50605060506051	-0.027741131539791	-0.24625689059266
0.50805080508051	-0.027650241212677	-0.24626479040857
0.51005100510051	-0.027615113745524	-0.24628122851576
0.51205120512051	-0.027624324230526	-0.24626481504115
0.51405140514051	-0.027640631260903	-0.24619583090064
0.51605160516052	-0.027625308678642	-0.24608762832527
0.51805180518052	-0.027562536317054	-0.24597642768170
0.52005200520052	-0.027468008163608	-0.24589682130660
0.52205220522052	-0.027376680521290	-0.24585943536040
0.52405240524052	-0.027318400375439	-0.24584531471507
0.52605260526053	-0.027297874619921	-0.24582019080564
0.52805280528053	-0.027292135885968	-0.24575859609083
0.53005300530053	-0.027266766781467	-0.24566152667900
0.53205320532053	-0.027199691788164	-0.24555598986291
0.53405340534053	-0.027096551297844	-0.24547700805086
0.53605360536054	-0.026987528918196	-0.24544425816164
0.53805380538054	-0.026907928307232	-0.24544887133355
0.54005400540054	-0.026875470912443	-0.24545896881305
0.54205420542054	-0.026879221118857	-0.24544005047275
0.54405440544054	-0.026887147812227	-0.24537669006023
0.54605460546055	-0.026866997290442	-0.24528141741401
0.54805480548055	-0.026806578378380	-0.24518536456923
0.55005500550055	-0.026720294057287	-0.24511730525173
0.55205520552055	-0.026638103880968	-0.24508513536245
0.55405540554055	-0.026584728722901	-0.24507185824960
0.55605560556056	-0.026563118312751	-0.24504827275063
0.55805580558056	-0.026553031301427	-0.24499348461013
0.56005600560056	-0.026525325114715	-0.24490939398392
0.56205620562056	-0.026462128672337	-0.24481959364490
0.56405640564056	-0.026369351056150	-0.24475362624424
0.56605660566057	-0.026273279698469	-0.24472723488669
0.56805680568057	-0.026203669567333	-0.24473172984422
0.57005700570057	-0.026174599455574	-0.24473938505528
0.57205720572057	-0.026175662460909	-0.24472112776176
0.57405740574057	-0.026179062551940	-0.24466478789037
0.57605760576058	-0.026157671352097	-0.24458203675157
0.57805780578058	-0.026102042880488	-0.24449979807677
0.58005800580058	-0.026025353170023	-0.24444216735820
0.58205820582058	-0.025953418199805	-0.24441493548528
0.58405840584058	-0.025906809577656	-0.24440278757695
0.58605860586059	-0.025887107104215	-0.24438064641034
0.58805880588059	-0.025876301948374	-0.24433125678511
0.59005900590059	-0.025849458682910	-0.24425715383490
0.59205920592059	-0.025791952206762	-0.24417911820140
0.59405940594059	-0.025709713567777	-0.24412232289697
0.59605960596060	-0.025625733177431	-0.24409951579878
0.59805980598060	-0.025565259546568	-0.24410240734251
0.60006000600060	-0.025539555946652	-0.24410685840505
0.60206020602060	-0.025538876447818	-0.24408829840834
0.60406040604060	-0.025539093363696	-0.24403715024585
0.60606060606061	-0.025517382670745	-0.24396422784245
0.60806080608061	-0.025466543541057	-0.24389284687580
0.61006100610061	-0.025398663566153	-0.24384316282266
0.61206120612061	-0.025336053897739	-0.24381921159066
0.61406140614061	-0.025295796874256	-0.24380709079738
0.61606160616062	-0.025278304715820	-0.24378517054716
0.61806180618062	-0.025267398174789	-0.24373924905674
0.62006200620062	-0.025241623676339	-0.24367243771321
0.62206220622062	-0.025189072837870	-0.24360324410245
0.62406240624062	-0.025115764655893	-0.24355326041990
0.62606260626063	-0.025042058301221	-0.24353273984616
0.62806280628063	-0.024989558075830	-0.24353363513337
0.63006300630063	-0.024967216108315	-0.24353462552003
0.63206320632063	-0.024965746115352	-0.24351470690189
0.63406340634063	-0.024963865553499	-0.24346635422967
0.63606360636064	-0.024942074143272	-0.24339970603379
0.63806380638064	-0.024894832721647	-0.24333526857019
0.64006400640064	-0.024833257819990	-0.24329020715183
0.64206420642064	-0.024776852317672	-0.24326737520172
0.64406440644064	-0.024740033539188	-0.24325420951353
0.64606460646065	-0.024722511862963	-0.24323194660634
0.64806480648065	-0.024709823890130	-0.24318878068041
0.65006500650065	-0.024683465095225	-0.24312810007385
0.65206520652065	-0.024633702938255	-0.24306636403611
0.65406540654065	-0.024566476843020	-0.24302214605846
0.65606560656066	-0.024499830691508	-0.24300371172485
0.65806580658066	-0.024452312341304	-0.24300337874581
0.66006600660066	-0.024431050560070	-0.24300232578261
0.66206620662066	-0.024427330134597	-0.24298258693916
0.66406640664066	-0.024422443779763	-0.24293829792103
0.66606660666067	-0.024399814281098	-0.24287888677387
0.66806680668067	-0.024355350734742	-0.24282232127202
0.67006700670067	-0.024299332117727	-0.24278308205132
0.67206720672067	-0.024248825220265	-0.24276288680225
0.67406740674067	-0.024215895832129	-0.24275019550268
0.67606760676068	-0.024199530731809	-0.24272859593524
0.67806780678068	-0.024186566570922	-0.24268828847651
0.68006800680068	-0.024160847027681	-0.24263294061647
0.68206820682068	-0.024114375488150	-0.24257738287789
0.68406840684068	-0.024052990928692	-0.24253776599359
0.68606860686069	-0.023992820184744	-0.24252078297568
0.68806880688069	-0.023949910367037	-0.24251910453821
0.69006900690069	-0.023929921442960	-0.24251599137718
0.69206920692069	-0.023924632996984	-0.24249596720714
0.69406940694069	-0.023917446594837	-0.24245450106918
0.69606960696070	-0.023894131371725	-0.24240041481457
0.69806980698070	-0.023851696790044	-0.24234961741115
0.70007000700070	-0.023799653577744	-0.24231448263226
0.70207020702070	-0.023753049965695	-0.24229595157601
0.70407040704070	-0.023722099273176	-0.24228348775369
