#Parameters = {C_1=13; C_2=297.74895212961; Conductivity_W=18000000; Ip=298.03261313869; Pipe_lenght=40; Pipe_r=30; beta=1; cells_wave=30; conductivity_copper=59500000; d=-397.74895212961; half_gap_x=17; half_gap_y=30; half_gap_z=50; mu_copper=0.999994; offset=6.8; offset_x=1; offset_y=5; sigma_z=5; teta=2.5; thcoll=13; translate_z=-347.74895212961; wakelength=20000}
#"Frequency / GHz"	"X [Re / Ohm]"	"X [Im / Ohm]"
#-----------------------------------------------
0.0000000000000	9.0458729647062e-11	-652.66082781590
0.0020002000200020	-272.62116045553	-583.00152006150
0.0040004000400040	-473.95897898525	-395.02115183464
0.0060006000600060	-556.20384885971	-144.23188956734
0.0080008000800080	-509.67544153967	98.819640957852
0.010001000100010	-363.46177753540	272.41097523413
0.012001200120012	-172.49803141021	342.81901115342
0.014001400140014	3.2107886715789	312.04455000746
0.016001600160016	118.86471704750	212.22806379111
0.018001800180018	157.18997783887	90.219788580258
0.020002000200020	129.19938916506	-10.755774531094
0.022002200220022	64.716030693344	-65.074388119151
0.024002400240024	-2.1705166677040	-69.723839053018
0.026002600260026	-46.291428989379	-39.966955285256
0.028002800280028	-58.367821999236	0.93105516279305
0.030003000300030	-44.250791235557	32.681144215128
0.032003200320032	-18.371211936300	45.094812854834
0.034003400340034	4.6233557941761	39.288834763329
0.036003600360036	16.110137751241	23.841190771363
0.038003800380038	15.433855170543	8.7706329241074
0.040004000400040	7.7556490750647	0.54225531633845
0.042004200420042	-0.18019513555072	0.11254042323022
0.044004400440044	-3.8485772493998	4.1547610000583
0.046004600460046	-2.5913903770165	8.0625887066215
0.048004800480048	1.1623804925574	8.7913803343847
0.050005000500050	4.1038869992736	6.1271176373280
0.052005200520052	4.1787225630814	2.0971134070788
0.054005400540054	1.5209496200967	-0.73078060005902
0.056005600560056	-2.0580455950697	-0.88473031245742
0.058005800580058	-4.4381402146709	1.3334946946523
0.060006000600060	-4.4772396106094	4.3182711538515
0.062006200620062	-2.5048914347535	6.2927167272800
0.064006400640064	0.11136563028489	6.3396838702031
0.066006600660066	1.9142035095206	4.7629684304214
0.068006800680068	2.1880623228750	2.6907881358787
0.070007000700070	1.2188119829925	1.2805506881048
0.072007200720072	-0.068529929485469	1.0511423036333
0.074007400740074	-0.77726408467290	1.7072095665432
0.076007600760076	-0.57011211658938	2.4743636903188
0.078007800780078	0.22647071405861	2.6626217635023
0.080008000800080	0.93804497683060	2.0856790738643
0.082008200820082	1.0231607146475	1.1062609598701
0.084008400840084	0.40387153356459	0.33514883088282
0.086008600860086	-0.53442897147169	0.21546365876820
0.088008800880088	-1.2299043045496	0.76108901371286
0.090009000900090	-1.3064803591166	1.5892348265228
0.092009200920092	-0.78158149745904	2.1910831657734
0.094009400940094	-0.012047099820922	2.2473477055756
0.096009600960096	0.55730405889260	1.7922842446918
0.098009800980098	0.66637789982549	1.1455494928506
0.10001000100010	0.36628262707144	0.68183950022454
0.10201020102010	-0.058769242644904	0.59822205431158
0.10401040104010	-0.30086924751928	0.82112002659184
0.10601060106011	-0.22441252901461	1.0925163147375
0.10801080108011	0.070683065311416	1.1602450472277
0.11001100110011	0.34219348112649	0.94171586879302
0.11201120112011	0.37929287167395	0.56155463572290
0.11401140114011	0.13895800269066	0.25287175690439
0.11601160116012	-0.23715599279471	0.19801722409344
0.11801180118012	-0.52465838944620	0.41486115730071
0.12001200120012	-0.56230138805515	0.75587480784560
0.12201220122012	-0.34659449490472	1.0104757861939
0.12401240124012	-0.020827922610565	1.0376176412391
0.12601260126013	0.22502767834589	0.84358342134804
0.12801280128013	0.27319496427136	0.56196892887979
0.13001300130013	0.14033737960812	0.35770513906578
0.13201320132013	-0.049831189040200	0.32217172858399
0.13401340134013	-0.15754518139581	0.42563497098364
0.13601360136014	-0.11823711898894	0.55111094350629
0.13801380138014	0.023556880080240	0.58037239551426
0.14001400140014	0.15382046493940	0.47261773649308
0.14201420142014	0.17043886544596	0.28622273835814
0.14401440144014	0.050774969821243	0.13432831795148
0.14601460146015	-0.13681309245512	0.10782481769309
0.14801480148015	-0.28080301270170	0.21738585901994
0.15001500150015	-0.29902366508513	0.39016692915568
0.15201520152015	-0.18812601643875	0.51945225320530
0.15401540154015	-0.020410158199229	0.53215033052304
0.15601560156016	0.10612959317452	0.43038482248757
0.15801580158016	0.12961504916711	0.28307631321914
0.16001600160016	0.058233993777692	0.17679337921200
0.16201620162016	-0.042710394618934	0.16012633610602
0.16401640164016	-0.098545791714640	0.21723817866968
0.16601660166017	-0.074559436347565	0.28495118038301
0.16801680168017	0.0047375101985073	0.29892003518086
0.17001700170017	0.076472498411465	0.23696427703384
0.17201720172017	0.084031392144443	0.13177871478726
0.17401740174017	0.014958984094574	0.046836242721701
0.17601760176018	-0.091984089261159	0.033362691852907
0.17801780178018	-0.17336936908238	0.097277661097896
0.18001800180018	-0.18228127812206	0.19680254657876
0.18201820182018	-0.11695245802216	0.27053245605003
0.18401840184018	-0.019355970499576	0.27632295636094
0.18601860186019	0.053507874541554	0.21567214975814
0.18801880188019	0.065690538775396	0.12911867990203
0.19001900190019	0.022414839198204	0.067554467178764
0.19201920192019	-0.037381063256628	0.059354662957079
0.19401940194019	-0.069326035200100	0.094554707228005
0.19601960196020	-0.053112918726993	0.13497532510298
0.19801980198020	-0.0041202691505165	0.14195904503375
0.20002000200020	0.039193549123682	0.10258302937579
0.20202020202020	0.042442919985136	0.037381972710218
0.20402040204020	-0.0015037401124600	-0.014424256945938
0.20602060206021	-0.068220344728211	-0.021418198832125
0.20802080208021	-0.11818841701238	0.019590278295483
0.21002100210021	-0.12241000480709	0.082133775200521
0.21202120212021	-0.080254157284768	0.12767586133667
0.21402140214021	-0.018495704142867	0.13001821461810
0.21602160216022	0.026847220052973	0.090604239013149
0.21802180218022	0.033346474754222	0.035499537132542
0.22002200220022	0.0048590755086024	-0.0029232003684121
0.22202220222022	-0.033371532984961	-0.0069491890680556
0.22402240224022	-0.052936755024199	0.016462515569032
0.22602260226023	-0.041217436285859	0.042364365139805
0.22802280228023	-0.0087412373734734	0.045846221590347
0.23002300230023	0.019184793598008	0.019000641329355
0.23202320232023	0.020263807856621	-0.024217567259627
0.23402340234023	-0.0096869698200876	-0.057846949103831
0.23602360236024	-0.054093043650467	-0.061400179720936
0.23802380238024	-0.086663075177967	-0.033251037204999
0.24002400240024	-0.088402238818501	0.0086086526318240
0.24202420242024	-0.059365796751736	0.038423098549940
0.24402440244024	-0.017823239847771	0.038979079297756
0.24602460246025	0.012047658271694	0.011719062355871
0.24802480248025	0.015496445621014	-0.025487342775101
0.25002500250025	-0.0043979668110154	-0.050820678167675
0.25202520252025	-0.030245970901889	-0.052661385483941
0.25402540254025	-0.042828982730967	-0.036210367702769
0.25602560256026	-0.033950948521850	-0.018729516078472
0.25802580258026	-0.011272085256789	-0.017127908564157
0.26002600260026	0.0076296587395947	-0.036410292976673
0.26202620262026	0.0075706496865052	-0.066537357570762
0.26402640264026	-0.013915486396400	-0.089417020049158
0.26602660266027	-0.044954035266803	-0.091057298223314
0.26802680268027	-0.067168718918748	-0.070744199430034
0.27002700270027	-0.067557274875819	-0.041363909457122
0.27202720272027	-0.046566723632463	-0.020969089162087
0.27402740274027	-0.017305441608859	-0.021355656516383
0.27602760276028	0.0032347094861403	-0.041109362164680
0.27802780278028	0.0049562061033866	-0.067374736337215
0.28002800280028	-0.0095748609128096	-0.084781649294933
0.28202820282028	-0.027815568709520	-0.085418598874959
0.28402840284028	-0.036203765416955	-0.073356985047221
0.28602860286029	-0.029239535016568	-0.061074343615473
0.28802880288029	-0.012750833824135	-0.060518183143425
0.29002900290029	0.00053468425972590	-0.074925407035191
0.29202920292029	-0.00012202155549604	-0.096757970003948
0.29402940294029	-0.016148515243163	-0.11289618500080
0.29602960296030	-0.038678224233512	-0.11343495366228
0.29802980298030	-0.054365007790493	-0.098201137458260
0.30003000300030	-0.053998723166763	-0.076801557565415
0.30203020302030	-0.038240297550700	-0.062368276416882
0.30403040304030	-0.016867198789636	-0.063254094027403
0.30603060306031	-0.0022583124829102	-0.078100629905550
0.30803080308031	-0.0015446352352168	-0.097307082652937
0.31003100310031	-0.012532220664900	-0.10966420612656
0.31203120312031	-0.025843656882588	-0.10962831970709
0.31403140314031	-0.031584977336871	-0.10049321699862
0.31603160316032	-0.025976375745458	-0.091592613501585
0.31803180318032	-0.013603694730046	-0.091639302577187
0.32003200320032	-0.0039901371532592	-0.10274844579660
0.32203220322032	-0.0049618744988952	-0.11906898349386
0.32403240324032	-0.017297405065656	-0.13078133409494
0.32603260326033	-0.034157568457598	-0.13067134421326
0.32803280328033	-0.045547777489792	-0.11888979768829
0.33003300330033	-0.044764175366656	-0.10282934338151
0.33203320332033	-0.032575679370076	-0.092331303613966
0.33403340334033	-0.016503223577642	-0.093466345559505
0.33603360336034	-0.0058291814384616	-0.10494890083534
0.33803380338034	-0.0057147618511951	-0.11939222210005
0.34003400340034	-0.014252925614924	-0.12839049186348
0.34203420342034	-0.024228887737128	-0.12797231508937
0.34403440344034	-0.028229072349659	-0.12086836926761
0.34603460346035	-0.023612005194198	-0.11425597928882
0.34803480348035	-0.014082096004605	-0.11465300404611
0.35003500350035	-0.0069567127196457	-0.12343982456778
0.35203520352035	-0.0080787216203541	-0.13595362930569
0.35403540354035	-0.017812192258561	-0.14465374375012
0.35603560356036	-0.030742953630177	-0.14416412358383
0.35803580358036	-0.039197569739485	-0.13482867251477
0.36003600360036	-0.038188885807922	-0.12248301011413
0.36203620362036	-0.028531099773087	-0.11468316810790
0.36403640364036	-0.016155279342745	-0.11593356436894
0.36603660366037	-0.0081877430367716	-0.12502836322904
0.36803680368037	-0.0084369110735498	-0.13614483226839
0.37003700370037	-0.015225023591787	-0.14283395632739
0.37203720372037	-0.022869266889571	-0.14220239705444
0.37403740374037	-0.025691381426789	-0.13655722195001
0.37603760376038	-0.021825859167822	-0.13154409935369
0.37803780378038	-0.014328348068218	-0.13214183154851
0.38003800380038	-0.0089456725945576	-0.13923710621735
0.38203820382038	-0.010126917518332	-0.14903389880087
0.38403840384038	-0.017967315534396	-0.15561749588546
0.38603860386039	-0.028088656977968	-0.15490628206909
0.38803880388039	-0.034476723743714	-0.14735710762744
0.39003900390039	-0.033355255208875	-0.13767420036623
0.39203920392039	-0.025546661711278	-0.13177701442828
0.39403940394039	-0.015825424395593	-0.13306425579473
0.39603960396040	-0.0097709686469465	-0.14041118183513
0.39803980398040	-0.010237096001132	-0.14913507439299
0.40004000400040	-0.015734677350035	-0.15419341318797
0.40204020402040	-0.021699866966609	-0.15345152371779
0.40404040404040	-0.023703790071644	-0.14888751516391
0.40604060406041	-0.020422972137378	-0.14502640756282
0.40804080408041	-0.014420927259464	-0.14573732204204
0.41004100410041	-0.010293935765671	-0.15156821726213
0.41204120412041	-0.011484954177767	-0.15937384868224
0.41404140414041	-0.017913103698558	-0.16443187478010
0.41604160416042	-0.025974739763574	-0.16359597546027
0.41804180418042	-0.030873756027085	-0.15738587548641
0.42004200420042	-0.029709455242358	-0.14966067993361
0.42204220422042	-0.023290722447797	-0.14513674733183
0.42404240424042	-0.015527491577230	-0.14641304065994
0.42604260426043	-0.010860373878135	-0.15244364923742
0.42804280428043	-0.011453265609123	-0.15939904206993
0.43004300430043	-0.015974722145156	-0.16327344403478
0.43204320432043	-0.020699129781056	-0.16247858902743
0.43404340434043	-0.022119232528506	-0.15873149552599
0.43604360436044	-0.019298316059212	-0.15571725832483
0.43804380438044	-0.014417850730196	-0.15648625453859
0.44004400440044	-0.011211435270439	-0.16135029058485
0.44204420442044	-0.012379645235725	-0.16766443874997
0.44404440444044	-0.017726359369908	-0.17160096214633
0.44604460446045	-0.024241033335011	-0.17070384158174
0.44804480448045	-0.028042290237365	-0.16552371194582
0.45004500450045	-0.026875903781007	-0.15927338169665
0.45204520452045	-0.021524797776160	-0.15576487599500
0.45404540454045	-0.015237767998575	-0.15700673914061
0.45604560456046	-0.011598704129318	-0.16202768570614
0.45804580458046	-0.012263043493201	-0.16765092835599
0.46004600460046	-0.016033061087296	-0.17065101959073
0.46204620462046	-0.019824753683840	-0.16984038001543
0.46404640464046	-0.020824646218303	-0.16672435305882
0.46604660466047	-0.018376320056352	-0.16434491253546
0.46804680468047	-0.014358025887449	-0.16513613248341
0.47004700470047	-0.011842707005808	-0.16924337709685
0.47204720472047	-0.012972173202780	-0.17441466758957
0.47404740474047	-0.017475418361024	-0.17750741411348
0.47604760476048	-0.022805357643740	-0.17658508096411
0.47804780478048	-0.025781231693163	-0.17220920045271
0.48004800480048	-0.024635088295196	-0.16708860207858
0.48204820482048	-0.020117452204939	-0.16434250848180
0.48404840484048	-0.014961745205277	-0.16553587239389
0.48604860486049	-0.012095297962798	-0.16976698508503
0.48804880488049	-0.012792530157496	-0.17436810865749
0.49004900490049	-0.015970497553450	-0.17671200938232
0.49204920492049	-0.019045740663631	-0.17590966650817
0.49404940494049	-0.019736665658298	-0.17329195093180
0.49604960496050	-0.017593047474246	-0.17139923273548
0.49804980498050	-0.014248421947608	-0.17219335194618
0.50005000500050	-0.012260822950401	-0.17570113480136
0.50205020502050	-0.013344369022631	-0.17998438736611
0.50405040504050	-0.017180306977878	-0.18243415081856
0.50605060506051	-0.021589853917125	-0.18151101402906
0.50805080508051	-0.023937797580595	-0.17777456559236
0.51005100510051	-0.022827493485705	-0.17353381278198
0.51205120512051	-0.018973850188244	-0.17136839186923
0.51405140514051	-0.014701520895566	-0.17250498642890
0.51605160516052	-0.012426282115795	-0.17610628922348
0.51805180518052	-0.013132758928938	-0.17990832018059
0.52005200520052	-0.015837330485321	-0.18174995076508
0.52205220522052	-0.018353357756025	-0.18096780080147
0.52405240524052	-0.018813351113384	-0.17874711806476
0.52605260526053	-0.016920495859515	-0.17723100004299
0.52805280528053	-0.014107889889377	-0.17801418283070
0.53005300530053	-0.012526127918367	-0.18103893072950
0.53205320532053	-0.013557402552968	-0.18462168041617
0.53405340534053	-0.016854129096169	-0.18657555311369
0.53605360536054	-0.020535066128969	-0.18566900106057
0.53805380538054	-0.022396509925702	-0.18245138152651
0.54005400540054	-0.021329477344371	-0.17890940408598
0.54205420542054	-0.018012331448836	-0.17719590200832
0.54405440544054	-0.014440632694845	-0.17827582458525
0.54605460546055	-0.012625669716588	-0.18137084181881
0.54805480548055	-0.013328636801977	-0.18454172948394
0.55005500550055	-0.015652299274571	-0.18599558148603
0.55205520552055	-0.017728945493110	-0.18524152745970
0.55405540554055	-0.018017796818580	-0.18334182591048
0.55605560556056	-0.016337117805838	-0.18212050243984
0.55805580558056	-0.013953552483791	-0.18288308183133
0.56005600560056	-0.012690698644808	-0.18551149022575
0.56205620562056	-0.013669618120839	-0.18853158078836
0.56405640564056	-0.016526688387508	-0.19009491488699
0.56605660566057	-0.019624039879552	-0.18921176890250
0.56805680568057	-0.021103629913466	-0.18641643255848
0.57005700570057	-0.020081959018678	-0.18343270131283
0.57205720572057	-0.017201256156390	-0.18207178387254
0.57405740574057	-0.014188835773394	-0.18309407808797
0.57605760576058	-0.012732351294875	-0.18577539983508
0.57805780578058	-0.013419164931388	-0.18844126548641
0.58005800580058	-0.015428072543936	-0.18959333638994
0.58205820582058	-0.017151294116476	-0.18887387265755
0.58405840584058	-0.017309258082457	-0.18724002373723
0.58605860586059	-0.015807402698941	-0.18625612776778
0.58805880588059	-0.013772727962769	-0.18699689464772
0.59005900590059	-0.012763287416877	-0.18930110879898
0.59205920592059	-0.013692382189637	-0.19186857388651
0.59405940594059	-0.016189165734654	-0.19312516708483
0.59605960596060	-0.018817069765531	-0.19227292074819
0.59805980598060	-0.019998010079027	-0.18982795904298
0.60006000600060	-0.019026859242237	-0.18729687307619
0.60206020602060	-0.016510565860274	-0.18621412651132
0.60406040604060	-0.013954923245522	-0.18717856799912
0.60606060606061	-0.012785365939892	-0.18951564209953
0.60806080608061	-0.013452395883141	-0.19176924866866
0.61006100610061	-0.015201779053411	-0.19267948689174
0.61206120612061	-0.016639698923404	-0.19199246635403
0.61406140614061	-0.016697472502166	-0.19057503780767
0.61606160616062	-0.015346796563344	-0.18977823308441
0.61806180618062	-0.013596303751880	-0.19049104809660
0.62006200620062	-0.012786165869673	-0.19252215102675
0.62206220622062	-0.013662953105140	-0.19471777054779
0.62406240624062	-0.015855074318863	-0.19572882801586
0.62606260626063	-0.018094670483986	-0.19491108504777
0.62806280628063	-0.019033264857282	-0.19276087310063
0.63006300630063	-0.018108607140151	-0.19060338207131
0.63206320632063	-0.015894142768210	-0.18974637599244
0.63406340634063	-0.013711164336105	-0.19065970165058
0.63606360636064	-0.012770735060098	-0.19271392829329
0.63806380638064	-0.013414868050205	-0.19463458119362
0.64006400640064	-0.014948744396295	-0.19535629902762
0.64206420642064	-0.016156470953739	-0.19470637531300
0.64406440644064	-0.016141206191448	-0.19347302880014
0.64606460646065	-0.014924987051373	-0.19282992173407
0.64806480648065	-0.013414915094399	-0.19351485011834
0.65006500650065	-0.012770238123713	-0.19531563960328
0.65206520652065	-0.013602036032542	-0.19720273461476
0.65406540654065	-0.015541912631010	-0.19801341393914
0.65606560656066	-0.017464203411168	-0.19722786295993
0.65806580658066	-0.018210055062541	-0.19532216303536
0.66006600660066	-0.017332242392629	-0.19346894886858
0.66206620662066	-0.015372356344072	-0.19278899609800
0.66406640664066	-0.013496441374691	-0.19364880716224
0.66606660666067	-0.012738681443671	-0.19546053962529
0.66806680668067	-0.013354567377194	-0.19710266126863
0.67006700670067	-0.014702451562575	-0.19767041099347
0.67206720672067	-0.015716050857180	-0.19705529724948
0.67406740674067	-0.015640173828025	-0.19597693382772
0.67606760676068	-0.014535606862468	-0.19546040335138
0.67806780678068	-0.013222226462195	-0.19611945733060
0.68006800680068	-0.012708294034787	-0.19772790659313
0.68206820682068	-0.013494435443512	-0.19936224331786
0.68406840684068	-0.015218620336466	-0.20001504518747
0.68606860686069	-0.016876413409244	-0.19926750172056
0.68806880688069	-0.017467107183098	-0.19757494963635
0.69006900690069	-0.016636794370757	-0.19598004524803
0.69206920692069	-0.014896863572394	-0.19544746976368
0.69406940694069	-0.013281377494563	-0.19625987712141
0.69606960696070	-0.012677012960838	-0.19786731938352
0.69806980698070	-0.013269403751889	-0.19927780750796
0.70007000700070	-0.014464183729294	-0.19972003616558
0.70207020702070	-0.015321383535121	-0.19913646502921
0.70407040704070	-0.015202968631374	-0.19818648932267
0.70607060706071	-0.014199037767171	-0.19776986819786
0.70807080708071	-0.013053483641086	-0.19839808953990
0.71007100710071	-0.012647134477411	-0.19983644570268
0.71207120712071	-0.013389612007562	-0.20125317442302
0.71407140714071	-0.014927209119251	-0.20177188947518
