#Parameters = {C_1=13.247618914885; C_2=303.4203577015; Conductivity=10000000; Conductivity_Mo=17900000; Conductivity_MoGr=1000000; Ip=303.70942177453; Pipe_lenght=40; Pipe_r=30; beta=1; cells_wave=30; conductivity_copper=59500000; d=-603.4203577015; half_gap_x=16.752381085115; half_gap_y=30; half_gap_z=150; mu_copper=0.999994; offset=6.7009524340459; offset_x=1; offset_y=5; sigma_z=5; teta=2.5; thcoll=13.247618914885; translate_z=-453.4203577015; wakelength=20000}
#"Frequency / GHz"	"Z [Re / Ohm]"	"Z [Im / Ohm]"
#-----------------------------------------------
0.0000000000000	-0.19751346653039	-2.2376773015593e-13
0.0020478289222872	-0.18323395950643	0.065655525397703
0.0040956578445743	-0.14431339251756	0.11752565163976
0.0061434867668615	-0.091150465922605	0.14612486989514
0.0081913156891487	-0.037093304205866	0.14897720308078
0.010239144611436	0.0058954344575477	0.13079989807206
0.012286973533723	0.030750191733214	0.10124405249852
0.014334802456010	0.036782668269998	0.071213086156314
0.016382631378297	0.028803655100558	0.049244673013828
0.018430460300585	0.014501938383568	0.039267721773699
0.020478289222872	0.0012965939285949	0.040357764700591
0.022526118145159	-0.0060827525442283	0.048251084586300
0.024573947067446	-0.0065122126111121	0.057724683765651
0.026621775989733	-0.0018398026190817	0.064757915021656
0.028669604912020	0.0047129460283992	0.067681136722732
0.030717433834308	0.010251475450931	0.067090286776055
0.032765262756595	0.013290364009488	0.064867660084555
0.034813091678882	0.013922732971738	0.062952484144918
0.036860920601169	0.013249719235449	0.062461397920135
0.038908749523456	0.012530858323162	0.063455022996497
0.040956578445743	0.012527621569990	0.065275241959512
0.043004407368031	0.013299060458317	0.067127709687046
0.045052236290318	0.014420841260459	0.068549873575639
0.047100065212605	0.015394151831919	0.069556373694639
0.049147894134892	0.015973463161328	0.070474429198457
0.051195723057179	0.016254294320377	0.071643511502143
0.053243551979466	0.016532521230900	0.073184706166925
0.055291380901754	0.017071894068970	0.074957419325129
0.057339209824041	0.017937934553369	0.076687515600014
0.059387038746328	0.018983970386950	0.078154991970168
0.061434867668615	0.019968444261008	0.079317176027270
0.063482696590902	0.020709229753243	0.080305569721143
0.065530525513189	0.021176411656943	0.081320884981646
0.067578354435477	0.021479504166391	0.082506787019768
0.069626183357764	0.021775818532962	0.083881063690143
0.071674012280051	0.022169024723249	0.085354607542551
0.073721841202338	0.022660601035797	0.086810476593258
0.075769670124625	0.023173839143815	0.088183823013142
0.077817499046912	0.023622346187149	0.089493207090995
0.079865327969200	0.023972262027178	0.090812185633390
0.081913156891487	0.024259610545477	0.092209129546185
0.083960985813774	0.024558454432436	0.093698875096338
0.086008814736061	0.024927350251455	0.095235879499487
0.088056643658348	0.025371577454191	0.096747991855390
0.090104472580635	0.025843592256916	0.098184184863757
0.092152301502923	0.026276965575076	0.099544107407136
0.094200130425210	0.026628404376171	0.10087286020794
0.096247959347497	0.026900483849124	0.10222845071685
0.098295788269784	0.027133295726800	0.10364569840593
0.10034361719207	0.027374306890887	0.10511960588703
0.10239144611436	0.027648298567247	0.10661597769968
0.10443927503665	0.027946389931019	0.10809878858997
0.10648710395893	0.028238533205755	0.10955446571539
0.10853493288122	0.028498225237552	0.11099774034175
0.11058276180351	0.028721643413378	0.11245754556484
0.11263059072579	0.028929132438818	0.11395463729384
0.11467841964808	0.029149881468367	0.11548675840310
0.11672624857037	0.029401605637580	0.11703056215258
0.11877407749266	0.029679177345336	0.11855757998348
0.12082190641494	0.029958970433373	0.12005255308293
0.12286973533723	0.030214787495349	0.12152197140251
0.12491756425952	0.030434080412934	0.12298814924560
0.12696539318180	0.030624035809503	0.12447397539504
0.12901322210409	0.030804647729094	0.12598901138391
0.13106105102638	0.030994591736833	0.12752568604990
0.13310887994867	0.031199786331557	0.12906691249099
0.13515670887095	0.031411767033087	0.13059889066952
0.13720453779324	0.031615852179663	0.13212010264053
0.13925236671553	0.031802630651504	0.13364091111116
0.14130019563781	0.031974714768898	0.13517493759049
0.14334802456010	0.032144582255728	0.13672877348020
0.14539585348239	0.032325642798530	0.13829714476356
0.14744368240468	0.032523033837503	0.13986644420287
0.14949151132696	0.032730350862962	0.14142373990412
0.15153934024925	0.032934125267984	0.14296493239976
0.15358716917154	0.033122605244786	0.14449674741566
0.15563499809382	0.033292812754391	0.14603169910280
0.15768282701611	0.033451438593633	0.14757983579221
0.15973065593840	0.033609525232729	0.14914288353488
0.16177848486069	0.033774960529372	0.15071436617372
0.16382631378297	0.033947900194116	0.15228504878755
0.16587414270526	0.034121862028096	0.15384959252763
0.16792197162755	0.034289232440693	0.15540985323341
0.16996980054984	0.034447076436662	0.15697287553263
0.17201762947212	0.034599254203719	0.15854535462673
0.17406545839441	0.034753628245193	0.16012859911847
0.17611328731670	0.034916547628442	0.16171742494513
0.17816111623898	0.035088503576279	0.16330354461646
0.18020894516127	0.035263836395958	0.16488095578726
0.18225677408356	0.035434495107873	0.16644963614208
0.18430460300585	0.035595151264252	0.16801519532362
0.18635243192813	0.035746236179376	0.16958495838107
0.18840026085042	0.035893066128861	0.17116328156953
0.19044808977271	0.036041928474272	0.17274921391766
0.19249591869499	0.036195946380247	0.17433784163608
0.19454374761728	0.036353475938462	0.17592410952859
0.19659157653957	0.036509893501640	0.17750635155744
0.19863940546186	0.036661291435988	0.17908716054789
0.20068723438414	0.036807413246826	0.18067119011359
0.20273506330643	0.036951847209091	0.18226159256618
0.20478289222872	0.037099481858156	0.18385762653537
0.20683072115100	0.037253093061929	0.18545503575088
0.20887855007329	0.037411430653209	0.18704883686354
0.21092637899558	0.037570045007763	0.18863654040074
0.21297420791787	0.037724190103964	0.19021963152052
0.21502203684015	0.037871782313423	0.19180241058580
0.21706986576244	0.038014464640962	0.19338910137443
0.21911769468473	0.038156197573253	0.19498123445184
0.22116552360701	0.038300477271399	0.19657700738094
0.22321335252930	0.038448125720443	0.19817289717849
0.22526118145159	0.038597087279930	0.19976627517046
0.22730901037388	0.038744222388895	0.20135718072820
0.22935683929616	0.038887736847463	0.20294809487196
0.23140466821845	0.039028530943664	0.20454198434002
0.23345249714074	0.039169581522345	0.20614005519128
0.23550032606302	0.039313858865364	0.20774078591267
0.23754815498531	0.039462260541017	0.20934086784391
0.23959598390760	0.039612973177368	0.21093735634491
0.24164381282989	0.039762649723181	0.21252954360693
0.24369164175217	0.039908551186963	0.21411931299136
0.24573947067446	0.040050193814425	0.21570980714402
0.24778729959675	0.040189444021219	0.21730337541286
0.24983512851903	0.040329093972977	0.21890019456480
0.25188295744132	0.040470961918913	0.22049842780136
0.25393078636361	0.040614816688477	0.22209570584015
0.25597861528590	0.040758792310702	0.22369083752314
0.25802644420818	0.040900910065131	0.22528456683457
0.26007427313047	0.041040591786131	0.22687890937662
0.26212210205276	0.041179111088446	0.22847559863863
0.26416993097504	0.041318707043577	0.23007476035757
0.26621775989733	0.041461015746153	0.23167473161061
0.26826558881962	0.041605919515634	0.23327312275323
0.27031341774191	0.041751590613313	0.23486836814936
0.27236124666419	0.041895668475934	0.23646070579966
0.27440907558648	0.042036746650823	0.23805195051721
0.27645690450877	0.042175171141919	0.23964426141526
0.27850473343106	0.042312658078185	0.24123876873768
0.28055256235334	0.042451053075611	0.24283497620959
0.28260039127563	0.042591112964998	0.24443128641612
0.28464822019792	0.042732126993486	0.24602622138919
0.28669604912020	0.042872581093015	0.24761946314309
0.28874387804249	0.043011346835753	0.24921200767363
0.29079170696478	0.043148541765520	0.25080536830465
0.29283953588707	0.043285470858093	0.25240042212369
0.29488736480935	0.043423715259695	0.25399671753361
0.29693519373164	0.043564020458147	0.25559271632629
0.29898302265393	0.043705754713097	0.25718678750140
0.30103085157621	0.043847296819736	0.25877826140576
0.30307868049850	0.043987070276640	0.26036783238144
0.30512650942079	0.044124513680928	0.26195706151925
0.30717433834308	0.044260346465994	0.26354734541605
0.30922216726536	0.044395988620784	0.26513905973195
0.31126999618765	0.044532567173593	0.26673143641726
0.31331782510994	0.044670198995254	0.26832321250648
0.31536565403222	0.044808018057234	0.26991356498658
0.31741348295451	0.044944886019354	0.27150267576421
0.31946131187680	0.045080260529134	0.27309155435666
0.32150914079909	0.045214609506460	0.27468127192009
0.32355696972137	0.045349095623058	0.27627216032168
0.32560479864366	0.045484767670488	0.27786353591610
0.32765262756595	0.045621828067489	0.27945413004960
0.32970045648823	0.045759477846321	0.28104291869081
0.33174828541052	0.045896432552177	0.28262977990918
0.33379611433281	0.046031744468377	0.28421554191094
0.33584394325510	0.046165371932895	0.28580141070993
0.33789177217738	0.046298128054638	0.28738818480473
0.33993960109967	0.046431074412241	0.28897579053071
0.34198743002196	0.046564796758501	0.29056343130087
0.34403525894424	0.046699059179054	0.29215021436479
0.34608308786653	0.046833052200705	0.29373579977849
0.34813091678882	0.046966033663195	0.29532062119954
0.35017874571111	0.047097898464909	0.29690554136195
0.35222657463339	0.047229278688775	0.29849120116196
0.35427440355568	0.047361112902843	0.30007752606063
0.35632223247797	0.047493992481837	0.30166373303221
0.35837006140025	0.047627739787180	0.30324882845178
0.36041789032254	0.047761504244934	0.30483225078374
0.36246571924483	0.047894302784743	0.30641422121448
0.36451354816712	0.048025631966634	0.30799557479403
0.36656137708940	0.048155742306186	0.30957720209168
0.36860920601169	0.048285407303258	0.31115948880494
0.37065703493398	0.048415366519271	0.31274212653611
0.37270486385627	0.048545834224021	0.31432440123282
0.37475269277855	0.048676403100004	0.31590573711380
0.37680052170084	0.048806388424795	0.31748610943478
0.37884835062313	0.048935353900170	0.31906604553141
0.38089617954541	0.049063444574003	0.32064622816905
0.38294400846770	0.049191297946448	0.32222699019420
0.38499183738999	0.049319603011476	0.32380805696083
0.38703966631228	0.049448619044222	0.32538871316874
0.38908749523456	0.049577987093646	0.32696827431850
0.39113532415685	0.049706959300581	0.32854653649190
0.39318315307914	0.049834883175660	0.33012390037053
0.39523098200142	0.049961609021249	0.33170109452276
0.39727881092371	0.050087550610154	0.33327869648773
0.39932663984600	0.050213372786872	0.33485678014600
0.40137446876829	0.050339533078280	0.33643492016341
0.40342229769057	0.050465994531547	0.33801253285492
0.40547012661286	0.050592297622829	0.33958930426046
0.40751795553515	0.050717925748646	0.34116540598492
0.40956578445743	0.050842698829087	0.34274135609290
0.41161361337972	0.050966918272770	0.34431763223137
0.41366144230201	0.051091166038509	0.34589431301358
0.41570927122430	0.051215902129194	0.34747099803628
0.41775710014658	0.051341141127554	0.34904705973627
0.41980492906887	0.051466428782892	0.35062205142921
0.42185275799116	0.051591130289142	0.35219599284954
0.42390058691344	0.051714829993621	0.35376934431829
0.42594841583573	0.051837572604503	0.35534269654155
0.42799624475802	0.051959791883617	0.35691639403318
0.43004407368031	0.052081989612633	0.35849034676345
0.43209190260259	0.052204394214820	0.36006414675282
0.43413973152488	0.052326832639538	0.36163739374199
0.43618756044717	0.052448893323359	0.36320999461214
0.43823538936945	0.052570254099784	0.36478222818231
0.44028321829174	0.052690938399887	0.36635453675428
0.44233104721403	0.052811319295412	0.36792719737691
0.44437887613632	0.052931870635283	0.36950010667898
0.44642670505860	0.053052840739718	0.37107283036073
0.44847453398089	0.053174075561895	0.37264488295373
0.45052236290318	0.053295112374459	0.37421604521656
0.45257019182546	0.053415478144691	0.37578650358146
0.45461802074775	0.053534988775746	0.37735672102610
0.45666584967004	0.053653849536112	0.37892713260435
0.45871367859233	0.053772496857500	0.38049787456823
0.46076150751461	0.053891298203926	0.38206872642640
0.46280933643690	0.054010318445629	0.38363929467147
0.46485716535919	0.054129307971007	0.38520930160314
0.46690499428147	0.054247910305240	0.38677877607185
0.46895282320376	0.054365936148590	0.38834801771975
0.47100065212605	0.054483509744847	0.38991736701600
0.47304848104834	0.054600987391630	0.39148694727798
0.47509630997062	0.054718708517654	0.39305656060248
0.47714413889291	0.054836754869305	0.39462580940527
0.47919196781520	0.054954884892668	0.39619435799567
0.48123979673749	0.055072687105059	0.39776215353229
0.48328762565977	0.055189845485108	0.39932945666591
0.48533545458206	0.055306335730893	0.40089666496395
0.48738328350435	0.055422422612249	0.40246405339350
0.48943111242663	0.055538467256505	0.40403160886257
0.49147894134892	0.055654681942004	0.40559906631293
0.49352677027121	0.055771000990348	0.40716611297818
0.49557459919350	0.055887151091933	0.40873261360868
0.49762242811578	0.056002864525958	0.41029870001497
0.49967025703807	0.056118081780907	0.41186466683376
0.50171808596036	0.056233001563885	0.41343075135806
0.50376591488264	0.056347945450527	0.41499695406843
0.50581374380493	0.056463133828858	0.41656302526319
0.50786157272722	0.056578529705127	0.41812862598666
0.50990940164951	0.056693857651079	0.41969355093988
0.51195723057179	0.056808782987703	0.42125786025410
0.51400505949408	0.056923126831854	0.42282183224214
0.51605288841637	0.057036970809566	0.42438577336435
0.51810071733865	0.057150584077891	0.42594981811662
0.52014854626094	0.057264228369860	0.42751385479273
0.52219637518323	0.057377978576917	0.42907762306007
0.52424420410552	0.057491681723426	0.43064091003329
0.52629203302780	0.057605078423629	0.43220370566930
0.52833986195009	0.057717997912287	0.43376620988952
0.53038769087238	0.057830488586787	0.43532868893392
0.53243551979466	0.057942793145152	0.43689128312762
0.53448334871695	0.058055186397429	0.43845390044488
0.53653117763924	0.058167788433519	0.44001626929726
0.53857900656153	0.058280481321938	0.44157811359978
0.54062683548381	0.058392984849402	0.44313933012065
0.54267466440610	0.058505037618170	0.44470004874726
0.54472249332839	0.058616559630599	0.44626053833922
0.54677032225067	0.058727688392423	0.44782102631070
0.54881815117296	0.058838669578971	0.44938155631303
0.55086598009525	0.058949682674375	0.45094197819410
0.55291380901754	0.059060723415582	0.45250207076203
0.55496163793982	0.059171621506584	0.45406170670138
0.55700946686211	0.059282175961132	0.45562094286450
0.55905729578440	0.059392309114074	0.45717997441516
0.56110512470668	0.059502129555436	0.45873898785122
0.56315295362897	0.059611859862821	0.46029801815705
0.56520078255126	0.059721680104148	0.46185691122739
0.56724861147355	0.059831596370836	0.46341541851817
0.56929644039583	0.059941425498917	0.46497335908722
0.57134426931812	0.060050906451771	0.46653073836912
0.57339209824041	0.060159862190075	0.46808774389250
0.57543992716269	0.060268302847171	0.46964462307304
0.57748775608498	0.060376403216660	0.47120152791152
0.57953558500727	0.060484374437224	0.47275843142375
0.58158341392956	0.060592320816730	0.47431516861179
0.58363124285184	0.060700179671830	0.47587156813169
0.58567907177413	0.060807781707687	0.47742757982479
0.58772690069642	0.060914984968667	0.47898330924819
0.58977472961871	0.061021785536476	0.48053893753806
0.59182255854099	0.061128326552954	0.48209458560760
0.59387038746328	0.061234799651383	0.48365021977797
0.59591821638557	0.061341308302141	0.48520566594069
0.59796604530785	0.061447788710621	0.48676072319709
0.60001387423014	0.061554043508200	0.48831529898638
0.60206170315243	0.061659865479240	0.48986947342745
0.60410953207472	0.061765167271866	0.49142344990287
0.60615736099700	0.061870030259524	0.49297742684041
0.60820518991929	0.061974642273009	0.49453147823423
0.61025301884158	0.062079169867092	0.49608552218222
0.61230084776386	0.062183653692708	0.49763939459377
0.61434867668615	0.062287996785533	0.49919297305489
0.61639650560844	0.062392049497155	0.50074626337326
0.61844433453073	0.062495727951488	0.50229938993237
0.62049216345301	0.062599081364803	0.50385249951912
0.62253999237530	0.062702261188071	0.50540564856747
0.62458782129759	0.062805414591278	0.50695875427786
0.62663565021987	0.062908577573675	0.50851164448918
0.62868347914216	0.063011642731092	0.51006417200783
0.63073130806445	0.063114424465475	0.51161631455446
0.63277913698674	0.063216777072777	0.51316819195283
0.63482696590902	0.063318685364428	0.51471998959398
0.63687479483131	0.063420267388422	0.51627184128848
0.63892262375360	0.063521689785286	0.51782375121043
0.64097045267588	0.063623055726703	0.51937560615900
0.64301828159817	0.063724342483693	0.52092726642202
0.64506611052046	0.063825429560744	0.52247867003833
0.64711393944275	0.063926194920126	0.52402987778102
0.64916176836503	0.064026610283835	0.52558102892495
0.65120959728732	0.064126768547612	0.52713224037924
0.65325742620961	0.064226824622617	0.52868352059393
0.65530525513189	0.064326891389719	0.53023475845443
0.65735308405418	0.064426963073717	0.53178579477356
0.65940091297647	0.064526918639604	0.53333652694583
0.66144874189876	0.064626602225841	0.53488697519291
0.66349657082104	0.064725925030196	0.53643726620349
0.66554439974333	0.064824919542551	0.53798754711946
0.66759222866562	0.064923711090474	0.53953788991403
0.66964005758790	0.065022428950878	0.54108825111300
0.67168788651019	0.065121119921352	0.54263851205985
0.67373571543248	0.065219723645793	0.54418856884767
0.67578354435477	0.065318124600230	0.54573840762647
0.67783137327705	0.065416241972458	0.54728811283062
0.67987920219934	0.065514093021838	0.54883780386234
0.68192703112163	0.065611785126133	0.55038754599902
0.68397486004391	0.065709442247352	0.55193729890009
0.68602268896620	0.065807117471512	0.55348693935321
0.68807051788849	0.065904752824933	0.55503634295455
0.69011834681078	0.066002214593007	0.55658546855355
0.69216617573306	0.066099380184928	0.55813438761492
0.69421400465535	0.066196217436272	0.55968323882066
0.69626183357764	0.066292803091174	0.56123213944392
0.69830966249993	0.066389269436328	0.56278111388217
0.70035749142221	0.066485717091681	0.56433008679653
0.70240532034450	0.066582154041048	0.56587894316999
0.70445314926679	0.066678501454632	0.56742761184271
0.70650097818907	0.066774659934785	0.56897611413822
0.70854880711136	0.066870588292847	0.57052454472798
0.71059663603365	0.066966339310112	0.57207299953758
0.71264446495594	0.067062027785296	0.57362150203198
0.71469229387822	0.067157753560840	0.57516997964392
0.71674012280051	0.067253533189058	0.57671830676436
0.71878795172280	0.067349287375360	0.57826638456952
0.72083578064508	0.067444892450940	0.57981420298131
0.72288360956737	0.067540260195480	0.58136184307618
0.72493143848966	0.067635391660135	0.58290941963974
0.72697926741195	0.067730369587219	0.58445700433004
0.72902709633423	0.067825296822149	0.58600458205806
0.73107492525652	0.067920224842028	0.58755206894495
0.73312275417881	0.068015122016308	0.58909937703837
0.73517058310109	0.068109902338770	0.59064647903150
0.73721841202338	0.068204492767807	0.59219342736683
0.73926624094567	0.068298890733414	0.59374031490229
0.74131406986796	0.068393170947874	0.59528720547625
0.74336189879024	0.068487436580006	0.59683408355050
