#Parameters = {C_1=22; C_2=503.88284206549; Conductivity=10000; Conductivity_Mo=17900000; Conductivity_MoGr=1000000; Conductivity_W=18000000; Ip=504.36288377317; Pipe_lenght=40; Pipe_r=30; beta=1; cells_wave=30; conductivity_copper=59500000; d=-603.88284206549; half_gap_x=30; half_gap_y=8; half_gap_z=50; mu_copper=0.999994; offset_x=5; offset_y=1; sigma_z=5; teta=2.5; thcoll=22; translate_z=-553.88284206549; wakelength=20000}
#"Frequency / GHz"	"Z [Re / Ohm]"	"Z [Im / Ohm]"
#-----------------------------------------------
0.0000000000000	0.090409952264340	-2.0662295533382e-12
0.020478289222872	0.0093500814842525	0.050034966551407
0.040956578445743	0.022583220496293	0.092879024037170
0.061434867668615	0.034231369391927	0.13076155945655
0.081913156891487	0.042631140813182	0.16572937423699
0.10239144611436	0.048330436206536	0.19932259249369
0.12286973533723	0.052620477073641	0.23280601273201
0.14334802456010	0.056203886012507	0.26641214961028
0.16382631378297	0.059284728778437	0.30007571827642
0.18430460300585	0.062114754483512	0.33379726875900
0.20478289222872	0.064820341684451	0.36753388487489
0.22526118145159	0.067412345132014	0.40125005754714
0.24573947067446	0.069949996519087	0.43491678686037
0.26621775989733	0.072447071359478	0.46850827110942
0.28669604912020	0.074892344681146	0.50202971605483
0.30717433834308	0.077302679285443	0.53546643738595
0.32765262756595	0.079675556013777	0.56881451337657
0.34813091678882	0.082006175129025	0.60208404963663
0.36860920601169	0.084297618836052	0.63527052718702
0.38908749523456	0.086548916143507	0.66837746649389
0.40956578445743	0.088760491880849	0.70141328389121
0.43004407368031	0.090931651478520	0.73437533030427
0.45052236290318	0.093060972865520	0.76726899262776
0.47100065212605	0.095150088182827	0.80010081826648
0.49147894134892	0.097197624920414	0.83287204283768
0.51195723057179	0.099203826071357	0.86558629006348
0.53243551979466	0.10116839209387	0.89824974613476
0.55291380901754	0.10309165601983	0.93086797561036
0.57339209824041	0.10497783526900	0.96344458116376
0.59387038746328	0.10683021975734	0.99598234520060
0.61434867668615	0.10864975747671	1.0284831560783
0.63482696590902	0.11043914219765	1.0609482958296
0.65530525513189	0.11220019099821	1.0933786388325
0.67578354435477	0.11393344368043	1.1257761299819
0.69626183357764	0.11564080379941	1.1581400114137
0.71674012280051	0.11732112473409	1.1904704461256
0.73721841202338	0.11897311264283	1.2227706744244
0.75769670124625	0.12059751494844	1.2550431249157
0.77817499046912	0.12219563717033	1.2872903209911
0.79865327969200	0.12376954519776	1.3195149384670
0.81913156891487	0.12532100790285	1.3517180529363
0.83960985813774	0.12685312300138	1.3839004884744
0.86008814736061	0.12836796891382	1.4160618139313
0.88056643658348	0.12986607706952	1.4482008776333
0.90104472580636	0.13134811974759	1.4803174556972
0.92152301502923	0.13281454782949	1.5124107508522
0.94200130425210	0.13426363784446	1.5444799355310
0.96247959347497	0.13569416345456	1.5765264528933
0.98295788269784	0.13710571550092	1.6085518118714
1.0034361719207	0.13849765796322	1.6405585934727
1.0239144611436	0.13987190534917	1.6725493326451
1.0443927503665	0.14123065686937	1.7045249526197
1.0648710395893	0.14257587492530	1.7364862486047
1.0853493288122	0.14390990046300	1.7684323717565
1.1058276180351	0.14523408604983	1.8003621827757
1.1263059072579	0.14654901396647	1.8322737350794
1.1467841964808	0.14785335987532	1.8641655340906
1.1672624857037	0.14914600415026	1.8960371663082
1.1877407749266	0.15042497851609	1.9278890642385
1.2082190641494	0.15168886044258	1.9597227815218
1.2286973533723	0.15293705145362	1.9915406898940
1.2491756425952	0.15417052186588	2.0233457335834
1.2696539318180	0.15539154885982	2.0551395290566
1.2901322210409	0.15660275439461	2.0869225461427
1.3106105102638	0.15780669953641	2.1186939872691
1.3310887994867	0.15900478813923	2.1504519376415
1.3515670887095	0.16019734187068	2.1821941757697
1.3720453779324	0.16138345403224	2.2139187016362
1.3925236671553	0.16256080038104	2.2456246029647
1.4130019563781	0.16372747667539	2.2773123037736
1.4334802456010	0.16488141237679	2.3089830991204
1.4539585348239	0.16602160192757	2.3406398799589
1.4744368240468	0.16714874440439	2.3722853207043
1.4949151132696	0.16826447884901	2.4039218423924
1.5153934024925	0.16937213908730	2.4355512038062
1.5358716917154	0.17047545596322	2.4671720858461
1.5563499809382	0.17157627735275	2.4987819954824
1.5768282701611	0.17267509527542	2.5303781294103
1.5973065593840	0.17377085738641	2.5619577341966
1.6177848486069	0.17486121961801	2.5935190043947
1.6382631378297	0.17594301664442	2.6250616147901
1.6587414270526	0.17701284009109	2.6565871243588
1.6792197162755	0.17806889986213	2.6880992669779
1.6996980054984	0.17911178114586	2.7196020352048
1.7201762947212	0.18014385906174	2.7510984213568
1.7406545839441	0.18116842999673	2.7825901616947
1.7611328731670	0.18218968693461	2.8140773433000
1.7816111623898	0.18321138735735	2.8455575910961
1.8020894516127	0.18423524698485	2.8770266872825
1.8225677408356	0.18526045170102	2.9084803227737
1.8430460300585	0.18628390913976	2.9399153768683
1.8635243192813	0.18730125732981	2.9713305549854
1.8840026085042	0.18830794864379	3.0027273490366
1.9044808977271	0.18930048349557	3.0341092883690
1.9249591869499	0.19027746069714	3.0654818544899
1.9454374761728	0.19124088441352	3.0968507039402
1.9659157653957	0.19219546289840	3.1282197073127
1.9863940546186	0.19314706226440	3.1595898537675
2.0068723438414	0.19410173662510	3.1909591244748
2.0273506330643	0.19506353381476	3.2223223256022
2.0478289222872	0.19603299907727	3.2536727650899
2.0683072115100	0.19700709236243	3.2850045889654
2.0887855007329	0.19797993792080	3.3163139619065
2.1092637899558	0.19894380951689	3.3476010379068
2.1297420791787	0.19989233047949	3.3788701439872
2.1502203684015	0.20082176988899	3.4101283476232
2.1706986576244	0.20173226431266	3.4413843975627
2.1911769468473	0.20262879518665	3.4726461305408
2.2116552360701	0.20351991547936	3.5039179117327
2.2321335252930	0.20441534359724	3.5351991388542
2.2526118145159	0.20532343369866	3.5664844804150
2.2730901037388	0.20624904937703	3.5977644090692
2.2935683929616	0.20719080813479	3.6290277693673
2.3140466821845	0.20814126620674	3.6602656786528
2.3345249714074	0.20908900980535	3.6914745276764
2.3550032606302	0.21002194103064	3.7226570566089
2.3754815498531	0.21093015872013	3.7538223508383
2.3959598390760	0.21180960512877	3.7849841684179
2.4164381282989	0.21266390962999	3.8161571872242
2.4369164175217	0.21350383914345	3.8473528032695
2.4573947067446	0.21434526267789	3.8785758287669
2.4778729959675	0.21520482949629	3.9098220921561
2.4983512851903	0.21609506297386	3.9410791559313
2.5188295744132	0.21702055771721	3.9723292912487
2.5393078636361	0.21797571822516	4.0035538749228
2.5597861528590	0.21894494458642	4.0347394653054
2.5802644420818	0.21990676208087	4.0658825112797
2.6007427313047	0.22083971840707	4.0969916806178
2.6212210205276	0.22172869136771	4.1280861968647
2.6416993097505	0.22256974941823	4.1591920879851
2.6621775989733	0.22337315301120	4.1903354177260
2.6826558881962	0.22416200415347	4.2215345409832
2.7031341774191	0.22496674220969	4.2527939083855
2.7236124666419	0.22581704234701	4.2841014735409
2.7440907558648	0.22673303381297	4.3154305393893
2.7645690450877	0.22771819781536	4.3467463990630
2.7850473343106	0.22875677225584	4.3780156174874
2.8055256235334	0.22981552435057	4.4092162533081
2.8260039127563	0.23085156262458	4.4403467588992
2.8464822019792	0.23182416596213	4.4714290330359
2.8669604912020	0.23270687852838	4.5025056596856
2.8874387804249	0.23349775272839	4.5336305637673
2.9079170696478	0.23422327795741	4.5648547768546
2.9283953588707	0.23493448196449	4.5962114622358
2.9488736480935	0.23569543899709	4.6277040025451
2.9693519373164	0.23656570897847	4.6593012092832
2.9898302265393	0.23758202807111	4.6909426525944
3.0103085157621	0.23874413778606	4.7225531595887
3.0307868049850	0.24000915891979	4.7540636613903
3.0512650942079	0.24129734059767	4.7854341255787
3.0717433834308	0.24251031139670	4.8166720680257
3.0922216726536	0.24355785906315	4.8478391037613
3.1126999618765	0.24438588089190	4.8790435482010
3.1331782510994	0.24499950163324	4.9104186167169
3.1536565403222	0.24547291778565	4.9420886624278
3.1741348295451	0.24593966075999	4.9741324046673
3.1946131187680	0.24656444412150	5.0065537576705
3.2150914079909	0.24749990157999	5.0392685252815
3.2355696972137	0.24883783072377	5.0721154311392
3.2560479864366	0.25056793336748	5.1048928949273
3.2765262756595	0.25255676049864	5.1374173722555
3.2970045648823	0.25455798440669	5.1695918793976
3.3174828541052	0.25625792384841	5.2014684672276
3.3379611433281	0.25735288044682	5.2332884409300
3.3584394325510	0.25764630427653	5.2654831943553
3.3789177217738	0.25714679054251	5.2986287413696
3.3993960109967	0.25614512435375	5.3333544696436
3.4198743002196	0.25524926121351	5.3702167325536
3.4403525894424	0.25536442283344	5.4095573201763
3.4608308786653	0.25761398933025	5.4513735682813
3.4813091678882	0.26321074075633	5.4952232948071
3.5017874571111	0.27330272414595	5.5401798103288
3.5222657463339	0.28882130202955	5.5848335072325
3.5427440355568	0.31034810761830	5.6273083918526
3.5632223247797	0.33797773832999	5.6652168466372
3.5837006140025	0.37099922151887	5.6954660700702
3.6041789032254	0.40682855713897	5.7140656154729
3.6246571924483	0.43838731510759	5.7175847971492
3.6451354816712	0.45348358450038	5.7109678414114
3.6656137708940	0.45155931757952	5.7144831987057
3.6860920601169	0.46154932108941	5.7343465199116
3.7065703493398	0.49934436561944	5.7225242298573
3.7270486385627	0.46776301765135	5.6577090068784
3.7475269277855	0.38494868101606	5.6762226718593
3.7680052170084	0.34427863020174	5.7310311939702
3.7884835062313	0.32542207319374	5.7832816515578
3.8089617954541	0.31460362291868	5.8322856106737
3.8294400846770	0.30847298543339	5.8810180020374
3.8499183738999	0.30807187222461	5.9311486359009
3.8703966631228	0.31662287182809	5.9809819255486
3.8908749523456	0.33441620880329	6.0238726077287
3.9113532415685	0.35390276541655	6.0557431824879
3.9318315307914	0.36966036918895	6.0818634682614
3.9523098200142	0.38628324205508	6.1055493641278
3.9727881092371	0.40456123200262	6.1145060711095
3.9932663984600	0.39601272779851	6.1139659594452
4.0137446876829	0.37638068510998	6.1365295722918
4.0342229769057	0.36529476597798	6.1693023792146
4.0547012661286	0.36051435881202	6.2032717516131
4.0751795553515	0.35918120315450	6.2356792942180
4.0956578445743	0.35799664554055	6.2655694609850
4.1161361337972	0.35394022034454	6.2957961077299
4.1366144230201	0.34953666399764	6.3304906552293
4.1570927122430	0.34912554972865	6.3682785204774
4.1775710014658	0.35364385118651	6.4061639138318
4.1980492906887	0.36370533504661	6.4410717374411
4.2185275799116	0.37458443926788	6.4670131674873
4.2390058691344	0.37747996418612	6.4910677146099
4.2594841583573	0.37950038505176	6.5197382407490
4.2799624475802	0.38528661068886	6.5491110795189
4.3004407368031	0.39466256970611	6.5737436242807
4.3209190260259	0.40058336665738	6.5888003506935
4.3413973152488	0.39199962737388	6.6021206159827
4.3618756044717	0.37533281403514	6.6285106495277
4.3823538936945	0.36370838186235	6.6659086783838
4.4028321829174	0.35974438530306	6.7069070643820
4.4233104721403	0.36253475932731	6.7476185069647
4.4437887613632	0.37007258494395	6.7845201570824
4.4642670505860	0.37806229863325	6.8181823797382
4.4847453398089	0.38764377316364	6.8513541924200
4.5052236290318	0.40192959868972	6.8819705193879
4.5257019182546	0.42039601566692	6.9028555335600
4.5461802074775	0.43027305571730	6.9086174980487
4.5666584967004	0.41882132580172	6.9153638372468
4.5871367859233	0.39934400219668	6.9388938762614
4.6076150751461	0.38496914319184	6.9740753051574
4.6280933643690	0.37752250663697	7.0139457666988
4.6485716535919	0.37636211393789	7.0552458030899
4.6690499428147	0.38052376847953	7.0956041147900
4.6895282320376	0.38864671790499	7.1345475800653
4.7100065212605	0.40205295667231	7.1718543174306
4.7304848104834	0.42305697616442	7.2029218062948
4.7509630997062	0.44627706772595	7.2175152553083
4.7714413889291	0.45206133601208	7.2177371010273
4.7919196781520	0.43764087186104	7.2266479421026
4.8123979673749	0.41983351439268	7.2510337921201
4.8328762565977	0.40631900231654	7.2844932416694
4.8533545458206	0.39788504693374	7.3227780864864
4.8738328350435	0.39497176691461	7.3638729983068
4.8943111242663	0.39780737324273	7.4058371352915
4.9147894134892	0.40692713418107	7.4475945363628
4.9352677027121	0.42486499062748	7.4862087570027
4.9557459919350	0.45128353832283	7.5122214345341
4.9762242811578	0.47056574889962	7.5179513595114
4.9967025703807	0.46747832111644	7.5201495785330
5.0171808596036	0.45282992527384	7.5352426267492
5.0376591488264	0.43815000600692	7.5612877017654
5.0581374380493	0.42621443323114	7.5940585085026
5.0786157272722	0.41813931892540	7.6320787353266
5.0990940164951	0.41572123690390	7.6736034127474
5.1195723057179	0.41993606602804	7.7166773234735
5.1400505949408	0.43304071923157	7.7590274881029
5.1605288841637	0.45702962153957	7.7930455260598
5.1810071733865	0.48199713194720	7.8075563502807
5.2014854626094	0.48882561328515	7.8103574894735
5.2219637518323	0.47999411179555	7.8206876417778
5.2424420410552	0.46753114286323	7.8414821888257
5.2629203302780	0.45565032069476	7.8692268757823
5.2833986195009	0.44550035850070	7.9030100593476
5.3038769087238	0.43982351878177	7.9421279272857
5.3243551979466	0.44060032401594	7.9841366554339
5.3448334871695	0.44963693948520	8.0267099345745
5.3653117763924	0.46937926832626	8.0639572769825
5.3857900656153	0.49394839892336	8.0850008041864
5.4062683548381	0.50564611940701	8.0917095334551
5.4267466440610	0.50144501434242	8.1016000093974
5.4472249332839	0.49196646054304	8.1206241080819
5.4677032225067	0.48222278851033	8.1459062522073
5.4881815117296	0.47291755276097	8.1764878063403
5.5086598009525	0.46655980624083	8.2127904711659
5.5291380901754	0.46607927398363	8.2526748143492
5.5496163793982	0.47307405656003	8.2933558889224
5.5700946686211	0.48929070972569	8.3300198054908
5.5905729578440	0.51066869961237	8.3537438754198
5.6110512470668	0.52270279173227	8.3642588027101
5.6315295362897	0.52059496961567	8.3760424573628
5.6520078255126	0.51328085771092	8.3958916445063
5.6724861147355	0.50612468858022	8.4212564919161
5.6929644039583	0.49945159693157	8.4504859132946
5.7134426931812	0.49463284500437	8.4844193718340
5.7339209824041	0.49482397730428	8.5218057652394
5.7543992716269	0.50172719687948	8.5594928429274
5.7748775608498	0.51589953052794	8.5929986033700
5.7953558500727	0.53318241918979	8.6157904610059
5.8158341392956	0.54214966851676	8.6285487864830
5.8363124285184	0.53938618966602	8.6432912987553
5.8567907177413	0.53290927838087	8.6657284027644
5.8772690069642	0.52791873489074	8.6931064164327
5.8977472961871	0.52453578101941	8.7228748709843
5.9182255854099	0.52277068122533	8.7554450101764
5.9387038746328	0.52508597055512	8.7904716573690
5.9591821638557	0.53331676907332	8.8248941576382
5.9796604530785	0.54696135102055	8.8541236882169
6.0001387423014	0.56066521263637	8.8735901517735
6.0206170315243	0.56493756303099	8.8865504822438
6.0410953207472	0.55935771415868	8.9041278257948
6.0615736099700	0.55237957615835	8.9299804865362
6.0820518991929	0.54877341891641	8.9604045823202
6.1025301884158	0.54838163464557	8.9920141353665
6.1230084776386	0.55012251869716	9.0244190290771
6.1434867668615	0.55529934994214	9.0577764212332
6.1639650560844	0.56564437171927	9.0894697833848
6.1844433453073	0.58000007669132	9.1147604079536
6.2049216345301	0.59167153457683	9.1302346871740
6.2253999237530	0.59177536668193	9.1417196708685
6.2458782129759	0.58264444709045	9.1609417117680
6.2663565021987	0.57429099016419	9.1899060562486
6.2868347914216	0.57142091762286	9.2234262028589
6.3073130806445	0.57345955268168	9.2571774020493
6.3277913698674	0.57844035761042	9.2900026166710
6.3482696590902	0.58655157030760	9.3222612778196
6.3687479483131	0.59928404107064	9.3518207321436
6.3892262375360	0.61515270708534	9.3738024825775
6.4097045267588	0.62633275865134	9.3851869353367
6.4301828159817	0.62345065555710	9.3936518078990
6.4506611052046	0.61041622065673	9.4125760698622
6.4711393944275	0.59935998744781	9.4435386669918
6.4916176836503	0.59573989303459	9.4798941835450
6.5120959728732	0.59882269580068	9.5162017576084
6.5325742620961	0.60607847177083	9.5504585511028
6.5530525513189	0.61674973986474	9.5828029038629
6.5735308405418	0.63185520037858	9.6114451950648
6.5940091297647	0.64975507589843	9.6315349826759
6.6144874189876	0.66204081945541	9.6399746927033
6.6349657082104	0.65841876633538	9.6450829966363
6.6554439974333	0.64273764152546	9.6618918389320
6.6759222866562	0.62869929584489	9.6929792344142
6.6964005758790	0.62320024358469	9.7310623630684
6.7168788651019	0.62595063182392	9.7696596180328
6.7373571543248	0.63428153730003	9.8058579362660
6.7578354435477	0.64682740191023	9.8392818465261
6.7783137327705	0.66415835455158	9.8681937304494
6.7987920219934	0.68457595736822	9.8876757905316
6.8192703112163	0.69937944436918	9.8941342622578
6.8397486004392	0.69703266242370	9.8955989120155
6.8602268896620	0.67998770440426	9.9085562988364
6.8807051788849	0.66272190762628	9.9377212487456
6.9011834681078	0.65398913347207	9.9762109270426
6.9216617573306	0.65466942484770	10.016833269306
6.9421400465535	0.66258183777494	10.055684222772
6.9626183357764	0.67615459695049	10.091495674043
6.9830966249993	0.69557826738850	10.122219296311
7.0035749142221	0.71918516037502	10.142655181709
7.0240532034450	0.73815739168935	10.148241801486
7.0445314926679	0.73937255775244	10.145885196597
7.0650097818907	0.72268233220053	10.153233489134
7.0854880711136	0.70237698227193	10.178041045151
7.1059663603365	0.68916072021091	10.214939464809
7.1264446495594	0.68568288259671	10.256646736911
7.1469229387822	0.69097986945481	10.298453155400
7.1674012280051	0.70388927746656	10.337914977207
7.1878795172280	0.72440777496186	10.372264266522
7.2083578064508	0.75099370194515	10.395844580104
7.2288360956737	0.77502346792832	10.402849273046
7.2493143848966	0.78192880683678	10.398290610516
7.2697926741195	0.76824406605233	10.400163754594
7.2902709633423	0.74695550270388	10.419423665534
7.3107492525652	0.73029691357444	10.452981994922
7.3312275417881	0.72275868654252	10.494006055629
7.3517058310109	0.72474438594492	10.537395425047
7.3721841202338	0.73590571312509	10.579872793035
7.3926624094567	0.75655613194058	10.617906012836
7.4131406986796	0.78556582510834	10.645100290604
7.4336189879024	0.81460096720512	10.654092066717
7.4540972771253	0.82760761535656	10.647680220787
7.4745755663482	0.81754096878164	10.643894766560
7.4950538555710	0.79559884659846	10.656898817012
7.5155321447939	0.77530196690915	10.686242718573
7.5360104340168	0.76304084998844	10.725839019734
7.5564887232397	0.76070507858310	10.770345840559
7.5769670124625	0.76886043835037	10.815735141154
7.5974453016854	0.78818094963377	10.857798848847
7.6179235909083	0.81803575605423	10.889647956924
7.6384018801311	0.85083467581222	10.902660587866
7.6588801693540	0.86989590957126	10.897178681117
7.6793584585769	0.86493197656328	10.890150530035
7.6998367477998	0.84455871449606	10.898112836240
7.7203150370226	0.82275347168980	10.923374836854
7.7407933262455	0.80745751132808	10.960917940557
7.7612716154684	0.80178206380500	11.005434243832
7.7817499046912	0.80704490432418	11.052596693519
7.8022281939141	0.82440279643663	11.097975114624
7.8227064831370	0.85395686017050	11.134534618464
7.8431847723599	0.88927639195271	11.152774010914
7.8636630615827	0.91390795935205	11.150670097120
7.8841413508056	0.91507269578957	11.143318914048
7.9046196400285	0.89855346656429	11.148675591759
