#Parameters = {C_1=25.815589753809; C_2=591.27421521573; Conductivity_MoGr=1000000; Ip=591.83751338802; Pipe_lenght=40; Pipe_r=30; beta=1; cells_wave=30; d=-841.27421521573; half_gap_x=4.1844102461909; half_gap_y=30; half_gap_z=125; offset=1.6737640984764; offset_x=1; offset_y=5; sigma_z=5; teta=2.5; thcoll=25.815589753809; translate_z=-716.27421521573; wakelength=20000}
#"Frequency / GHz"	"Z [Re / Ohm]"	"Z [Im / Ohm]"
#-----------------------------------------------
0.0000000000000	0.027212294692926	-1.3061261689368e-13
0.0020478289222872	0.024843681199460	0.019077467296588
0.0040956578445743	0.019075239936802	0.041758569878160
0.0061434867668615	0.013246248026349	0.069897132439069
0.0081913156891487	0.011043425147828	0.10275926663990
0.010239144611436	0.014750874446182	0.13750374524092
0.012286973533723	0.024312227797032	0.17066779388146
0.014334802456010	0.037634358552368	0.19982293631966
0.016382631378297	0.051869620812655	0.22452716502896
0.018430460300585	0.064906735658882	0.24614551409841
0.020478289222872	0.076255216178430	0.26676319585699
0.022526118145159	0.086921188463372	0.28789129029665
0.024573947067446	0.098475913235963	0.30970583112510
0.026621775989733	0.11195123345793	0.33117716608819
0.028669604912020	0.12722219582651	0.35089493005809
0.030717433834308	0.14317634814524	0.36801138447200
0.032765262756595	0.15846904582623	0.38272258829236
0.034813091678882	0.17233501706684	0.39605011532349
0.036860920601169	0.18495050436533	0.40913748816002
0.038908749523456	0.19717040176675	0.42255115518124
0.040956578445743	0.20987083660683	0.43602284359541
0.043004407368031	0.22335192905516	0.44875067183724
0.045052236290318	0.23717427410496	0.46001280038302
0.047100065212605	0.25049308299037	0.46967147253359
0.049147894134892	0.26263035766652	0.47825248392408
0.051195723057179	0.27349454090546	0.48658446431922
0.053243551979466	0.28358724747206	0.49526768799147
0.055291380901754	0.29362457265025	0.50433150149463
0.057339209824041	0.30404899171560	0.51328976805250
0.059387038746328	0.31475911072095	0.52152890436634
0.061434867668615	0.32521895600544	0.52875018616373
0.063482696590902	0.33484852970071	0.53517146497165
0.065530525513189	0.34341895729780	0.54137120101877
0.067578354435477	0.35119033596362	0.54790100502726
0.069626183357764	0.35871669579269	0.55493793334832
0.071674012280051	0.36646740076600	0.56220507248502
0.073721841202338	0.37452727517550	0.56919764429038
0.075769670124625	0.38257050122455	0.57554683355026
0.077817499046912	0.39011041657783	0.58127125938757
0.079865327969200	0.39684346751773	0.58675438720423
0.081913156891487	0.40285237733266	0.59247750311033
0.083960985813774	0.40853971533885	0.59869959187494
0.086008814736061	0.41434979990653	0.60530135313262
0.088056643658348	0.42047573429864	0.61189006604494
0.090104472580635	0.42674893278171	0.61808257889755
0.092152301502923	0.43277686625199	0.62376807467601
0.094200130425210	0.43822510113216	0.62917489726899
0.096247959347497	0.44304738764708	0.63470524159436
0.098295788269784	0.44751107945718	0.64065921630886
0.10034361719207	0.45200947201056	0.64703904486201
0.10239144611436	0.45679653805036	0.65356218448267
0.10443927503665	0.46182628800511	0.65986601509339
0.10648710395893	0.46680107106576	0.66575821731731
0.10853493288122	0.47138797923007	0.67134187321944
0.11058276180351	0.47545055754452	0.67693555562254
0.11263059072579	0.47913848576509	0.68285025029799
0.11467841964808	0.48277980625171	0.68917945656162
0.11672624857037	0.48665589539597	0.69574416689525
0.11877407749266	0.49081586509437	0.70222448440116
0.12082190641494	0.49505483809291	0.70838210881599
0.12286973533723	0.49906517893539	0.71421967487747
0.12491756425952	0.50265220523229	0.71997099218573
0.12696539318180	0.50586581576592	0.72593447417376
0.12901322210409	0.50896142777289	0.73226803025440
0.13106105102638	0.51222228807441	0.73888600745555
0.13310887994867	0.51576832748624	0.74552497603187
0.13515670887095	0.51948192750820	0.75192835688214
0.13720453779324	0.52309748108212	0.75802068135961
0.13925236671553	0.52638885558992	0.76395326572225
0.14130019563781	0.52932427431429	0.76999407492271
0.14334802456010	0.53208416143667	0.77634134205789
0.14539585348239	0.53493379008526	0.78299006492311
0.14744368240468	0.53804163474074	0.78974079331920
0.14949151132696	0.54136871607700	0.79634070496377
0.15153934024925	0.54470237123845	0.80265715366766
0.15358716917154	0.54780746889105	0.80876450701738
0.15563499809382	0.55058879460955	0.81488742076158
0.15768282701611	0.55315357305353	0.82124307485116
0.15973065593840	0.55573411891098	0.82789265232129
0.16177848486069	0.55852703665130	0.83470315383167
0.16382631378297	0.56156085263197	0.84144277124330
0.16587414270526	0.56468171222603	0.84794133162759
0.16792197162755	0.56766395059344	0.85420464373993
0.16996980054984	0.57036694462498	0.86040580690240
0.17201762947212	0.57282998843284	0.86676242818073
0.17406545839441	0.57524188090577	0.87338638137111
0.17611328731670	0.57780899878031	0.88020941682674
0.17816111623898	0.58061440930369	0.88703366973803
0.18020894516127	0.58356453086592	0.89366963201361
0.18225677408356	0.58645778978751	0.90006525106824
0.18430460300585	0.58912555180478	0.90633808794112
0.18635243192813	0.59154732520230	0.91269072777784
0.18840026085042	0.59386201589620	0.91926990033772
0.19044808977271	0.59626982756921	0.92606692277938
0.19249591869499	0.59889430978177	0.93292667888836
0.19454374761728	0.60169981263753	0.93965665020228
0.19659157653957	0.60451965993599	0.94615924591232
0.19863940546186	0.60717342128738	0.95249636275714
0.20068723438414	0.60959114199070	0.95884339434996
0.20273506330643	0.61185933190121	0.96536646346187
0.20478289222872	0.61415882403866	0.97210851435804
0.20683072115100	0.61663925152983	0.97896209503770
0.20887855007329	0.61931738999147	0.98574573332132
0.21092637899558	0.62206853002540	0.99232953067927
0.21297420791787	0.62471496246467	0.99872296114562
0.21502203684015	0.62714905751756	1.0050654523792
0.21706986576244	0.62940592935825	1.0115280778542
0.21911769468473	0.63163684928444	1.0181954327075
0.22116552360701	0.63400350907670	1.0250090332730
0.22321335252930	0.63656710114306	1.0318098869034
0.22526118145159	0.63924835631356	1.0384492059387
0.22730901037388	0.64188463471796	1.0448901013086
0.22935683929616	0.64434315304833	1.0512306866933
0.23140466821845	0.64661168474699	1.0576341679321
0.23345249714074	0.64880492938103	1.0642155312150
0.23550032606302	0.65108367883555	1.0709633233407
0.23754815498531	0.65354376547644	1.0777495649423
0.23959598390760	0.65615150725743	1.0844194593715
0.24164381282989	0.65876913920957	1.0908979673229
0.24369164175217	0.66125123968281	1.0972398285728
0.24573947067446	0.66354477421956	1.1035896640953
0.24778729959675	0.66572403621061	1.1100810546280
0.24983512851903	0.66793758996654	1.1167448830125
0.25188295744132	0.67030509301848	1.1234897021500
0.25393078636361	0.67283564993504	1.1301664223199
0.25597861528590	0.67542339965457	1.1366715343750
0.25802644420818	0.67792211826249	1.1430173746443
0.26007427313047	0.68024634590041	1.1493217132250
0.26212210205276	0.68242917350633	1.1557250980308
0.26416993097504	0.68459768884628	1.1622938574185
0.26621775989733	0.68688423437473	1.1689756027174
0.26826558881962	0.68933542583445	1.1756369778434
0.27031341774191	0.69188146056251	1.1821564584466
0.27236124666419	0.69438587693820	1.1885076111988
0.27440907558648	0.69674036000468	1.1947757598822
0.27645690450877	0.69893878025060	1.2010976111150
0.27850473343106	0.70107990565190	1.2075664733122
0.28055256235334	0.70329798204648	1.2141687057353
0.28260039127563	0.70566994748865	1.2207946077514
0.28464822019792	0.70816338583468	1.2273151764709
0.28669604912020	0.71066039746171	1.2336710243908
0.28874387804249	0.71303988679205	1.2399121688158
0.29079170696478	0.71526087134053	1.2461620471715
0.29283953588707	0.71738953285906	1.2525315699741
0.29488736480935	0.71955220890064	1.2590429981448
0.29693519373164	0.72184767903533	1.2656158383992
0.29898302265393	0.72427961555573	1.2721235907343
0.30103085157621	0.72675536310618	1.2784813527580
0.30307868049850	0.72915097631870	1.2847036224058
0.30512650942079	0.73139689158302	1.2908929588963
0.30717433834308	0.73352504112614	1.2971682350335
0.30922216726536	0.73564552789611	1.3035826332052
0.31126999618765	0.73786984333379	1.3100879184027
0.31331782510994	0.74023414530067	1.3165689459994
0.31536565403222	0.74267536483487	1.3229237441986
0.31741348295451	0.74507588478493	1.3291334909399
0.31946131187680	0.74734516549015	1.3352743816475
0.32150914079909	0.74948168960102	1.3414639746921
0.32355696972137	0.75157286462999	1.3477797665122
0.32560479864366	0.75373374164489	1.3542063682969
0.32765262756595	0.75602748714537	1.3606472641324
0.32970045648823	0.75842255583951	1.3669922471927
0.33174828541052	0.76081557280846	1.3731934366806
0.33379611433281	0.76310336263049	1.3792974619129
0.33584394325510	0.76525395284665	1.3854122087064
0.33789177217738	0.76732770292046	1.3916318156851
0.33993960109967	0.76943462704903	1.3979720468118
0.34198743002196	0.77165805634214	1.4043603918730
0.34403525894424	0.77399758559221	1.4106870480522
0.34608308786653	0.77637034173182	1.4168809633262
0.34813091678882	0.77866900586349	1.4229583021046
0.35017874571111	0.78083597819287	1.4290102994234
0.35222657463339	0.78290244373247	1.4351395781676
0.35427440355568	0.78496585748349	1.4413893710266
0.35632223247797	0.78712206541391	1.4477144542756
0.35837006140025	0.78939931686581	1.4540133210208
0.36041789032254	0.79173957693675	1.4601987391202
0.36246571924483	0.79403946413932	1.4662576760688
0.36451354816712	0.79622194895159	1.4722594523398
0.36656137708940	0.79828909787921	1.4783070946318
0.36860920601169	0.80031975830412	1.4844660242542
0.37065703493398	0.80241439398807	1.4907194386826
0.37270486385627	0.80462564613398	1.4969808144274
0.37475269277855	0.80692259639349	1.5031542894922
0.37680052170084	0.80921297202484	1.5092008154769
0.37884835062313	0.81140736700808	1.5151644578810
0.38089617954541	0.81348079212630	1.5211411646366
0.38294400846770	0.81548919103817	1.5272121354431
0.38499183738999	0.81753003117455	1.5333880652648
0.38703966631228	0.81967471212894	1.5396025497547
0.38908749523456	0.82191964887858	1.5457586717895
0.39113532415685	0.82418952732228	1.5517961161250
0.39318315307914	0.82638994020517	1.5577323642233
0.39523098200142	0.82847262692255	1.5636498628964
0.39727881092371	0.83046824279659	1.5696385691264
0.39932663984600	0.83246441929275	1.5757339151671
0.40137446876829	0.83454479440297	1.5818929790168
0.40342229769057	0.83673141884965	1.5880248857314
0.40547012661286	0.83897018429385	1.5940539403602
0.40751795553515	0.84116887659813	1.5999716619138
0.40956578445743	0.84326110330068	1.6058419783521
0.41161361337972	0.84525178709491	1.6117564738542
0.41366144230201	0.84721306231209	1.6177710248539
0.41570927122430	0.84923389561964	1.6238676723151
0.41775710014658	0.85135860509983	1.6299677537305
0.41980492906887	0.85355675417501	1.6359867402736
0.42185275799116	0.85574485962702	1.6418925802492
0.42390058691344	0.85784444802339	1.6477273073730
0.42594841583573	0.85983609701860	1.6535773789116
0.42799624475802	0.86177225586889	1.6595136816429
0.43004407368031	0.86374040561856	1.6655428454148
0.43209190260259	0.86580242499396	1.6716033118171
0.43413973152488	0.86795218001758	1.6776084413269
0.43618756044717	0.87012039624208	1.6835065011750
0.43823538936945	0.87222300924880	1.6893160265937
0.44028321829174	0.87421925760292	1.6951124124536
0.44233104721403	0.87613938324279	1.7009754335210
0.44437887613632	0.87806312737716	1.7069342323570
0.44642670505860	0.88006430106132	1.7129477204821
0.44847453398089	0.88215995380622	1.7189335771633
0.45052236290318	0.88429913997238	1.7248254091005
0.45257019182546	0.88639866585775	1.7306184085522
0.45461802074775	0.88840074631582	1.7363721373490
0.45666584967004	0.89031262296363	1.7421689051980
0.45871367859233	0.89220099209231	1.7480568376479
0.46076150751461	0.89414548901836	1.7540170228930
0.46280933643690	0.89618366526367	1.7599771737617
0.46485716535919	0.89828547141144	1.7658619719395
0.46690499428147	0.90037457865213	1.7716450577539
0.46895282320376	0.90238142505983	1.7773668034421
0.47100065212605	0.90429113158947	1.7831059147764
0.47304848104834	0.90615329250818	1.7889248460030
0.47509630997062	0.90804722061772	1.7948268951927
0.47714413889291	0.91002699869466	1.8007544647008
0.47919196781520	0.91208440289816	1.8066293315343
0.48123979673749	0.91415511279385	1.8124067966931
0.48328762565977	0.91616355560671	1.8181062527394
0.48533545458206	0.91807513012009	1.8237972899587
0.48738328350435	0.91991973185456	1.8295512995684
0.48943111242663	0.92177059730599	1.8353922422245
0.49147894134892	0.92369343306700	1.8412805423989
0.49352677027121	0.92570116326750	1.8471409393885
0.49557459919350	0.92774545920697	1.8529147200713
0.49762242811578	0.92975058829069	1.8586001056244
0.49967025703807	0.93166588634161	1.8642530342490
0.50171808596036	0.93350050796326	1.8699481256699
0.50376591488264	0.93531663095498	1.8757270782514
0.50581374380493	0.93718614092592	1.8815701950251
0.50786157272722	0.93914097063746	1.8874104914630
0.50990940164951	0.94115140077074	1.8931803091930
0.51195723057179	0.94314706503865	1.8988580195979
0.51400505949408	0.94506582742236	1.9044825997944
0.51605288841637	0.94689659205180	1.9101262828192
0.51810071733865	0.94868656216036	1.9158444826085
0.52014854626094	0.95050822234761	1.9216377181165
0.52219637518323	0.95240913982104	1.9274517088683
0.52424420410552	0.95437935048868	1.9332152757724
0.52629203302780	0.95635869193596	1.9388896037921
0.52833986195009	0.95827871249791	1.9444947916417
0.53038769087238	0.96010997416358	1.9500955482083
0.53243551979466	0.96188207224531	1.9557562203889
0.53448334871695	0.96366276997385	1.9614964166871
0.53653117763924	0.96551095805485	1.9672778393060
0.53857900656153	0.96743609532013	1.9730311712827
0.54062683548381	0.96939206574509	1.9787041621932
0.54267466440610	0.97130942914192	1.9842975734261
0.54472249332839	0.97314352263321	1.9898642729826
0.54677032225067	0.97490510355869	1.9954723819450
0.54881815117296	0.97665252095154	2.0011581716240
0.55086598009525	0.97845110503010	2.0069012898532
0.55291380901754	0.98032804130365	2.0126392446701
0.55496163793982	0.98225390141434	2.0183108597232
0.55700946686211	0.98416337821298	2.0238985008131
0.55905729578440	0.98600062778078	2.0294399438136
0.56110512470668	0.98775774860765	2.0350019171606
0.56315295362897	0.98947989442768	2.0406338570445
0.56520078255126	0.99123373558566	2.0463339326078
0.56724861147355	0.99306129992672	2.0520506980666
0.56929644039583	0.99495115390973	2.0577189738179
0.57134426931812	0.99684668746444	2.0633049474327
0.57339209824041	0.99868551842816	2.0688293026623
0.57543992716269	1.0004425991723	2.0743525713816
0.57748775608498	1.0021472488537	2.0799330872156
0.57953558500727	1.0038625414766	2.0855867543161
0.58158341392956	1.0056415419723	2.0912763849307
0.58363124285184	1.0074907586150	2.0969377562782
0.58567907177413	1.0093659858842	2.1025241445134
0.58772690069642	1.0112031802527	2.1080384690703
0.58977472961871	1.0129628137318	2.1135309475009
0.59182255854099	1.0146569978348	2.1190641192569
0.59387038746328	1.0163407756002	2.1246696060294
0.59591821638557	1.0180738395836	2.1303265113064
0.59796604530785	1.0198793032456	2.1359762199390
0.60001387423014	1.0217280041887	2.1415631327680
0.60206170315243	1.0235589997795	2.1470730415648
0.60410953207472	1.0253218612969	2.1525426712090
0.60615736099700	1.0270114239726	2.1580339978872
0.60820518991929	1.0286710564026	2.1635913092334
0.61025301884158	1.0303624045591	2.1692107638616
0.61230084776386	1.0321227213275	2.1748433795059
0.61434867668615	1.0339393205552	2.1804291632801
0.61639650560844	1.0357586762265	2.1859386155243
0.61844433453073	1.0375236549749	2.1913929069688
0.62049216345301	1.0392129925428	2.1968489415579
0.62253999237530	1.0408557470390	2.2023598487035
0.62458782129759	1.0425109159502	2.2079383410114
0.62663565021987	1.0442265171717	2.2135482150260
0.62868347914216	1.0460065175798	2.2191296784603
0.63073130806445	1.0478083896946	2.2246407979552
0.63277913698674	1.0495727841443	2.2300863476470
0.63482696590902	1.0512646241172	2.2355142233159
0.63687479483131	1.0528971762931	2.2409821072933
0.63892262375360	1.0545225889816	2.2465175905799
0.64097045267588	1.0561956452528	2.2520993266675
0.64301828159817	1.0579359282007	2.2576720945611
0.64506611052046	1.0597145309671	2.2631851548880
0.64711393944275	1.0614743316749	2.2686272684208
0.64916176836503	1.0631696219900	2.2740342195337
0.65120959728732	1.0647976053538	2.2794638233984
0.65325742620961	1.0664000675803	2.2849558780460
0.65530525513189	1.0680342533079	2.2905048076431
0.65735308405418	1.0697332499513	2.2960638068870
0.65940091297647	1.0714832988408	2.3015774285855
0.66144874189876	1.0732335948844	2.3070199362289
0.66349657082104	1.0749316068672	2.3124129033847
0.66554439974333	1.0765593718637	2.3178100355252
0.66759222866562	1.0781456959042	2.3232598967998
0.66964005758790	1.0797459838768	2.3287724153501
0.67168788651019	1.0814038247228	2.3343122731703
0.67373571543248	1.0831209700490	2.3398235811561
0.67578354435477	1.0848563862741	2.3452686099602
0.67783137327705	1.0865548587099	2.3506537458065
0.67987920219934	1.0881852162759	2.3560248243823
0.68192703112163	1.0897617222218	2.3614352494224
0.68397486004391	1.0913339600322	2.3669090757699
0.68602268896620	1.0929523875945	2.3724245811171
0.68807051788849	1.0946334925583	2.3779295493279
0.69011834681078	1.0963486146637	2.3833775222083
0.69216617573306	1.0980440139496	2.3887598600036
0.69421400465535	1.0996781408980	2.3941114943240
0.69626183357764	1.1012502679488	2.3994865556049
0.69830966249993	1.1028007597861	2.4049208843192
0.70035749142221	1.1043829620077	2.4104073934798
0.70240532034450	1.1060262886255	2.4159012227146
0.70445314926679	1.1077160528412	2.4213509506925
0.70650097818907	1.1094038735606	2.4267341578134
0.70854880711136	1.1110412932462	2.4320727525754
0.71059663603365	1.1126132546357	2.4374175932557
0.71264446495594	1.1141483160039	2.4428132030018
0.71469229387822	1.1156986832028	2.4482670628756
0.71674012280051	1.1173040227293	2.4537446652031
0.71878795172280	1.1189641421404	2.4591935967097
0.72083578064508	1.1206393567130	2.4645798521961
0.72288360956737	1.1222781319749	2.4699112275929
0.72493143848966	1.1238527549996	2.4752317078216
0.72697926741195	1.1253783506730	2.4805908894107
0.72902709633423	1.1269022017593	2.4860096985138
0.73107492525652	1.1284709161144	2.4914661043642
0.73312275417881	1.1300982433427	2.4969105844549
0.73517058310109	1.1317557672983	2.5023004932887
0.73721841202338	1.1333927762557	2.5076294898531
0.73926624094567	1.1349714237993	2.5129317244418
0.74131406986796	1.1364928085813	2.5182580323693
0.74336189879024	1.1379960083544	2.5236407332185
0.74540972771253	1.1395308842618	2.5290714135187
0.74745755663482	1.1411235850635	2.5345069685913
0.74950538555710	1.1427586198745	2.5398995754930
0.75155321447939	1.1443897927697	2.5452297619546
0.75360104340168	1.1459722888550	2.5505197110683
0.75564887232397	1.1474936324265	2.5558177182226
0.75769670124625	1.1489821376381	2.5611646933708
0.75974453016854	1.1504871353745	2.5665659456860
0.76179235909083	1.1520447875183	2.5719877134915
0.76384018801311	1.1536531817915	2.5773807039066
0.76588801693540	1.1552738624350	2.5827142361797
0.76793584585769	1.1568585983253	2.5879973451951
0.76998367477998	1.1583827621837	2.5932723356172
0.77203150370226	1.1598622263964	2.5985853857593
0.77407933262455	1.1613421903568	2.6039546304652
0.77612716154684	1.1628658058958	2.6093577859586
0.77817499046912	1.1644443820468	2.6147477631802
