#Parameters = {C_1=23.329215416694; C_2=87.065817235819; Conductivity_MoGr=1000000; Ip=90.137166712181; Pipe_lenght=40; Pipe_r=30; beta=1; cells_wave=20; d=-337.06581723582; half_gap_x=6.6707845833065; half_gap_y=30; half_gap_z=125; offset=2.6683138333226; offset_x=1; offset_y=5; sigma_z=5; teta=15; thcoll=23.329215416694; translate_z=-212.06581723582; wakelength=20000}
#"Frequency / GHz"	"Z [Re / Ohm]"	"Z [Im / Ohm]"
#-----------------------------------------------
0.0000000000000	0.040759652785976	-8.1034619938062e-14
0.0020478289222872	0.033752519658245	0.0027195333058035
0.0040956578445743	0.015814643977447	0.013993025555746
0.0061434867668615	-0.0053633231437438	0.038344175771835
0.0081913156891487	-0.021306864569324	0.074362092044660
0.010239144611436	-0.026768676173133	0.11585314762932
0.012286973533723	-0.021820581644506	0.15528826768584
0.014334802456010	-0.011065483105890	0.18757736232620
0.016382631378297	-0.00063690854937835	0.21215158185029
0.018430460300585	0.0051881163490077	0.23241656414854
0.020478289222872	0.0058869440506848	0.25317368246260
0.022526118145159	0.0042403447234914	0.27768048334975
0.024573947067446	0.0040921482279530	0.30604723550169
0.026621775989733	0.0078425195694336	0.33571018249871
0.028669604912020	0.015177690912973	0.36342699702582
0.030717433834308	0.023632492324100	0.38740340584281
0.032765262756595	0.030411528276710	0.40824165890587
0.034813091678882	0.034192265683616	0.42826812491228
0.036860920601169	0.035784704173950	0.44984734277498
0.038908749523456	0.037356083530921	0.47385897820252
0.040956578445743	0.040864535414327	0.49929163533559
0.043004407368031	0.046786426786535	0.52410335761788
0.045052236290318	0.053932342924823	0.54667217624302
0.047100065212605	0.060372586104146	0.56683982613591
0.049147894134892	0.064770922175041	0.58590167759870
0.051195723057179	0.067216882475144	0.60563703384411
0.053243551979466	0.069047893288854	0.62709547575927
0.055291380901754	0.071856205761743	0.64996077612622
0.057339209824041	0.076399692007376	0.67287194531369
0.059387038746328	0.082148262591716	0.69441977458469
0.061434867668615	0.087725109151354	0.71410754686569
0.063482696590902	0.091888474950839	0.73263546869434
0.065530525513189	0.094361125328656	0.75136110909497
0.067578354435477	0.095959436462038	0.77134905417067
0.069626183357764	0.097976756002793	0.79267399102115
0.071674012280051	0.10127972597598	0.81443264713002
0.073721841202338	0.10574391948553	0.83541703887212
0.075769670124625	0.11039220530405	0.85495788231326
0.077817499046912	0.11410525467646	0.87335790666686
0.079865327969200	0.11639310943681	0.89164200039368
0.081913156891487	0.11770073846785	0.91082761294201
0.083960985813774	0.11906212639675	0.93123451545387
0.086008814736061	0.12136867003747	0.95230193529204
0.088056643658348	0.12476781522246	0.97301469470356
0.090104472580635	0.12859630073560	0.99262090162761
0.092152301502923	0.13187061773237	1.0111388015858
0.094200130425210	0.13397630970994	1.0293153506336
0.096247959347497	0.13507671267208	1.0480871772465
0.098295788269784	0.13597258179659	1.0679325295810
0.10034361719207	0.13752995811005	1.0885621833569
0.10239144611436	0.14008458042567	1.1091483239588
0.10443927503665	0.14323205333054	1.1289146852264
0.10648710395893	0.14613386197320	1.1476701178400
0.10853493288122	0.14811107590298	1.1659213214784
0.11058276180351	0.14910811936971	1.1845017416327
0.11263059072579	0.14971226256982	1.2039878446002
0.11467841964808	0.15072995785253	1.2243110532472
0.11672624857037	0.15262559500004	1.2448260275512
0.11877407749266	0.15521319500278	1.2647740550116
0.12082190641494	0.15780556801643	1.2838104687469
0.12286973533723	0.15970453678381	1.3022309388239
0.12491756425952	0.16068449112917	1.3207495320421
0.12696539318180	0.16113617032532	1.3399943435536
0.12901322210409	0.16178104799122	1.3600763799114
0.13106105102638	0.16316509070489	1.3805270527950
0.13310887994867	0.16528710428822	1.4006375257071
0.13515670887095	0.16761464429194	1.4199551465363
0.13720453779324	0.16946653407351	1.4385901933077
0.13925236671553	0.17048858606451	1.4571258831851
0.14130019563781	0.17089160714647	1.4762036126208
0.14334802456010	0.17129299282424	1.4960778765863
0.14539585348239	0.17228079837404	1.5164491987567
0.14744368240468	0.17400810168014	1.5366841019210
0.14949151132696	0.17609744808250	1.5562611912655
0.15153934024925	0.17791452693241	1.5751297790665
0.15358716917154	0.17901366014487	1.5937348930223
0.15563499809382	0.17944317340290	1.6126985519309
0.15768282701611	0.17970228658799	1.6323851414379
0.15973065593840	0.18038659117414	1.6526541259109
0.16177848486069	0.18177388789484	1.6729674801728
0.16382631378297	0.18363835056332	1.6927703682647
0.16587414270526	0.18541723892283	1.7118760781124
0.16792197162755	0.18660790243010	1.7305885047721
0.16996980054984	0.18711569568563	1.7494822892187
0.17201762947212	0.18731265714325	1.7689992974345
0.17406545839441	0.18777155618125	1.7891444120024
0.17611328731670	0.18886543631573	1.8094896967795
0.17816111623898	0.19051259562343	1.8294786329609
0.18020894516127	0.19224128611223	1.8488143418024
0.18225677408356	0.19352385636558	1.8676612069471
0.18430460300585	0.19414415483490	1.8865231984664
0.18635243192813	0.19434286190557	1.9058885701022
0.18840026085042	0.19464352604534	1.9258911112998
0.19044808977271	0.19548501815816	1.9462226604072
0.19249591869499	0.19691838020871	1.9663536675809
0.19454374761728	0.19857740518318	1.9859040852068
0.19659157653957	0.19993925633434	2.0049049924614
0.19863940546186	0.20069000651302	2.0237710230837
0.20068723438414	0.20093990820477	2.0430069211625
0.20273506330643	0.20114113514076	2.0628556672211
0.20478289222872	0.20176925666509	2.0831332168378
0.20683072115100	0.20299279374112	2.1033619912874
0.20887855007329	0.20456040016630	2.1231064076645
0.21092637899558	0.20598108780832	2.1422748276605
0.21297420791787	0.20686853099302	2.1611787371622
0.21502203684015	0.20720828424578	2.1803112018327
0.21706986576244	0.20736335370511	2.2000019901972
0.21911769468473	0.20781752374095	2.2201903804492
0.22116552360701	0.20883790288712	2.2404719708564
0.22321335252930	0.21029201464802	2.2603836700615
0.22526118145159	0.21174462301561	2.2797261063314
0.22730901037388	0.21276376688810	2.2986990932749
0.22935683929616	0.21322102991497	2.3177582168802
0.23140466821845	0.21337754346383	2.3372953220419
0.23345249714074	0.21369837395649	2.3573668084589
0.23550032606302	0.21452721586621	2.3776579529481
0.23754815498531	0.21584888712958	2.3977054916499
0.23959598390760	0.21730369003903	2.4172210839137
0.24164381282989	0.21844102269582	2.4362898799545
0.24369164175217	0.21903357614103	2.4553075245039
0.24573947067446	0.21923320603807	2.4747020208994
0.24778729959675	0.21946176403218	2.4946358541037
0.24983512851903	0.22011535147295	2.5148955351306
0.25188295744132	0.22128929899432	2.5350434955860
0.25393078636361	0.22271477042031	2.5547242809285
0.25597861528590	0.22394904931443	2.5739108270971
0.25802644420818	0.22468492823755	2.5929202441534
0.26007427313047	0.22496311904929	2.6121902459795
0.26212210205276	0.22514095156454	2.6319737427707
0.26416993097504	0.22564127473748	2.6521645575182
0.26621775989733	0.22665797945056	2.6723742367172
0.26826558881962	0.22802316338630	2.6922044136353
0.27031341774191	0.22932688185258	2.7115237831501
0.27236124666419	0.23020414942613	2.7305571599796
0.27440907558648	0.23058835360694	2.7497262747173
0.27645690450877	0.23075523291074	2.7693549687676
0.27850473343106	0.23112853033141	2.7894447628497
0.28055256235334	0.23198427386564	2.8096762261464
0.28260039127563	0.23326000163065	2.8296334400621
0.28464822019792	0.23460072069258	2.8490938408872
0.28669604912020	0.23560786995200	2.8681814993976
0.28874387804249	0.23611673929499	2.8872783196868
0.29079170696478	0.23630932010144	2.9067566537452
0.29283953588707	0.23658534244796	2.9267204676268
0.29488736480935	0.23728285937089	2.9469348992537
0.29693519373164	0.23844364442920	2.9669918433082
0.29898302265393	0.23978615305792	2.9865948357748
0.30103085157621	0.24090342186658	3.0057644113642
0.30307868049850	0.24154683766822	3.0248217343241
0.30512650942079	0.24179796863671	3.0441633541466
0.30717433834308	0.24200975810729	3.0639850142053
0.30922216726536	0.24255944616028	3.0841468130267
0.31126999618765	0.24358615468481	3.1042725382844
0.31331782510994	0.24489562748666	3.1240126572762
0.31536565403222	0.24609730019814	3.1432871534711
0.31741348295451	0.24687700609955	3.1623395456075
0.31946131187680	0.24721495136577	3.1815656823031
0.32150914079909	0.24739777911828	3.2012376516718
0.32355696972137	0.24781754632402	3.2213153220168
0.32560479864366	0.24869857147740	3.2414759969464
0.32765262756595	0.24994242286588	3.2613403267085
0.32970045648823	0.25119812442500	3.2807363480287
0.33174828541052	0.25210753082614	3.2998179174713
0.33379611433281	0.25255436281846	3.3189560183081
0.33584394325510	0.25274379078155	3.3384797155435
0.33789177217738	0.25305815561059	3.3584476087771
0.33993960109967	0.25379028430530	3.3786084719723
0.34198743002196	0.25494039053535	3.3985774548023
0.34403525894424	0.25621739434923	3.4181042762626
0.34608308786653	0.25724271017207	3.4372465448342
0.34813091678882	0.25781385663586	3.4563282184705
0.35017874571111	0.25804438229895	3.4757131338153
0.35222657463339	0.25828346043941	3.4955519020225
0.35427440355568	0.25887209283630	3.5156782051558
0.35632223247797	0.25990613339959	3.5357258568073
0.35837006140025	0.26117079385655	3.5553842370060
0.36041789032254	0.26229135442865	3.5746139396037
0.36246571924483	0.26299435137590	3.5936729454831
0.36451354816712	0.26329722627385	3.6129359876496
0.36656137708940	0.26349495739256	3.6326335642007
0.36860920601169	0.26395385754022	3.6526923267235
0.37065703493398	0.26485667628016	3.6727873248408
0.37270486385627	0.26607635422567	3.6925688901673
0.37475269277855	0.26726561578965	3.7119057495010
0.37680052170084	0.26809923517924	3.7309753533203
0.37884835062313	0.26849998757835	3.7501392810157
0.38089617954541	0.26869133502703	3.7696911847130
0.38294400846770	0.26904093458573	3.7896529430020
0.38499183738999	0.26980454965932	3.8097604862212
0.38703966631228	0.27094871210810	3.8296483966715
0.38908749523456	0.27217505939100	3.8491042340333
0.39113532415685	0.27312866068798	3.8682155919315
0.39318315307914	0.27364487320646	3.8873081069085
0.39523098200142	0.27386305183112	3.9067182793667
0.39727881092371	0.27412859322848	3.9265595763848
0.39932663984600	0.27475215443161	3.9466443653806
0.40137446876829	0.27579386884592	3.9666153591986
0.40342229769057	0.27702240584391	3.9861944906736
0.40547012661286	0.27807670356151	4.0053758758359
0.40751795553515	0.27871729192220	4.0244289849015
0.40956578445743	0.27899227318125	4.0437104718345
0.41161361337972	0.27920292530526	4.0634160571155
0.41366144230201	0.27969350119443	4.0834450586642
0.41570927122430	0.28061185524561	4.1034713205330
0.41775710014658	0.28180730795221	4.1231705815033
0.41980492906887	0.28293626614658	4.1424458044200
0.42185275799116	0.28370155171878	4.1614939191955
0.42390058691344	0.28405873836974	4.1806681098939
0.42594841583573	0.28424624543148	4.2002319617674
0.42799624475802	0.28461882550749	4.2201766081402
0.43004407368031	0.28540072903062	4.2402277199871
0.43209190260259	0.28653027248856	4.2600369091007
0.43413973152488	0.28770351952072	4.2794240222337
0.43618756044717	0.28858614153091	4.2985018506893
0.43823538936945	0.28904578637742	4.3175969616473
0.44028321829174	0.28924346985663	4.3370222372775
0.44233104721403	0.28952090300642	4.3568595590452
0.44437887613632	0.29016260186297	4.3769035738656
0.44642670505860	0.29119838459504	4.3968051575761
0.44847453398089	0.29238334334735	4.4163143666634
0.45052236290318	0.29336872053526	4.4354538390950
0.45257019182546	0.29394447695309	4.4545023784783
0.45461802074775	0.29418486339192	4.4738006293274
0.45666584967004	0.29439613217021	4.4935142952100
0.45871367859233	0.29490322384797	4.5135194840301
0.46076150751461	0.29582401356965	4.5334895068650
0.46280933643690	0.29698795825128	4.5531223267038
0.46485716535919	0.29805528854048	4.5723503177739
0.46690499428147	0.29875345693149	4.5913866827581
0.46895282320376	0.29906632096885	4.6105766890952
0.47100065212605	0.29924477482280	4.6301575261959
0.47304848104834	0.29963187414480	4.6500937976771
0.47509630997062	0.30042435552328	4.6701027280923
0.47714413889291	0.30153633522572	4.6898511302106
0.47919196781520	0.30265961458969	4.7091869318942
0.48123979673749	0.30347825417855	4.7282443815619
0.48328762565977	0.30388803815645	4.7473501541314
0.48533545458206	0.30406839710179	4.7667960186736
0.48738328350435	0.30435716856867	4.7866362502657
0.48943111242663	0.30501561036295	4.8066504289407
0.49147894134892	0.30604710324988	4.8264971001461
0.49352677027121	0.30719533554811	4.8459511693286
0.49557459919350	0.30812284697533	4.8650599865409
0.49762242811578	0.30864555752640	4.8841098969351
0.49967025703807	0.30886029336044	4.9034268826217
0.50171808596036	0.30907697036169	4.9231500835460
0.50376591488264	0.30960292965727	4.9431355297144
0.50581374380493	0.31052948916138	4.9630566727411
0.50786157272722	0.31166893058900	4.9826315106571
0.50990940164951	0.31268538048741	5.0018183356268
0.51195723057179	0.31332831916598	5.0208442376287
0.51400505949408	0.31360636894772	5.0400468970092
0.51605288841637	0.31378079941523	5.0596398844072
0.51810071733865	0.31418360361923	5.0795645871543
0.52014854626094	0.31498680114049	5.0995314186061
0.52219637518323	0.31608324975484	5.1192213427247
0.52424420410552	0.31716152121764	5.1385074858959
0.52629203302780	0.31792249694796	5.1575429205575
0.52833986195009	0.31828703456284	5.1766539088862
0.53038769087238	0.31845052936693	5.1961130789862
0.53243551979466	0.31874675743087	5.2159502371849
0.53448334871695	0.31941587136640	5.2359321083960
0.53653117763924	0.32043779976901	5.2557247782456
0.53857900656153	0.32154661067864	5.2751257378156
0.54062683548381	0.32241555884903	5.2942043029359
0.54267466440610	0.32288405174395	5.3132530693427
0.54472249332839	0.32306888398297	5.3325844225841
0.54677032225067	0.32328270261932	5.3523136380331
0.54881815117296	0.32381662540409	5.3722791817887
0.55086598009525	0.32473815326971	5.3921553239779
0.55291380901754	0.32584465516344	5.4116785741121
0.55496163793982	0.32680447358681	5.4308305541346
0.55700946686211	0.32738739572100	5.4498504170129
0.55905729578440	0.32762434942100	5.4690684519218
0.56110512470668	0.32778556563447	5.4886766655168
0.56315295362897	0.32819264165203	5.5085957023713
0.56520078255126	0.32899522229233	5.5285303458878
0.56724861147355	0.33006738059810	5.5481747903526
0.56929644039583	0.33109545375783	5.5674249640210
0.57134426931812	0.33179607947182	5.5864505002656
0.57339209824041	0.33211288677112	5.6055765988749
0.57543992716269	0.33225533349149	5.6250580595262
0.57748775608498	0.33255295486281	5.6449025000921
0.57953558500727	0.33322645847412	5.6648654060417
0.58158341392956	0.33423467768744	5.6846202076598
0.58363124285184	0.33530351594026	5.7039850837845
0.58567907177413	0.33611654086932	5.7230489796764
0.58772690069642	0.33653470978105	5.7421095019358
0.58977472961871	0.33669266822722	5.7614660527460
0.59182255854099	0.33690494223756	5.7812119877536
0.59387038746328	0.33744738878010	5.8011700671672
0.59591821638557	0.33836576632590	5.8210158179696
0.59796604530785	0.33944426420601	5.8405029375965
0.60001387423014	0.34035563060414	5.8596341544218
0.60206170315243	0.34088846560838	5.8786590192269
0.60410953207472	0.34109381933791	5.8979003766891
0.60615736099700	0.34124944194535	5.9175301731578
0.60820518991929	0.34166672123544	5.9374502714227
0.61025301884158	0.34247449797918	5.9573608702855
0.61230084776386	0.34352983417377	5.9769688176818
0.61434867668615	0.34451751718104	5.9961910702702
0.61639650560844	0.34516901821887	6.0152120934072
0.61844433453073	0.34544879994301	6.0343555327237
0.62049216345301	0.34557870658576	6.0538594356568
0.62253999237530	0.34588369428785	6.0737111359728
0.62458782129759	0.34656617101917	6.0936563275935
0.62663565021987	0.34756563853921	6.1133758344752
0.62868347914216	0.34860095171880	6.1327072091608
0.63073130806445	0.34936566553827	6.1517573194144
0.63277913698674	0.34974073131542	6.1708279065492
0.63482696590902	0.34987691288218	6.1902059799067
0.63687479483131	0.35008986600387	6.2099646565290
0.63892262375360	0.35064089283372	6.2299126493701
0.64097045267588	0.35155564317803	6.2497273023918
0.64301828159817	0.35260653966250	6.2691786593529
0.64506611052046	0.35347095496277	6.2882889766507
0.64711393944275	0.35395519373597	6.3073170506720
0.64916176836503	0.35412878041477	6.3265784126871
0.65120959728732	0.35427595480289	6.3462263304531
0.65325742620961	0.35469821667374	6.3661456265113
0.65530525513189	0.35550508721864	6.3860328841435
0.65735308405418	0.35653829492178	6.4056072007692
0.65940091297647	0.35748186482730	6.4248051151795
0.66144874189876	0.35808153872917	6.4438244604667
0.66349657082104	0.35832116307931	6.4629868570393
0.66554439974333	0.35843368818662	6.4825144348298
0.66759222866562	0.35873930140571	6.5023757986139
0.66964005758790	0.35942317416684	6.5223080568297
0.67168788651019	0.36040709869276	6.5419994664331
0.67373571543248	0.36140399919769	6.5613058121633
0.67578354435477	0.36211732861887	6.5803503472752
0.67783137327705	0.36244686450540	6.5994380522688
0.67987920219934	0.36255810184743	6.6188438686139
0.68192703112163	0.36276721220689	6.6386219550788
0.68397486004391	0.36332155081790	6.6585682980624
0.68602268896620	0.36422809724824	6.6783624873556
0.68807051788849	0.36524882480472	6.6977901339006
0.69011834681078	0.36606607031175	6.7168915384558
0.69216617573306	0.36650302165725	6.7359335211935
0.69421400465535	0.36664629552123	6.7552241050748
0.69626183357764	0.36678563796982	6.7748987608441
0.69830966249993	0.36721273456229	6.7948265455550
0.70035749142221	0.36801883368905	6.8147011607395
0.70240532034450	0.36903159627305	6.8342536044511
0.70445314926679	0.36993487571173	6.8534387803245
0.70650097818907	0.37048818007590	6.8724666135919
0.70854880711136	0.37069347562758	6.8916562069228
0.71059663603365	0.37079364452153	6.9112143590122
0.71264446495594	0.37110379549826	6.9310921659283
0.71469229387822	0.37179258881269	6.9510191343048
0.71674012280051	0.37276532596966	6.9706910059538
0.71878795172280	0.37372983834309	6.9899808709024
0.72083578064508	0.37439932804011	7.0090270870122
0.72288360956737	0.37469133609981	7.0281371002940
0.72493143848966	0.37478480351226	7.0475740253659
0.72697926741195	0.37499573992314	7.0673741324224
0.72902709633423	0.37555788434204	7.0873218387704
0.73107492525652	0.37646059183167	7.1070994444270
0.73312275417881	0.37745637251573	7.1265076120061
0.73517058310109	0.37823273662683	7.1456035860693
0.73721841202338	0.37862901889604	7.1646613198944
0.73926624094567	0.37874773431076	7.1839812908086
0.74131406986796	0.37888328550636	7.2036820403221
0.74336189879024	0.37931760008593	7.2236180637714
0.74540972771253	0.38012455486079	7.2434809272858
0.74745755663482	0.38111885400088	7.2630133463587
0.74950538555710	0.38198473075973	7.2821876452866
0.75155321447939	0.38249507641017	7.3012248229824
0.75360104340168	0.38266892957580	7.3204411011628
0.75564887232397	0.38275811583158	7.3400285126965
0.75769670124625	0.38307241288283	7.3599217750553
0.75974453016854	0.38376462227119	7.3798437431753
0.76179235909083	0.38472466429343	7.3994978018986
0.76384018801311	0.38565609386399	7.4187736499454
0.76588801693540	0.38628185039832	7.4378237202030
0.76793584585769	0.38653644224593	7.4569573029014
0.76998367477998	0.38661126216301	7.4764259221445
0.77203150370226	0.38682168622718	7.4962489048181
0.77407933262455	0.38738824689887	7.5162001131405
