#Parameters = {Conductivity_W=18000000; C_1=13; C_2=48.516660498396; Ip=50.228142967032; Pipe_lenght=40; Pipe_r=30; beta=1; cells_wave=20; conductivity_copper=59500000; d=-148.51666049839; half_gap_x=17; half_gap_y=30; half_gap_z=50; mu_copper=0.999994; offset=6.8; offset_x=1; offset_y=5; sigma_z=5; teta=15; thcoll=13; translate_z=-98.516660498395; wakelength=20000}
#"Frequency / GHz"	"X [Re / Ohm]"	"X [Im / Ohm]"
#-----------------------------------------------
0.0000000000000	-9.2837441240266e-12	-305.05352151704
0.0020478289222872	-161.45506457257	-251.32428237055
0.0040956578445743	-255.58869464403	-115.20700085091
0.0061434867668615	-248.45125100639	41.193980068387
0.0081913156891487	-154.83560446252	150.76716593027
0.010239144611436	-27.856290679118	174.68137951028
0.012286973533723	70.620502523811	119.06663845502
0.014334802456010	101.77858550294	27.089136322367
0.016382631378297	66.627550776227	-47.592479244640
0.018430460300585	-0.091796235790055	-70.082981873760
0.020478289222872	-53.413892085962	-39.974385052060
0.022526118145159	-64.294707931244	13.784104756155
0.024573947067446	-33.451076005641	53.736634303491
0.026621775989733	13.597231283232	56.853854358975
0.028669604912020	45.255604046057	26.053146213964
0.030717433834308	43.770383861668	-15.139939719111
0.032765262756595	14.331717552078	-39.684524034307
0.034813091678882	-20.927519193519	-34.236326862549
0.036860920601169	-38.733056931530	-5.9423191319089
0.038908749523456	-29.482622451466	24.293804205824
0.040956578445743	-1.9303550403575	36.516704845210
0.043004407368031	24.226641343061	24.380320541553
0.045052236290318	32.045050185084	-2.0621969133932
0.047100065212605	18.030949922079	-24.337288517939
0.049147894134892	-6.7579429649858	-28.265407044548
0.051195723057179	-25.120180006636	-12.838368899715
0.053243551979466	-25.437617596104	10.171768452482
0.055291380901754	-8.8585581855867	24.906373374392
0.057339209824041	12.402259475165	22.140637865362
0.059387038746328	23.899568274920	4.8840656554333
0.061434867668615	18.647219865389	-14.451857174671
0.063482696590902	1.2413099747697	-22.892461902069
0.065530525513189	-15.934882639610	-15.536040513121
0.067578354435477	-21.420567617380	1.6971425974437
0.069626183357764	-12.243010840772	16.659359236131
0.071674012280051	4.6034919406466	19.433312983036
0.073721841202338	17.394170991786	8.8184409910852
0.075769670124625	17.767939556357	-7.3536652367837
0.077817499046912	6.1356554495855	-17.946408045808
0.079865327969200	-9.0585098696288	-16.148344048287
0.081913156891487	-17.409773400517	-3.8154040275167
0.083960985813774	-13.631203517414	10.209256342484
0.086008814736061	-0.85306247192465	16.375555201868
0.088056643658348	11.883671962617	10.878736060654
0.090104472580635	15.985074378840	-2.0498633432623
0.092152301502923	9.0693859265166	-13.358480529166
0.094200130425210	-3.7057318923571	-15.488682280139
0.096247959347497	-13.449935393448	-7.4062210182525
0.098295788269784	-13.697941467236	4.9800626198419
0.10034361719207	-4.6728627466187	13.098060622930
0.10239144611436	7.1388258458273	11.612418028027
0.10443927503665	13.623547826521	1.9008090702227
0.10648710395893	10.592211438110	-9.1423995319597
0.10853493288122	0.46329421648485	-13.984805467926
0.11058276180351	-9.6251328893762	-9.5800171002497
0.11263059072579	-12.826283327293	0.73567586001805
0.11467841964808	-7.2141444013773	9.7375207978610
0.11672624857037	3.0872344526590	11.350334371684
0.11877407749266	10.914449793172	4.7288443888904
0.12082190641494	11.031148201876	-5.3499309382048
0.12286973533723	3.6172305245650	-11.921200001567
0.12491756425952	-6.0347199133693	-10.635761854612
0.12696539318180	-11.283609753664	-2.6286914451787
0.12901322210409	-8.6970958479794	6.4298250158167
0.13106105102638	-0.28281911241203	10.334144814521
0.13310887994867	8.0477860539648	6.5804559046182
0.13515670887095	10.621859105578	-2.0442519938248
0.13720453779324	5.8584513148650	-9.5199086182574
0.13925236671553	-2.7779493958753	-10.788446742445
0.14130019563781	-9.2855957691988	-5.1696473387079
0.14334802456010	-9.2873535197448	3.3029867371059
0.14539585348239	-2.9663153889694	8.7656053480158
0.14744368240468	5.1879958199966	7.5720127343885
0.14949151132696	9.5601732303372	0.71731785094978
0.15153934024925	7.2687495314765	-6.9682913158579
0.15358716917154	0.057182447482470	-10.217888913664
0.15563499809382	-7.0193352531497	-6.9324541603918
0.15768282701611	-9.1306797781104	0.47062453060295
0.15973065593840	-4.9623689272166	6.8251523343996
0.16177848486069	2.4776609645673	7.8134555892005
0.16382631378297	8.0226435757771	2.8927605379709
0.16587414270526	7.9295701185555	-4.4289058497235
0.16792197162755	2.4005061241158	-9.0892547519442
0.16996980054984	-4.6520590121477	-7.9681918652625
0.17201762947212	-8.3683585790118	-1.9727808225429
0.17406545839441	-6.2852485724961	4.6789190498895
0.17611328731670	0.036745564414120	7.4192701462567
0.17816111623898	6.1742283694444	4.4619149120960
0.18020894516127	7.9315943787908	-2.0409465951512
0.18225677408356	4.2051400721492	-7.5602663568469
0.18430460300585	-2.3317515353447	-8.3416022630639
0.18635243192813	-7.1417187702379	-3.9562563487333
0.18840026085042	-6.9690185481055	2.4787685616629
0.19044808977271	-2.0394854073513	6.5111097246099
0.19249591869499	4.1691739668306	5.4290800189619
0.19454374761728	7.3773114608313	0.080650705438730
0.19659157653957	5.4501091966961	-5.7822737226214
0.19863940546186	-0.18557672558673	-8.1334527163095
0.20068723438414	-5.5919883020483	-5.4350702128182
0.20273506330643	-7.0687244954785	0.36002365039365
0.20478289222872	-3.6825311103873	5.2166808879498
0.20683072115100	2.1489148695095	5.8234692619202
0.20887855007329	6.3799821971645	1.8470216901070
0.21092637899558	6.1411837907461	-3.8981283735878
0.21297420791787	1.6826679271953	-7.4396180987162
0.21502203684015	-3.8574106800745	-6.3920860940145
0.21706986576244	-6.6590758282083	-1.5618559709579
0.21911769468473	-4.8520618971490	3.6662165319867
0.22116552360701	0.23852460196304	5.6976859773705
0.22321335252930	5.0601265593844	3.1969521823160
0.22526118145159	6.3098037945907	-2.0384633685532
0.22730901037388	3.1948103047474	-6.3677837937634
0.22935683929616	-2.0690587326902	-6.8373502201674
0.23140466821845	-5.8312211318779	-3.1943054149310
0.23345249714074	-5.5360401993967	1.9878906496646
0.23550032606302	-1.4568628961198	5.1247206978340
0.23754815498531	3.5408696024432	4.0976382450480
0.23959598390760	6.0106410567073	-0.31758251150720
0.24164381282989	4.2999487965087	-5.0328279204767
0.24369164175217	-0.34608211027983	-6.8063079646909
0.24573947067446	-4.6881300239254	-4.4701626712785
0.24778729959675	-5.7495103418669	0.30256560921151
0.24983512851903	-2.8552179143961	4.1935041318244
0.25188295744132	1.9425009573036	4.5441292400724
0.25393078636361	5.3176342565092	1.1702857462310
0.25597861528590	4.9747381504064	-3.5513814686956
0.25802644420818	1.2086422164675	-6.3565038502366
0.26007427313047	-3.3392408188424	-5.3488634068996
0.26212210205276	-5.5320392575950	-1.2810820183681
0.26416993097504	-3.8996876059454	3.0037950678901
0.26621775989733	0.37721955140999	4.5576220760178
0.26826558881962	4.3192908767313	2.3539392617868
0.27031341774191	5.2226368086204	-2.0362838674998
0.27236124666419	2.5123172397752	-5.5633884030584
0.27440907558648	-1.8947254603223	-5.8166366700194
0.27645690450877	-4.9441005382462	-2.6711021250711
0.27850473343106	-4.5597038085285	1.6604283018015
0.28055256235334	-1.0559973914259	4.1825381181450
0.28260039127563	3.1130796611490	3.1872110968175
0.28464822019792	5.0717432709069	-0.59097417828871
0.28669604912020	3.5050506123142	-4.5149624031598
0.28874387804249	-0.45959680688787	-5.8850851718668
0.29079170696478	-4.0621549503660	-3.7957243513123
0.29283953588707	-4.8303659393165	0.26744454079795
0.29488736480935	-2.2753685117121	3.4823484698483
0.29693519373164	1.7998016798073	3.6493617924266
0.29898302265393	4.5715893556272	0.69508422427537
0.30103085157621	4.1514051013255	-3.3063740726179
0.30307868049850	0.87154411950577	-5.5889035853370
0.30512650942079	-2.9733945789992	-4.6059455232695
0.30717433834308	-4.7309152664679	-1.0776738054671
0.30922216726536	-3.2196459111378	2.5345805047604
0.31126999618765	0.47765995587178	3.7442861484858
0.31331782510994	3.7887016951708	1.7503136337026
0.31536565403222	4.4404884040954	-2.0340814389158
0.31741348295451	2.0189916221056	-4.9822195647694
0.31946131187680	-1.7700676066293	-5.0766109918349
0.32150914079909	-4.3018863189788	-2.2890566189171
0.32355696972137	-3.8501148235643	1.4253359311910
0.32560479864366	-0.76321022642380	3.4984325811028
0.32765262756595	2.8014577180637	2.5237777838251
0.32970045648823	4.3846799949906	-0.79020804398030
0.33174828541052	2.9213508087712	-4.1340082111637
0.33379611433281	-0.54383720581409	-5.2060603595447
0.33584394325510	-3.6012376385416	-3.2965060935263
0.33789177217738	-4.1512182388077	0.24373107401577
0.33993960109967	-1.8454061660167	2.9576939999532
0.34198743002196	1.6946750329805	2.9867331479488
0.34403525894424	4.0172866070125	0.34259522382164
0.34608308786653	3.5379132371183	-3.1229600354673
0.34813091678882	0.61965719996361	-5.0145894127914
0.35017874571111	-2.6996505075890	-4.0486244538696
0.35222657463339	-4.1298763143973	-0.92371022556436
0.35427440355568	-2.7080759933554	2.1832303691443
0.35632223247797	0.55394120732887	3.1327840326581
0.35837006140025	3.3889329365553	1.2955231121420
0.36041789032254	3.8495601438596	-2.0319186012634
0.36246571924483	1.6455175626925	-4.5415095993732
0.36451354816712	-1.6753253654740	-4.5144314462211
0.36656137708940	-3.8134079637585	-1.9979660674225
0.36860920601169	-3.3093354086202	1.2468172183420
0.37065703493398	-0.53948934416577	2.9768174682274
0.37270486385627	2.5634685166010	2.0169125994346
0.37475269277855	3.8586607138896	-0.94253090183639
0.37680052170084	2.4736555127299	-3.8415095749858
0.37884835062313	-0.60848634722572	-4.6840193681173
0.38089617954541	-3.2463513162454	-2.9120657017872
0.38294400846770	-3.6275382189946	0.22549508092984
0.38499183738999	-1.5134669868569	2.5524753881390
0.38703966631228	1.6130469247997	2.4741750040534
0.38908749523456	3.5874107264208	0.069676518244571
0.39113532415685	3.0614885604464	-2.9802634757720
0.39318315307914	0.42371968342350	-4.5678024724369
0.39523098200142	-2.4865726454555	-3.6145130425926
0.39727881092371	-3.6613368526439	-0.80363574154692
0.39932663984600	-2.3089209801401	1.9087937935522
0.40137446876829	0.61301109484899	2.6546002773423
0.40342229769057	3.0751346744517	0.93967035234193
0.40547012661286	3.3855160093355	-2.0295723428646
0.40751795553515	1.3519443608463	-4.1945812469985
0.40956578445743	-1.6007129191505	-4.0716347390201
0.41161361337972	-3.4284792216380	-1.7684260711253
0.41366144230201	-2.8828499868074	1.1059872119548
0.41570927122430	-0.36322749457339	2.5648196496908
0.41775710014658	2.3745491495294	1.6163649694464
0.41980492906887	3.4414812502472	-1.0623664994645
0.42185275799116	2.1184790503749	-3.6084851319086
0.42390058691344	-0.65944122815232	-4.2685507219177
0.42594841583573	-2.9635289076476	-2.6059291086633
0.42799624475802	-3.2101247867376	0.21095228523519
0.43004407368031	-1.2488205072872	2.2292529639971
0.43209190260259	1.5475312267931	2.0651297389584
0.43413973152488	3.2434808418552	-0.14786163902818
0.43618756044717	2.6803079683941	-2.8651393983132
0.43823538936945	0.26739888257622	-4.2089840074810
0.44028321829174	-2.3145972610196	-3.2659417500691
0.44233104721403	-3.2840757302637	-0.70750063729118
0.44437887613632	-1.9875086190790	1.6874584178835
0.44642670505860	0.66045261270565	2.2691182501733
0.44847453398089	2.8218836469245	0.65284800847642
0.45052236290318	3.0110278587603	-2.0271994202668
0.45257019182546	1.1153524788654	-3.9137630481890
0.45461802074775	-1.5392992417958	-3.7134142086829
0.45666584967004	-3.1157239021587	-1.5831867951413
0.45871367859233	-2.5365691996919	0.99069559829239
0.46076150751461	-0.22032613512971	2.2293585963808
0.46280933643690	2.2205001395816	1.2903434220815
0.46485716535919	3.1017400122434	-1.1598239053812
0.46690499428147	1.8294105854343	-3.4184896896460
0.46895282320376	-0.70029140097662	-3.9299492333783
0.47100065212605	-2.7319475402095	-2.3568530920463
0.47304848104834	-2.8688089450720	0.19777136940801
0.47509630997062	-1.0328175107936	1.9635790990584
0.47714413889291	1.4929336953038	1.7294225660942
0.47919196781520	2.9606722882347	-0.32626797331166
0.48123979673749	2.3671644428732	-2.7704016610975
0.48328762565977	0.13921485469656	-3.9141672012236
0.48533545458206	-2.1727800042050	-2.9798336791723
0.48738328350435	-2.9735118785116	-0.62941264536186
0.48943111242663	-1.7233335691092	1.5039883396000
0.49147894134892	0.69839958722211	1.9505739012687
0.49352677027121	2.6116155056191	0.41617552134478
0.49557459919350	2.7008861546407	-2.0246170667026
0.49762242811578	0.91966218862973	-3.6809038507675
0.49967025703807	-1.4880595100588	-3.4167748837038
0.50171808596036	-2.8563208619603	-1.4302265121137
0.50376591488264	-2.2497148694818	0.89428615052107
0.50581374380493	-0.10264446913385	1.9504136185079
0.50786157272722	2.0913956652850	1.0197027835554
0.50990940164951	2.8185254378987	-1.2399901357637
0.51195723057179	1.5888934913829	-3.2593258280663
0.51400505949408	-0.73361173319446	-3.6472932905389
0.51605288841637	-2.5380584799626	-2.1493210337707
0.51810071733865	-2.5836495394868	0.18612673472678
0.52014854626094	-0.85274039409935	1.7411066732088
0.52219637518323	1.4466118270840	1.4488045582678
0.52424420410552	2.7236377960264	-0.47483635280176
0.52629203302780	2.1052617727709	-2.6901001941323
0.52833986195009	0.032836941598742	-3.6664764796374
0.53038769087238	-2.0525197143422	-2.7400205260942
0.53243551979466	-2.7118679410906	-0.56472379078791
0.53448334871695	-1.5011693706021	1.3488107929262
0.53653117763924	0.72997632360612	1.6821258341799
0.53857900656153	2.4343636974236	0.21709259940745
0.54062683548381	2.4399667791220	-2.0219507376534
0.54267466440610	0.75574534041405	-3.4843488767493
0.54472249332839	-1.4434403166146	-3.1669963788186
0.54677032225067	-2.6362117245151	-1.3023444443320
0.54881815117296	-2.0069964272133	0.81123205115918
0.55086598009525	-0.0035100014080523	1.7132555535997
0.55291380901754	1.9815523900947	0.79009098992790
0.55496163793982	2.5784923295414	-1.3078996564249
0.55700946686211	1.3855697009789	-3.1244418474800
0.55905729578440	-0.76088895499582	-3.4081519442001
0.56110512470668	-2.3726541146105	-1.9745535009076
0.56315295362897	-2.3413104058400	0.17440040162431
0.56520078255126	-0.70038024164236	1.5503600825081
0.56724861147355	1.4060729156451	1.2091766694618
0.56929644039583	2.5209562637355	-0.60147578229995
0.57134426931812	1.8819331069088	-2.6215814936316
0.57339209824041	-0.057455662670803	-3.4555754152589
0.57543992716269	-1.9494592508462	-2.5364131703134
0.57748775608498	-2.4885897741662	-0.51101569537137
0.57953558500727	-1.3122867021824	1.2147899519482
0.58158341392956	0.75551703710712	1.4518497071056
0.58363124285184	2.2813780347465	0.046858729885840
0.58567907177413	2.2159230474981	-2.0190904956000
0.58772690069642	0.61541652327122	-3.3155511052961
0.58977472961871	-1.4047636263064	-2.9531164308270
0.59182255854099	-2.4472916256051	-1.1935298336917
0.59387038746328	-1.7992753452637	0.73892250841693
0.59591821638557	0.080411178628373	1.5090503288741
0.59796604530785	1.8858891311234	0.59309123788956
0.60001387423014	2.3714170106275	-1.3653225647214
0.60206170315243	1.2108347620969	-3.0073754647199
0.60410953207472	-0.78355039202222	-3.2018380570438
0.60615736099700	-2.2293643620243	-1.8243606533977
0.60820518991929	-2.1322088943600	0.16348278561728
0.61025301884158	-0.56945664967114	1.3852371917705
0.61230084776386	1.3703356059953	1.0024808044967
0.61434867668615	2.3455916350110	-0.71001586553132
0.61639650560844	1.6894805423450	-2.5613682428305
0.61844433453073	-0.13424269661085	-3.2727220067916
0.62049216345301	-1.8588436767112	-2.3606405265435
0.62253999237530	-2.2943475571252	-0.46559094394565
0.62458782129759	-1.1485064590221	1.0975652885412
0.62663565021987	0.77732520332090	1.2516791426191
0.62868347914216	2.1485310277940	-0.10063434071135
0.63073130806445	2.0220512618921	-2.0161343065365
0.63277913698674	0.49489484393104	-3.1688693758293
0.63482696590902	-1.3695484391246	-2.7680400982277
0.63687479483131	-2.2818641202448	-1.1005011721722
0.63892262375360	-1.6182506063340	0.67419169092618
0.64097045267588	0.15307166699016	1.3299071554659
0.64301828159817	1.8020787776642	0.42087967052539
0.64506611052046	2.1909971271629	-1.4154900546811
0.64711393944275	1.0592513640100	-2.9055634842316
0.64916176836503	-0.80216695711225	-3.0228246854937
0.65120959728732	-2.1034378157521	-1.6950585626129
0.65325742620961	-1.9495765630555	0.15177583722077
0.65530525513189	-0.45589859369515	1.2391070632053
0.65735308405418	1.3378978940784	0.82073649966528
0.65940091297647	2.1913412933981	-0.80525290072747
0.66144874189876	1.5209296488923	-2.5087803369466
0.66349657082104	-0.20103540828878	-3.1131911528460
0.66554439974333	-1.7790607379226	-2.2079961641594
0.66759222866562	-2.1243676786855	-0.42760626124797
0.66964005758790	-1.0060302871630	0.99311433881905
0.67168788651019	0.79480294337919	1.0751804138667
0.67373571543248	2.0304491000659	-0.23007676053191
0.67578354435477	1.8510578523785	-2.0130423858115
0.67783137327705	0.38904453470525	-3.0397145760236
0.67987920219934	-1.3382633093877	-2.6057678292088
0.68192703112163	-2.1364373649326	-1.0197311619152
0.68397486004391	-1.4598073640044	0.61612723847169
0.68602268896620	0.21560186957259	1.1717034850370
0.68807051788849	1.7268705657909	0.26961807950434
0.69011834681078	2.0313230696269	-1.4586484705577
0.69216617573306	0.92585092571406	-2.8148022512336
0.69421400465535	-0.81777860491632	-2.8645862766344
0.69626183357764	-1.9916207380236	-1.5814046516696
0.69830966249993	-1.7882978615235	0.14063236615924
0.70035749142221	-0.35622517308705	1.1095541636883
0.70240532034450	1.3084548458333	0.66043632771721
0.70445314926679	2.0547371341990	-0.88846374208350
0.70650097818907	1.3725452640363	-2.4611951016070
0.70854880711136	-0.25870539277078	-2.9715586093638
0.71059663603365	-1.7069024791627	-2.0733180267819
0.71264446495594	-1.9728537358994	-0.39506990821932
0.71469229387822	-0.87960174451994	0.89946937453172
0.71674012280051	0.81005728418739	0.91822824553569
0.71878795172280	1.9257459539577	-0.34466117109680
0.72083578064508	1.7001424854634	-2.0098414425490
0.72288360956737	0.29665532484044	-2.9250756566172
0.72493143848966	-1.3086911385440	-2.4625952607390
0.72697926741195	-2.0059407649386	-0.94972791503171
0.72902709633423	-1.3185764552760	0.56254081518243
0.73107492525652	0.27090396593160	1.0295138141765
0.73312275417881	1.6595950457502	0.13430614216804
0.73517058310109	1.8894051276376	-1.4973350205359
0.73721841202338	0.80800510092661	-2.7344636784570
0.73926624094567	-0.83041608907828	-2.7248792170556
0.74131406986796	-1.8910791733100	-1.4822109062705
0.74336189879024	-1.6445177553608	0.12826102392522
0.74540972771253	-0.26821112976660	0.99194616968492
0.74745755663482	1.2809690752430	0.51618523952150
0.74950538555710	1.9319544210992	-0.96322969811137
0.75155321447939	1.2399284831148	-2.4190522478462
0.75360104340168	-0.30981784629563	-2.8458974752338
0.75564887232397	-1.6421337946902	-1.9545915220763
0.75769670124625	-1.8378562962619	-0.36805391529489
0.75974453016854	-0.76789004683587	0.81389897837141
0.76179235909083	0.82185958338608	0.77682750226759
0.76384018801311	1.8304199075822	-0.44726928411726
0.76588801693540	1.5641711346577	-2.0065772755419
0.76793584585769	0.21381637956926	-2.8222491487723
0.76998367477998	-1.2820489975022	-2.3348623581829
0.77203150370226	-1.8892708517895	-0.88811266497361
