#Parameters = {C_1=25.412767459909; C_2=94.841739321315; Conductivity=10000000; Conductivity_Mo=17900000; Conductivity_MoGr=1000000; Ip=98.18739362802; Pipe_lenght=40; Pipe_r=30; beta=1; cells_wave=20; conductivity_copper=59500000; d=-394.84173932132; half_gap_x=4.5872325400905; half_gap_y=30; half_gap_z=150; mu_copper=0.999994; offset=1.8348930160362; offset_x=1; offset_y=5; sigma_z=5; teta=15; thcoll=25.412767459909; translate_z=-244.84173932132; wakelength=20000}
#"Frequency / GHz"	"Z [Re / Ohm]"	"Z [Im / Ohm]"
#-----------------------------------------------
0.0000000000000	-0.0072574882251956	1.6118635269180e-13
0.0020002000200020	-0.0073879804882425	0.021929041864416
0.0040004000400040	-0.0077292341335404	0.044028419770972
0.0060006000600060	-0.0081475259766509	0.066413648209160
0.0080008000800080	-0.0084700631338638	0.089110131945107
0.010001000100010	-0.0085403147582057	0.11204923805779
0.012001200120012	-0.0082642534352268	0.13509541958928
0.014001400140014	-0.0076320445509839	0.15809259751926
0.016001600160016	-0.0067099816389595	0.18091179913482
0.018001800180018	-0.0056089504187436	0.20348330173667
0.020002000200020	-0.0044436791790759	0.22580416268273
0.022002200220022	-0.0032985928409694	0.24792236190208
0.024002400240024	-0.0022112743236377	0.26990736105694
0.026002600260026	-0.0011760661315865	0.29182041089240
0.028002800280028	-0.00016216942988239	0.31369563448004
0.030003000300030	0.00086394905441319	0.33553657063592
0.032003200320032	0.0019216199948225	0.35732575311833
0.034003400340034	0.0030099125743154	0.37904015286257
0.036003600360036	0.0041121029819493	0.40066453277925
0.038003800380038	0.0052059265195765	0.42219755451099
0.040004000400040	0.0062735118573574	0.44364991026071
0.042004200420042	0.0073065696892118	0.46503751123393
0.044004400440044	0.0083057193727931	0.48637427140492
0.046004600460046	0.0092758971202176	0.50766805724624
0.048004800480048	0.010221198822953	0.52892092327335
0.050005000500050	0.011141944686406	0.55013232895089
0.052005200520052	0.012034919972763	0.57130282739486
0.054005400540054	0.012895843792911	0.59243607487460
0.056005600560056	0.013722137899378	0.61353841475810
0.058005800580058	0.014514328778030	0.63461678710534
0.060006000600060	0.015275526074013	0.65567649136774
0.062006200620062	0.016009611592451	0.67672011059378
0.064006400640064	0.016719380810587	0.69774800371113
0.066006600660066	0.017405678490529	0.71875981324930
0.068006800680068	0.018067821163162	0.73975596253347
0.070007000700070	0.018704819193480	0.76073830686793
0.072007200720072	0.019316544582589	0.78170973402361
0.074007400740074	0.019904174560150	0.80267314767453
0.076007600760076	0.020469778061213	0.82363054800471
0.078007800780078	0.021015436272283	0.84458274458998
0.080008000800080	0.021542499295522	0.86552977513931
0.082008200820082	0.022051405480979	0.88647167202706
0.084008400840084	0.022542089739705	0.90740906401889
0.086008600860086	0.023014650237293	0.92834327242815
0.088008800880088	0.023469832983491	0.94927591081097
0.090009000900090	0.023909061000892	0.97020829367657
0.092009200920092	0.024334042140281	0.99114103477795
0.094009400940094	0.024746236363843	1.0120740546184
0.096009600960096	0.025146511494787	1.0330069464049
0.098009800980098	0.025535163238628	1.0539394442319
0.10001000100010	0.025912237674757	1.0748717102124
0.10201020102010	0.026277924155782	1.0958043017565
0.10401040104010	0.026632776308879	1.1167378885222
0.10601060106011	0.026977654497255	1.1376729284903
0.10801080108011	0.027313465365564	1.1586095091153
0.11001100110011	0.027640887969179	1.1795474322604
0.11201120112011	0.027960261166269	1.2004864620726
0.11401140114011	0.028271687416730	1.2214265632367
0.11601160116012	0.028575268162799	1.2423679809422
0.11801180118012	0.028871312614980	1.2633111262645
0.12001200120012	0.029160392529756	1.2842563539791
0.12201220122012	0.029443221092146	1.3052037781356
0.12401240124012	0.029720442955560	1.3261532352500
0.12601260126013	0.029992468623830	1.3471044062614
0.12801280128013	0.030259448012553	1.3680570121296
0.13001300130013	0.030521386285250	1.3890109617614
0.13201320132013	0.030778320147619	1.4099663707636
0.13401340134013	0.031030444929642	1.4309234542737
0.13601360136014	0.031278123119459	1.4518823716340
0.13801380138014	0.031521782897040	1.4728431214435
0.14001400140014	0.031761780310514	1.4938055451441
0.14201420142014	0.031998313247239	1.5147694259746
0.14401440144014	0.032231435344170	1.5357346134961
0.14601460146015	0.032461152559998	1.5567010948284
0.14801480148015	0.032687536131187	1.5776689732548
0.15001500150015	0.032910781144934	1.5986383749253
0.15201520152015	0.033131178991938	1.6196093467703
0.15401540154015	0.033349027189786	1.6405818092688
0.15601560156016	0.033564536734081	1.6615555893592
0.15801580158016	0.033777794343256	1.6825305078078
0.16001600160016	0.033988799366296	1.7035064636833
0.16201620162016	0.034197547923161	1.7244834640875
0.16401640164016	0.034404109507829	1.7454615841658
0.16601660166017	0.034608649070949	1.7664408862196
0.16801680168017	0.034811383707347	1.7874213503593
0.17001700170017	0.035012503863742	1.8084028594758
0.17201720172017	0.035212109462936	1.8293852459537
0.17401740174017	0.035410200086256	1.8503683693694
0.17601760176018	0.035606723805366	1.8713521766969
0.17801780178018	0.035801653414565	1.8923367089747
0.18001800180018	0.035995043413079	1.9133220521549
0.18201820182018	0.036187034495055	1.9343082635266
0.18401840184018	0.036377805149545	1.9552953184516
0.18601860186019	0.036567501612775	1.9762831080105
0.18801880188019	0.036756188883272	1.9972714862585
0.19001900190019	0.036943850668059	2.0182603361537
0.19201920192019	0.037130435292772	2.0392496136632
0.19401940194019	0.037315916939813	2.0602393449478
0.19601960196020	0.037500333933737	2.0812295814772
0.19801980198020	0.037683781877862	2.1022203435403
0.20002000200020	0.037866368553422	2.1232115883701
0.20202020202020	0.038048161182123	2.1442032221454
0.20402040204020	0.038229160408573	2.1651951467413
0.20602060206021	0.038409317491063	2.1861873102487
0.20802080208021	0.038588583303832	2.2071797284401
0.21002100210021	0.038766957613450	2.2281724632810
0.21202120212021	0.038944507093394	2.2491655720065
0.21402140214021	0.039121340497556	2.2701590589365
0.21602160216022	0.039297556463372	2.2911528603783
0.21802180218022	0.039473196590073	2.3121468720979
0.22002200220022	0.039648232983265	2.3331410021908
0.22202220222022	0.039822597757067	2.3541352164234
0.22402240224022	0.039996235803125	2.3751295481728
0.22602260226023	0.040169147910850	2.3961240674628
0.22802280228023	0.040341397876703	2.4171188291849
0.23002300230023	0.040513080257632	2.4381138331705
0.23202320232023	0.040684270158799	2.4591090206702
0.23402340234023	0.040854987322618	2.4801043082933
0.23602360236024	0.041025197042205	2.5010996366323
0.23802380238024	0.041194846427079	2.5220950018223
0.24002400240024	0.041363911809041	2.5430904497251
0.24202420242024	0.041532426082456	2.5640860368692
0.24402440244024	0.041700467966526	2.5850817838542
0.24602460246025	0.041868120020011	2.6060776519005
0.24802480248025	0.042035422655631	2.6270735582248
0.25002500250025	0.042202354249350	2.6480694207570
0.25202520252025	0.042368850759037	2.6690652034872
0.25402540254025	0.042534852781213	2.6900609330021
0.25602560256026	0.042700350079477	2.7110566750389
0.25802580258026	0.042865394895677	2.7320524855301
0.26002600260026	0.043030075107880	2.7530483671393
0.26202620262026	0.043194463916015	2.7740442590197
0.26402640264026	0.043358577768851	2.7950400664891
0.26602660266027	0.043522369063136	2.8160357119587
0.26802680268027	0.043685758010700	2.8370311750192
0.27002700270027	0.043848683229850	2.8580264967029
0.27202720272027	0.044011138996203	2.8790217458943
0.27402740274027	0.044173176026063	2.9000169699355
0.27602760276028	0.044334866319062	2.9210121611090
0.27802780278028	0.044496255566134	2.9420072598665
0.28002800280028	0.044657334071096	2.9630021915447
0.28202820282028	0.044818044430231	2.9839969116875
0.28402840284028	0.044978319767486	3.0049914300451
0.28602860286029	0.045138126305248	3.0259857979562
0.28802880288029	0.045297481536658	3.0469800684576
0.29002900290029	0.045456435904111	3.0679742567311
0.29202920292029	0.045615030627570	3.0889683283426
0.29402940294029	0.045773260778222	3.1099622240600
0.29602960296030	0.045931069752123	3.1309559052444
0.29802980298030	0.046088380717949	3.1519493892258
0.30003000300030	0.046245145769981	3.1729427497172
0.30203020302030	0.046401380837199	3.1939360796928
0.30403040304030	0.046557162501591	3.2149294389256
0.30603060306031	0.046712586890463	3.2359228192642
0.30803080308031	0.046867715313939	3.2569161503055
0.31003100310031	0.047022540380114	3.2779093428274
0.31203120312031	0.047176993843297	3.2989023433863
0.31403140314031	0.047330991296749	3.3198951662474
0.31603160316032	0.047484485658203	3.3408878830993
0.31803180318032	0.047637496119106	3.3618805776637
0.32003200320032	0.047790095121658	3.3828732942307
0.32203220322032	0.047942362664982	3.4038660124007
0.32403240324032	0.048094337620622	3.4248586629640
0.32603260326033	0.048245996747778	3.4458511733484
0.32803280328033	0.048397273415909	3.4668435126697
0.33003300330033	0.048548102205628	3.4878357077560
0.33203320332033	0.048698459337675	3.5088278213833
0.33403340334033	0.048848372814189	3.5298199089921
0.33603360336034	0.048997897130899	3.5508119837334
0.33803380338034	0.049147071325624	3.5718040131648
0.34003400340034	0.049295889967518	3.5927959488135
0.34203420342034	0.049444307356823	3.6137877672180
0.34403440344034	0.049592272088982	3.6347794931198
0.34603460346035	0.049739767878423	3.6557711876307
0.34803480348035	0.049886831578850	3.6767629083057
0.35003500350035	0.050033534238136	3.6977546678920
0.35203520352035	0.050179936036268	3.7187464205534
0.35403540354035	0.050326044317883	3.7397380868641
0.35603560356036	0.050471803186657	3.7607296031731
0.35803580358036	0.050617123269641	3.7817209640128
0.36003600360036	0.050761934069459	3.8027122296496
0.36203620362036	0.050906226028258	3.8237034927643
0.36403640364036	0.051050055290127	3.8446948245341
0.36603660366037	0.051193507686923	3.8656862340025
0.36803680368037	0.051336644552688	3.8866776664325
0.37003700370037	0.051479464668564	3.9076690414867
0.37203720372037	0.051621906205352	3.9286603066349
0.37403740374037	0.051763886789947	3.9496514716576
0.37603760376038	0.051905355378359	3.9706426026047
0.37803780378038	0.052046322395778	3.9916337799668
0.38003800380038	0.052186849169251	4.0126250488905
0.38203820382038	0.052327004403262	4.0336163939639
0.38403840384038	0.052466816831020	4.0546077545807
0.38603860386039	0.052606255242887	4.0755990700603
0.38803880388039	0.052745248668955	4.0965903243032
0.39003900390039	0.052883732857944	4.1175815603897
0.39203920392039	0.053021691911288	4.1385728557523
0.39403940394039	0.053159167411064	4.1595642747667
0.39603960396040	0.053296229160208	4.1805558305595
0.39803980398040	0.053432927297638	4.2015474815522
0.40004000400040	0.053569257970082	4.2225391650160
0.40204020402040	0.053705165727180	4.2435308451511
0.40404040404040	0.053840581323527	4.2645225433298
0.40604060406041	0.053975469851135	4.2855143298755
0.40804080408041	0.054109856982739	4.3065062822367
0.41004100410041	0.054243815299365	4.3274984369226
0.41204120412041	0.054377418990470	4.3484907670493
0.41404140414041	0.054510696238224	4.3694832007960
0.41604160416042	0.054643610431969	4.3904756692747
0.41804180418042	0.054776082678079	4.4114681529710
0.42004200420042	0.054908041156580	4.4324606967108
0.42204220422042	0.055039465386471	4.4534533836461
0.42404240424042	0.055170396917867	4.4744462854624
0.42604260426043	0.055300910080986	4.4954394213603
0.42804280428043	0.055431062566532	4.5164327522816
0.43004300430043	0.055560858593654	4.5374262134189
0.43204320432043	0.055690248717200	4.5584197627782
0.43404340434043	0.055819165794741	4.5794134131788
0.43604360436044	0.055947572521413	4.6004072263647
0.43804380438044	0.056075488319503	4.6214012733772
0.44004400440044	0.056202977209380	4.6423955879919
0.44204420442044	0.056330104460296	4.6633901448504
0.44404440444044	0.056456890900447	4.6843848775914
0.44604460446045	0.056583295706910	4.7053797256488
0.44804480448045	0.056709239913717	4.7263746790393
0.45004500450045	0.056834655978589	4.7473697913438
0.45204520452045	0.056959531314511	4.7683651517163
0.45404540454045	0.057083917329782	4.7893608335995
0.45604560456046	0.057207897872513	4.8103568531700
0.45804580458046	0.057331537444502	4.8313531642964
0.46004600460046	0.057454842653800	4.8523496929591
0.46204620462046	0.057577761550129	4.8733463884048
0.46404640464046	0.057700220572847	4.8943432576299
0.46604660466047	0.057822174250630	4.9153403610881
0.46804680468047	0.057943634764005	4.9363377732672
0.47004700470047	0.058064662186489	4.9573355349075
0.47204720472047	0.058185322525059	4.9783336288831
0.47404740474047	0.058305642082624	4.9993319957062
0.47604760476048	0.058425588997140	5.0203305780172
0.47804780478048	0.058545094511679	5.0413293639528
0.48004800480048	0.058664099851773	5.0623283999475
0.48204820482048	0.058782597230739	5.0833277639007
0.48404840484048	0.058900637151343	5.1043275161973
0.48604860486049	0.059018296430334	5.1253276611504
0.48804880488049	0.059135627574018	5.1463281449068
0.49004900490049	0.059252622833183	5.1673288919121
0.49204920492049	0.059369216953260	5.1883298564915
0.49404940494049	0.059485327342865	5.2093310558488
0.49604960496050	0.059600905728031	5.2303325627126
0.49804980498050	0.059715967662533	5.2513344622253
0.50005000500050	0.059830580635698	5.2723368011079
0.50205020502050	0.059944818605129	5.2933395622210
0.50405040504050	0.060058712706026	5.3143426809986
0.50605060506051	0.060172230307924	5.3353460928018
0.50805080508051	0.060285295881782	5.3563497800762
0.51005100510051	0.060397839680698	5.3773537885234
0.51205120512051	0.060509842117821	5.3983582020651
0.51405140514051	0.060621344857947	5.4193630935348
0.51605160516052	0.060732421820155	5.4403684838390
0.51805180518052	0.060843129849053	5.4613743364243
0.52005200520052	0.060953472097823	5.4823805902597
0.52205220522052	0.061063398498955	5.5033872089065
0.52405240524052	0.061172842857998	5.5243942126082
0.52605260526053	0.061281771611871	5.5454016717455
0.52805280528053	0.061390211490262	5.5664096658037
0.53005300530053	0.061498237291623	5.5874182350985
0.53205320532053	0.061605927564926	5.6084273574329
0.53405340534053	0.061713317404228	5.6294369654339
0.53605360536054	0.061820379644219	5.6504469932865
0.53805380538054	0.061927046993255	5.6714574220011
0.54005400540054	0.062033260496965	5.6924682931966
0.54205420542054	0.062139012162691	5.7134796821740
0.54405440544054	0.062244353329955	5.7344916480749
0.54605460546055	0.062349362982268	5.7555041942274
0.54805480548055	0.062454096775398	5.7765172652017
0.55005500550055	0.062558550480254	5.7975307829206
0.55205520552055	0.062662662208092	5.8185446982891
0.55405540554055	0.062766352292293	5.8395590244441
0.55605560556056	0.062869574881472	5.8605738296464
0.55805580558056	0.062972347501772	5.8815891943272
0.56005600560056	0.063074739270232	5.9026051603224
0.56205620562056	0.063176825563099	5.9236217054093
0.56405640564056	0.063278638864564	5.9446387595658
0.56605660566057	0.063380147840720	5.9656562519485
0.56805680568057	0.063481277882674	5.9866741575305
0.57005700570057	0.063581958974526	6.0076925129142
0.57205720572057	0.063682168890164	6.0287113914825
0.57405740574057	0.063781943134177	6.0497308551135
0.57605760576058	0.063881345465535	6.0707509151341
0.57805780578058	0.063980419229865	6.0917715288240
0.58005800580058	0.064079152600203	6.1127926338592
0.58205820582058	0.064177481542342	6.1338141975594
0.58405840584058	0.064275329098522	6.1548362476770
0.58605860586059	0.064372655150077	6.1758588635363
0.58805880588059	0.064469483497084	6.1968821326567
0.59005900590059	0.064565887825202	6.2179061010909
0.59205920592059	0.064661945255031	6.2389307502174
0.59405940594059	0.064757687729174	6.2599560155130
0.59605960596060	0.064853083143740	6.2809818352357
0.59805980598060	0.064948058725351	6.3020081971714
0.60006000600060	0.065042551388945	6.3230351527515
0.60206020602060	0.065136552048330	6.3440627892337
0.60406040604060	0.065230114808628	6.3650911782261
0.60606060606061	0.065323325084048	6.3861203343366
0.60806080608061	0.065416247704823	6.4071502110189
0.61006100610061	0.065508889179866	6.4281807361261
0.61206120612061	0.065601198831420	6.4492118635190
0.61406140614061	0.065693107807282	6.4702436065750
0.61606160616062	0.065784579941004	6.4912760315122
0.61806180618062	0.065875640696019	6.5123092150872
0.62006200620062	0.065966365005667	6.5333431947764
0.62206220622062	0.066056832067503	6.5543779444820
0.62406240624062	0.066147077018708	6.5754133918407
0.62606260626063	0.066237071447115	6.5964494656586
0.62806280628063	0.066326745538792	6.6174861420351
0.63006300630063	0.066416037073025	6.6385234586806
0.63206320632063	0.066504934688176	6.6595614880172
0.63406340634063	0.066593486667142	6.6806002870234
0.63606360636064	0.066681769368761	6.7016398571879
0.63806380638064	0.066769836201375	6.7226801412679
0.64006400640064	0.066857680963429	6.7437210591557
0.64206420642064	0.066945239898876	6.7647625592373
0.64406440644064	0.067032431197844	6.7858046513488
0.64606460646065	0.067119205895646	6.8068473995727
0.64806480648065	0.067205576564984	6.8278908796845
0.65006500650065	0.067291604886969	6.8489351294324
0.65206520652065	0.067377356368725	6.8699801245554
0.65406540654065	0.067462852179686	6.8910257964420
0.65606560656066	0.067548049959537	6.9120720798015
0.65806580658066	0.067632866281530	6.9331189589555
0.66006600660066	0.067717225963762	6.9541664823546
0.66206620662066	0.067801105817566	6.9752147359960
0.66406640664066	0.067884544286652	6.9962637935511
0.66606660666067	0.067967611172868	7.0173136762274
0.66806680668067	0.068050358083212	7.0383643486620
0.67006700670067	0.068132782865092	7.0594157529930
0.67206720672067	0.068214831722465	7.0804678577821
0.67406740674067	0.068296437381238	7.1015206886202
0.67606760676068	0.068377567451356	7.1225743196017
0.67806780678068	0.068458250218507	7.1436288310945
0.68006800680068	0.068538560060316	7.1646842619714
0.68206820682068	0.068618571667551	7.1857405884297
0.68406840684068	0.068698313253332	7.2067977440675
0.68606860686069	0.068777749964951	7.2278556684736
0.68806880688069	0.068856808941181	7.2489143524617
0.69006900690069	0.068935429942469	7.2699738500180
0.69206920692069	0.069013608463345	7.2910342487927
0.69406940694069	0.069091403008743	7.3120956182589
0.69606960696070	0.069168901736891	7.3331579694263
0.69806980698070	0.069246170400044	7.3542212523973
0.70007000700070	0.069323215807199	7.3752853930987
0.70207020702070	0.069399988681859	7.3963503446784
0.70407040704070	0.069476423703266	7.4174161194206
0.70607060706071	0.069552489841805	7.4384827800240
0.70807080708071	0.069628217286626	7.4595503960693
0.71007100710071	0.069703682746691	7.4806189946765
0.71207120712071	0.069778962512674	7.5016885383412
0.71407140714071	0.069854084143815	7.5227589450612
0.71607160716072	0.069929008705758	7.5438301379303
0.71807180718072	0.070003655481559	7.5649020918689
0.72007200720072	0.070077953116381	7.5859748469176
0.72207220722072	0.070151883774654	7.6070484795009
0.72407240724072	0.070225491509081	7.6281230506579
0.72607260726073	0.070298849640420	7.6491985653190
0.72807280728073	0.070372008893938	7.6702749692780
0.73007300730073	0.070444960576723	7.6913521855703
0.73207320732073	0.070517638960521	7.7124301660075
0.73407340734073	0.070589961005173	7.7335089237772
0.73607360736074	0.070661876929057	7.7545885257508
0.73807380738074	0.070733398097759	7.7756690499491
