#Parameters = {Conductivity_W=18000000; C_1=22; C_2=88.237180537789; Conductivity=10000; Conductivity_Mo=17900000; Conductivity_MoGr=1000000; Ip=90.938440877652; Pipe_lenght=40; Pipe_r=30; beta=1; cells_wave=20; conductivity_copper=59500000; d=-188.23718053779; half_gap_x=30; half_gap_y=8; half_gap_z=50; mu_copper=0.999994; offset_x=5; offset_y=1; sigma_z=5; teta=14; thcoll=22; translate_z=-138.23718053779; wakelength=20000}
#"Frequency / GHz"	"Z [Re / Ohm]"	"Z [Im / Ohm]"
#-----------------------------------------------
0.0000000000000	-0.071905173871975	-2.0044288206315e-12
0.020478289222872	-0.011263642686015	0.18138378875880
0.040956578445743	0.0026119357598141	0.33909306623123
0.061434867668615	0.0018745117493348	0.49872343332923
0.081913156891487	0.0062769249869359	0.66391459778951
0.10239144611436	0.010428026953332	0.82250021982327
0.12286973533723	0.0097621478605985	0.98399121476953
0.14334802456010	0.012765727747979	1.1466589065148
0.16382631378297	0.013915356980759	1.3062354123897
0.18430460300585	0.013728399771375	1.4688224219801
0.20478289222872	0.016064643156260	1.6305758847223
0.22526118145159	0.016150546327738	1.7911851744795
0.24573947067446	0.016683841372620	1.9540685898662
0.26621775989733	0.018402193248299	2.1153136742459
0.28669604912020	0.018187133141677	2.2767957422126
0.30717433834308	0.019267821863619	2.4395176258347
0.32765262756595	0.020353150799585	2.6006102102157
0.34813091678882	0.020244998102044	2.7627580531066
0.36860920601169	0.021575705470959	2.9251259441787
0.38908749523456	0.022106373555120	3.0863877865020
0.40956578445743	0.022309264456260	3.2489622991897
0.43004407368031	0.023596762783844	3.4109911317416
0.45052236290318	0.023752749590613	3.5726532499280
0.47100065212605	0.024308322178139	3.7354168719953
0.49147894134892	0.025333274872333	3.8972628374254
0.51195723057179	0.025339250673941	4.0594344530018
0.53243551979466	0.026163837538800	4.2222075794899
0.55291380901754	0.026825202712882	4.3840945979250
0.57339209824041	0.026881977168956	4.5467609925809
0.59387038746328	0.027812190730224	4.7094607963097
0.61434867668615	0.028125422239771	4.8716164440112
0.63482696590902	0.028361952164940	5.0346806769803
0.65530525513189	0.029218635009440	5.1973349170277
0.67578354435477	0.029291963271926	5.3599344602613
0.69626183357764	0.029743849179584	5.5232706928864
0.71674012280051	0.030393422270284	5.6859977335497
0.73721841202338	0.030381691619313	5.8491240366109
0.75769670124625	0.030993006302829	6.0126239460269
0.77817499046912	0.031372840264858	6.1755894172725
0.79865327969200	0.031413572464154	6.3392372256972
0.81913156891487	0.032066875129409	6.5028627859082
0.83960985813774	0.032200422121092	6.6662390122967
0.86008814736061	0.032383327470809	6.8303433866831
0.88056643658348	0.032953756540342	6.9941322308220
0.90104472580636	0.032929176816388	7.1580460588445
0.92152301502923	0.033268562735784	7.3225203511265
0.94200130425210	0.033661778078039	7.4865790583525
0.96247959347497	0.033596911094845	7.6510916151789
0.98295788269784	0.034039559353005	7.8158710185151
1.0034361719207	0.034220413349307	7.9803421017408
1.0239144611436	0.034220274066693	8.1454491410267
1.0443927503665	0.034673747918697	8.3105224478923
1.0648710395893	0.034673548003946	8.4755426457399
1.0853493288122	0.034796156511519	8.6411930161742
1.1058276180351	0.035161377262629	8.8066115116739
1.1263059072579	0.035056847117992	8.9722818897878
1.1467841964808	0.035299478475030	9.1384160612434
1.1672624857037	0.035506146024979	9.3042855079502
1.1877407749266	0.035391873221800	9.4706562463982
1.2082190641494	0.035702124761486	9.6372426638780
1.2286973533723	0.035736279371705	9.8036934683023
1.2491756425952	0.035693536230123	9.9707598380546
1.2696539318180	0.035990734617001	10.137810422976
1.2901322210409	0.035887613526510	10.304961832653
1.3106105102638	0.035952373130230	10.472688767288
1.3310887994867	0.036156652979181	10.640270853071
1.3515670887095	0.035986857803371	10.808210760048
1.3720453779324	0.036145947227749	10.976563946862
1.3925236671553	0.036209356992124	11.144786819115
1.4130019563781	0.036053502671453	11.313557235620
1.4334802456010	0.036254007638374	11.482529197932
1.4539585348239	0.036174125493860	11.651516410795
1.4744368240468	0.036091893160448	11.821118962738
1.4949151132696	0.036261783944162	11.990747445128
1.5153934024925	0.036079268009888	12.160612263260
1.5358716917154	0.036092903941549	12.331029327875
1.5563499809382	0.036169834703297	12.501397374644
1.5768282701611	0.035951142600735	12.672220362454
1.5973065593840	0.036039822383977	12.843441063332
1.6177848486069	0.035992327308425	13.014663997372
1.6382631378297	0.035805342859051	13.186487226429
1.6587414270526	0.035916815766493	13.358530152629
1.6792197162755	0.035753358011216	13.530732681182
1.6996980054984	0.035644021550373	13.703568147151
1.7201762947212	0.035715584636690	13.876494039985
1.7406545839441	0.035479843437240	14.049786758420
1.7611328731670	0.035457263373438	14.223636202980
1.7816111623898	0.035439194481729	14.397546309445
1.8020894516127	0.035192451386703	14.572011311254
1.8225677408356	0.035229908138955	14.746890191837
1.8430460300585	0.035103464289621	14.921911193667
1.8635243192813	0.034902300254068	15.097597977647
1.8840026085042	0.034947770575805	15.273553594447
1.9044808977271	0.034728748946407	15.449817601427
1.9249591869499	0.034605227713636	15.626755638165
1.9454374761728	0.034602198903767	15.803876328975
1.9659157653957	0.034333780802075	15.981501638608
1.9863940546186	0.034284982617015	16.159719746762
2.0068723438414	0.034192610429902	16.338131262213
2.0273506330643	0.033927643672092	16.517211750680
2.0478289222872	0.033917933116862	16.696760336663
2.0683072115100	0.033723954034032	16.876612486225
2.0887855007329	0.033505632986872	17.057220646076
2.1092637899558	0.033482128532179	17.238187461390
2.1297420791787	0.033205257165967	17.419633966428
2.1502203684015	0.033050186944548	17.601832136219
2.1706986576244	0.032958592145838	17.784347128185
2.1911769468473	0.032636284261056	17.967532485359
2.2116552360701	0.032526837691673	18.151395593939
2.2321335252930	0.032329638725049	18.335628760839
2.2526118145159	0.032002684869796	18.520683293843
2.2730901037388	0.031892544657695	18.706318866379
2.2935683929616	0.031577090453500	18.892467271600
2.3140466821845	0.031269232191008	19.079516006764
2.3345249714074	0.031098017409045	19.267083383838
2.3550032606302	0.030678359636241	19.455360355648
2.3754815498531	0.030388085811978	19.644541048395
2.3959598390760	0.030101485296065	19.834255695675
2.4164381282989	0.029608677226358	20.024882477084
2.4369164175217	0.029307835376158	20.216369463979
2.4573947067446	0.028876333929215	20.408502432238
2.4778729959675	0.028348331224669	20.601710400795
2.4983512851903	0.027997150268726	20.795735577764
2.5188295744132	0.027429654688987	20.990600950994
2.5393078636361	0.026901657466839	21.186639728543
2.5597861528590	0.026468664002357	21.383502348467
2.5802644420818	0.025813400669063	21.581442553084
2.6007427313047	0.025311137549495	21.780593644737
2.6212210205276	0.024789130137065	21.980659947188
2.6416993097505	0.024119888555244	22.182038800337
2.6621775989733	0.023658015092842	22.384638334644
2.6826558881962	0.023075588948078	22.588337981055
2.7031341774191	0.022474185061171	22.793545408153
2.7236124666419	0.022060286091248	23.000005057980
2.7440907558648	0.021477795863638	23.207828276051
2.7645690450877	0.021012742316751	23.417305353265
2.7850473343106	0.020655224441721	23.628138998367
2.8055256235334	0.020153322982380	23.840647573344
2.8260039127563	0.019867423051228	24.054928724454
2.8464822019792	0.019584683304999	24.270782455206
2.8669604912020	0.019247254678747	24.488641075974
2.8874387804249	0.019157876301923	24.708414944314
2.9079170696478	0.018988174024349	24.930106824284
2.9283953588707	0.018890533340980	25.154141045557
2.9488736480935	0.019003908394571	25.380323698007
2.9693519373164	0.019010692681146	25.608900779293
2.9898302265393	0.019213433699674	25.840187499122
3.0103085157621	0.019545173688810	26.074019673494
3.0307868049850	0.019817792835807	26.310854927896
3.0512650942079	0.020371937899377	26.550863221441
3.0717433834308	0.020970636398035	26.794054156447
3.0922216726536	0.021624938196246	27.041018639035
3.1126999618765	0.022592963345806	27.291834429338
3.1331782510994	0.023566735791548	27.546803425484
3.1536565403222	0.024754587216759	27.806578410066
3.1741348295451	0.026252157052212	28.071293768563
3.1946131187680	0.027810748568145	28.341630211899
3.2150914079909	0.029774219584590	28.618308288649
3.2355696972137	0.032075376913967	28.901767002056
3.2560479864366	0.034656948855955	29.193170424505
3.2765262756595	0.037932150036837	29.493494187624
3.2970045648823	0.041797855723314	29.803880889822
3.3174828541052	0.046554620709303	30.126261289317
3.3379611433281	0.052770499018776	30.462436273464
3.3584394325510	0.060730948029149	30.815038384683
3.3789177217738	0.071609925969260	31.187663284985
3.3993960109967	0.086988866438258	31.584439658625
3.4198743002196	0.10926604935218	32.011436691092
3.4403525894424	0.14325934521972	32.476529890852
3.4608308786653	0.19672070398575	32.989833538297
3.4813091678882	0.28368791429828	33.564940474569
3.5017874571111	0.42985887290912	34.217236688885
3.5222657463339	0.68039960073680	34.959694426220
3.5427440355568	1.1125211261400	35.787360077460
3.5632223247797	1.8376276365127	36.635859280184
3.5837006140025	2.9483422973271	37.316309847225
3.6041789032254	4.3530018320045	37.519335899319
3.6246571924483	5.6533347443816	37.078451087205
3.6451354816712	6.4525719013857	36.251625510686
3.6656137708940	6.7416076978674	35.454817336089
3.6860920601169	6.7506024127326	34.883154761914
3.7065703493398	6.6722652367832	34.526085591810
3.7270486385627	6.5973337756230	34.309766390153
3.7475269277855	6.5502625321398	34.168330583006
3.7680052170084	6.5260514866386	34.058993311359
3.7884835062313	6.5091914226376	33.958717181192
3.8089617954541	6.4827896179731	33.859857005544
3.8294400846770	6.4341107230080	33.764870649420
3.8499183738999	6.3558998663457	33.681547932943
3.8703966631228	6.2470381333154	33.620046625645
3.8908749523456	6.1119860500297	33.589123580325
3.9113532415685	5.9580516130242	33.594533464824
3.9318315307914	5.7941433981011	33.638983965198
3.9523098200142	5.6290621470399	33.721549849166
3.9727881092371	5.4698570617076	33.839150176776
3.9932663984600	5.3222823073557	33.987479732062
4.0137446876829	5.1901743984409	34.161118500435
4.0342229769057	5.0755463871744	34.354997715723
4.0547012661286	4.9796240748762	34.564246912517
4.0751795553515	4.9022761239499	34.784172027878
4.0956578445743	4.8426909841112	35.011113068833
4.1161361337972	4.7998750896444	35.241617363819
4.1366144230201	4.7719755120659	35.472750149908
4.1570927122430	4.7571726822379	35.702454697450
4.1775710014658	4.7535153027825	35.928683279294
4.1980492906887	4.7585071418906	36.150124018946
4.2185275799116	4.7700218838569	36.366057988434
4.2390058691344	4.7856838350834	36.575819500132
4.2594841583573	4.8029826858984	36.779667643699
4.2799624475802	4.8199667908752	36.978173294952
4.3004407368031	4.8344723951650	37.172151836188
4.3209190260259	4.8447534927011	37.363294464572
4.3413973152488	4.8497139192393	37.553257166820
4.3618756044717	4.8482589142819	37.744025146548
4.3823538936945	4.8401654652385	37.938035218128
4.4028321829174	4.8257308290606	38.137287971752
4.4233104721403	4.8054384313161	38.344008250295
4.4437887613632	4.7807093418699	38.560247390637
4.4642670505860	4.7530916380205	38.787384755441
4.4847453398089	4.7243646377008	39.026875055737
4.5052236290318	4.6969217313711	39.279518108537
4.5257019182546	4.6728457147371	39.545542272564
4.5461802074775	4.6544470412834	39.825156031871
4.5666584967004	4.6441771010521	40.117735958295
4.5871367859233	4.6439511930381	40.422413937948
4.6076150751461	4.6559154121023	40.738192755094
4.6280933643690	4.6819134780980	41.063316603251
4.6485716535919	4.7232743360186	41.396112635393
4.6690499428147	4.7814849691522	41.734622884865
4.6895282320376	4.8573777622201	42.076392045870
4.7100065212605	4.9514242084919	42.419267486269
4.7304848104834	5.0640478736476	42.760718948043
4.7509630997062	5.1948319763975	43.098148221779
4.7714413889291	5.3432128271424	43.429382426827
4.7919196781520	5.5083444633540	43.751959396844
4.8123979673749	5.6886484727379	44.063845186939
4.8328762565977	5.8826751230001	44.363434582598
4.8533545458206	6.0885972022504	44.649043274910
4.8738328350435	6.3042713999906	44.919730057014
4.8943111242663	6.5279347144741	45.174774897821
4.9147894134892	6.7574890415537	45.413536253832
4.9352677027121	6.9910006387084	45.636061354959
4.9557459919350	7.2269286609941	45.842254257746
4.9762242811578	7.4634278120880	46.032179602658
4.9967025703807	7.6990721809732	46.206287552389
5.0171808596036	7.9325346157246	46.364639707241
5.0376591488264	8.1621852910094	46.507595883619
5.0581374380493	8.3868076701245	46.635618398372
5.0786157272722	8.6049050385999	46.748868250993
5.0990940164951	8.8147958404003	46.848024405458
5.1195723057179	9.0151117196912	46.933733132716
5.1400505949408	9.2040375350424	47.006692801686
5.1605288841637	9.3798973808439	47.068261678970
5.1810071733865	9.5412712853829	47.119714004097
5.2014854626094	9.6864548607024	47.162728722408
5.2219637518323	9.8143020098208	47.199518193462
5.2424420410552	9.9238961964857	47.232130533237
5.2629203302780	10.014391770838	47.263133029184
5.2833986195009	10.085759738095	47.295208315529
5.3038769087238	10.138100497062	47.330767469768
5.3243551979466	10.171892301924	47.372591652442
5.3448334871695	10.188344573406	47.423078872468
5.3653117763924	10.188605623028	47.484340074773
5.3857900656153	10.174330907653	47.558591466296
5.4062683548381	10.147537167235	47.647355766999
5.4267466440610	10.110026812773	47.752012011052
5.4472249332839	10.064091106429	47.873792246079
5.4677032225067	10.011946986189	48.013220388679
5.4881815117296	9.9556065103676	48.170886684399
5.5086598009525	9.8974601402678	48.347027773916
5.5291380901754	9.8395062596659	48.541384020470
5.5496163793982	9.7837008988135	48.753887193579
5.5700946686211	9.7321894933926	48.983965339130
5.5905729578440	9.6865977877869	49.230857486899
5.6110512470668	9.6487081998995	49.493954869451
5.6315295362897	9.6202380219706	49.772091246050
5.6520078255126	9.6024376233931	50.064199824656
5.6724861147355	9.5968275827046	50.369191015650
5.6929644039583	9.6045976084628	50.685500448839
5.7134426931812	9.6266522952901	51.011851662332
5.7339209824041	9.6641294537778	51.346727447593
5.7543992716269	9.7176416653130	51.688350653146
5.7748775608498	9.7877477893607	52.035276726883
5.7953558500727	9.8750596000459	52.385664174054
5.8158341392956	9.9796070823952	52.737699910362
5.8363124285184	10.101557405668	53.089808828910
5.8567907177413	10.240871148272	53.440002548266
5.8772690069642	10.397026745830	53.786596656393
5.8977472961871	10.569719685054	54.127968858136
5.9182255854099	10.758200203559	54.462235238453
5.9387038746328	10.961461602279	54.787999655331
5.9591821638557	11.178665867506	55.103758289935
5.9796604530785	11.408416606667	55.408027959420
6.0001387423014	11.649348412837	55.699851792764
6.0206170315243	11.900128768148	55.978072920129
6.0410953207472	12.158944747667	56.241864296985
6.0615736099700	12.424278709558	56.490798084781
6.0820518991929	12.694489101118	56.724253361312
6.1025301884158	12.967701267598	56.942142932139
6.1230084776386	13.242475281263	57.144516336317
6.1434867668615	13.517115432729	57.331319413400
6.1639650560844	13.789994249731	57.503049695068
6.1844433453073	14.059855204437	57.660049811583
6.2049216345301	14.325101036444	57.802722250397
6.2253999237530	14.584429898429	57.931886946670
6.2458782129759	14.836665140370	58.048048643042
6.2663565021987	15.080302415962	58.152006576027
6.2868347914216	15.314242858808	58.244796709318
6.3073130806445	15.537243253308	58.327214144389
6.3277913698674	15.747923009686	58.400587887318
6.3482696590902	15.945353310321	58.466315641765
6.3687479483131	16.128359624719	58.525794782912
6.3892262375360	16.296004959392	58.581039782742
6.4097045267588	16.447821298804	58.633943120884
6.4301828159817	16.583216151973	58.686601414381
6.4506611052046	16.702231101815	58.741510778729
6.4711393944275	16.805296426199	58.800804971680
6.4916176836503	16.892925806994	58.866845725100
6.5120959728732	16.966430540697	58.941926136761
6.5325742620961	17.027256382591	59.027787668708
6.5530525513189	17.077059879763	59.126281018756
6.5735308405418	17.118103026717	59.238718328325
6.5940091297647	17.152423322856	59.365879250222
6.6144874189876	17.182279987309	59.508519909073
6.6349657082104	17.210102933710	59.666627268106
6.6554439974333	17.237829053605	59.839917303819
6.6759222866562	17.267575102302	60.027993876810
6.6964005758790	17.301173247389	60.229768822327
6.7168788651019	17.339929666018	60.444250402296
6.7373571543248	17.385273423515	60.670273125670
6.7578354435477	17.438043442219	60.906286801307
6.7783137327705	17.498752736723	61.151131802858
6.7987920219934	17.567958379298	61.403432067521
6.8192703112163	17.645553717185	61.661833971666
6.8397486004392	17.731433412240	61.925480291595
6.8602268896620	17.825437711995	62.193296739381
6.8807051788849	17.926912383546	62.464598932525
6.9011834681078	18.035527610672	62.739089641779
6.9216617573306	18.150815888215	63.016307339570
6.9421400465535	18.272168115370	63.296376394472
6.9626183357764	18.399502266232	63.579522291780
6.9830966249993	18.532563243002	63.865885219875
7.0035749142221	18.671357107876	64.156129176236
7.0240532034450	18.816410925673	64.450647867644
7.0445314926679	18.968087008028	64.749814329277
7.0650097818907	19.127285890812	65.054218546330
7.0854880711136	19.295185464412	65.363862260833
7.1059663603365	19.472816741110	65.678761767933
7.1264446495594	19.661767084685	65.998729544647
7.1469229387822	19.863484100470	66.322870196034
7.1674012280051	20.079270799125	66.650325856975
7.1878795172280	20.310723197832	66.979692208217
7.2083578064508	20.558856948589	67.309021359777
7.2288360956737	20.824532154627	67.636444998251
7.2493143848966	21.108464605111	67.959452369114
7.2697926741195	21.410510240556	68.275417704538
7.2902709633423	21.730379595847	68.581875832077
7.3107492525652	22.067228721118	68.875938133574
7.3312275417881	22.419391999203	69.155157134326
7.3517058310109	22.785143044515	69.417342893576
7.3721841202338	23.162034371374	69.660328738808
7.3926624094567	23.547204181799	69.882834640664
7.4131406986796	23.937910204422	70.083860947874
7.4336189879024	24.330864999947	70.262867146347
7.4540972771253	24.723000568127	70.420276654583
7.4745755663482	25.111546160195	70.556641654643
7.4950538555710	25.493574764259	70.673157531000
7.5155321447939	25.866904023576	70.771610704786
7.5360104340168	26.229640541013	70.853639530646
7.5564887232397	26.580077880051	70.921425958029
7.5769670124625	26.917375016534	70.977137566709
7.5974453016854	27.240722807907	71.022613616449
7.6179235909083	27.549651213895	71.060025375786
7.6384018801311	27.844253474599	71.091054950421
7.6588801693540	28.124323047390	71.117163397494
7.6793584585769	28.390010236950	71.139984381613
7.6998367477998	28.641546791022	71.160542950148
7.7203150370226	28.878722189128	71.180001528762
7.7407933262455	29.101685341549	71.199606049829
7.7612716154684	29.310286298981	71.220207455847
7.7817499046912	29.504111808675	71.243179644615
7.8022281939141	29.683136285796	71.269891884044
7.8227064831370	29.846915513120	71.301685760481
7.8431847723599	29.995164547588	71.340585613524
7.8636630615827	30.127971281576	71.388446313616
7.8841413508056	30.245057290442	71.447369595395
7.9046196400285	30.346493203407	71.519965425836
7.9250979292514	30.432157212590	71.608969764825
7.9455762184742	30.503344455325	71.717507254413
