#Parameters = {C_1=25.412767459909; C_2=94.841739321315; Conductivity=10000000; Conductivity_Mo=17900000; Conductivity_MoGr=1000000; Ip=98.18739362802; Pipe_lenght=40; Pipe_r=30; beta=1; cells_wave=20; conductivity_copper=59500000; d=-394.84173932132; half_gap_x=4.5872325400905; half_gap_y=30; half_gap_z=150; mu_copper=0.999994; offset=1.8348930160362; offset_x=1; offset_y=5; sigma_z=5; teta=15; thcoll=25.412767459909; translate_z=-244.84173932132; wakelength=20000}
#"Frequency / GHz"	"Z [Re / Ohm]"	"Z [Im / Ohm]"
#-----------------------------------------------
0.0000000000000	-0.0029812939582658	1.2892158984106e-12
0.0020478289222872	-0.0045166578875305	0.019302262306308
0.0040956578445743	-0.0081352339403801	0.040866539125047
0.0061434867668615	-0.011522770547925	0.065499259617974
0.0081913156891487	-0.012548233716368	0.092062113084840
0.010239144611436	-0.010625618025133	0.11826380950296
0.012286973533723	-0.0070266249513445	0.14218686387600
0.014334802456010	-0.0039583270027416	0.16351851918485
0.016382631378297	-0.0030522151580950	0.18367093036020
0.018430460300585	-0.0042950610028440	0.20473942299555
0.020478289222872	-0.0061121999003374	0.22803428277404
0.022526118145159	-0.0065165266507547	0.25319580031828
0.024573947067446	-0.0045114566663007	0.27848403519290
0.026621775989733	-0.00077768105394707	0.30201904097005
0.028669604912020	0.0028173348963295	0.32309796031551
0.030717433834308	0.0045294608389020	0.34267593926138
0.032765262756595	0.0039484604859340	0.36268797029103
0.034813091678882	0.0022694975127318	0.38469488081579
0.036860920601169	0.0014453541140298	0.40880025862587
0.038908749523456	0.0028170997131902	0.43358901191117
0.040956578445743	0.0061785085096064	0.45712362565818
0.043004407368031	0.0099222615478101	0.47829957680541
0.045052236290318	0.012161119764600	0.49761581837887
0.047100065212605	0.012040605455272	0.51682705478851
0.049147894134892	0.010330007002822	0.53772346215835
0.051195723057179	0.0088831518771514	0.56088866080700
0.053243551979466	0.0093467242481704	0.58529908654120
0.055291380901754	0.012015398978139	0.60904106464598
0.057339209824041	0.015628796663004	0.63064499127986
0.059387038746328	0.018249440332354	0.65010866356987
0.061434867668615	0.018610027352375	0.66889955421889
0.063482696590902	0.016993632749726	0.68893604776645
0.065530525513189	0.015036282985990	0.71125648474961
0.067578354435477	0.014590320216740	0.73530049691496
0.069626183357764	0.016438699044095	0.75930084739546
0.071674012280051	0.019752826663487	0.78151261889408
0.073721841202338	0.022669517924079	0.80142579195718
0.075769670124625	0.023585640439920	0.82011968191269
0.077817499046912	0.022271413945592	0.83951397764022
0.079865327969200	0.020029957316866	0.86103693540138
0.081913156891487	0.018793030904099	0.88463523433749
0.083960985813774	0.019781036111208	0.90881226716868
0.086008814736061	0.022657181675499	0.93166770807829
0.088056643658348	0.025762329118643	0.95221664409267
0.090104472580635	0.027267066320817	0.97107306843438
0.092152301502923	0.026441446490843	0.99002393000748
0.094200130425210	0.024161632633475	1.0107896665320
0.096247959347497	0.022302354957346	1.0338312192075
0.098295788269784	0.022436955352538	1.0580309041599
0.10034361719207	0.024746796333875	1.0814681579997
0.10239144611436	0.027896270468334	1.1027518351606
0.10443927503665	0.029959785723309	1.1219850016659
0.10648710395893	0.029757622077414	1.1406933222376
0.10853493288122	0.027674260246670	1.1607669870862
0.11058276180351	0.025391905453277	1.1831500853464
0.11263059072579	0.024724237214385	1.2071862241080
0.11467841964808	0.026359200190556	1.2310739511491
0.11672624857037	0.029382503972768	1.2531159890187
0.11877407749266	0.031912031253111	1.2728960256139
0.12082190641494	0.032403118125719	1.2915672284795
0.12286973533723	0.030719681192698	1.3110526277079
0.12491756425952	0.028228675265715	1.3327118868310
0.12696539318180	0.026852558126479	1.3563987854784
0.12901322210409	0.027736768057880	1.3805627241030
0.13106105102638	0.030455976733133	1.4033237388821
0.13310887994867	0.033309260605884	1.4237757090016
0.13515670887095	0.034499446790076	1.4426143789328
0.13720453779324	0.033379050822835	1.4616549583462
0.13925236671553	0.030899180593606	1.4825738028678
0.14130019563781	0.028950343474670	1.5057464467779
0.14334802456010	0.029052175254105	1.5299873646779
0.14539585348239	0.031300321149960	1.5533717466105
0.14744368240468	0.034300362764550	1.5745696100313
0.14949151132696	0.036134495379557	1.5937675410890
0.15153934024925	0.035690879107019	1.6125392604272
0.15358716917154	0.033434297612708	1.6327548101932
0.15563499809382	0.031084055056701	1.6552844433205
0.15768282701611	0.030422432271895	1.6793955077764
0.15973065593840	0.032059564337287	1.7032602623217
0.16177848486069	0.035010733284369	1.7252226080799
0.16382631378297	0.037378972403557	1.7449457969685
0.16587414270526	0.037669849240553	1.7636457309758
0.16792197162755	0.035827217985439	1.7832482248845
0.16996980054984	0.033272165329454	1.8050543207984
0.17201762947212	0.031918211254210	1.8288386273324
0.17406545839441	0.032845280925657	1.8530055148590
0.17611328731670	0.035551393333496	1.8756948769798
0.17816111623898	0.038300612941570	1.8960711388931
0.18020894516127	0.039326096336265	1.9149022468683
0.18225677408356	0.038054520005611	1.9340274413072
0.18430460300585	0.035503398557189	1.9550826715512
0.18635243192813	0.033575996699311	1.9783669196025
0.18840026085042	0.033742469875133	2.0026350173357
0.19044808977271	0.036021161449540	2.0259604935744
0.19249591869499	0.038965954625717	2.0470705079262
0.19454374761728	0.040668411856925	2.0662278228813
0.19659157653957	0.040080249496002	2.0850486747830
0.19863940546186	0.037739749233193	2.1053827778629
0.20068723438414	0.035398769253469	2.1280315672577
0.20273506330643	0.034808837543710	2.1521928501241
0.20478289222872	0.036507492653667	2.1760166621790
0.20683072115100	0.039445841267478	2.1978871406722
0.20887855007329	0.041715386910250	2.2175421675371
0.21092637899558	0.041870479605411	2.2362549703886
0.21297420791787	0.039930037865336	2.2559518651151
0.21502203684015	0.037364449222621	2.2778774793826
0.21706986576244	0.036076741886894	2.3017323343574
0.21911769468473	0.037083987837381	2.3258803469112
0.22116552360701	0.039812592363408	2.3484824603431
0.22321335252930	0.042495751550840	2.3687709070371
0.22526118145159	0.043397670733403	2.3875811773838
0.22730901037388	0.042016289988977	2.4067731083517
0.22935683929616	0.039431167425449	2.4279422211439
0.23140466821845	0.037555486219087	2.4513142044700
0.23345249714074	0.037810463039637	2.4755885307693
0.23550032606302	0.040140633063969	2.4988395524990
0.23754815498531	0.043052292191113	2.5198507250035
0.23959598390760	0.044648454339324	2.5389575083605
0.24164381282989	0.043943228182723	2.5578149302692
0.24369164175217	0.041544923640145	2.5782508631501
0.24573947067446	0.039234589959902	2.6009995431598
0.24778729959675	0.038732003977846	2.6251928292696
0.24983512851903	0.040504108643911	2.6489616876721
0.25188295744132	0.043441485798614	2.6707311566703
0.25393078636361	0.045627021287579	2.6903115667727
0.25597861528590	0.045664190203344	2.7090299587623
0.25802644420818	0.043644657362639	2.7288106446695
0.26007427313047	0.041084789754945	2.7508419427209
0.26212210205276	0.039875065063234	2.7747528352245
0.26416993097504	0.040970270878168	2.7988700003134
0.26621775989733	0.043727980841784	2.8213771386010
0.26826558881962	0.046353641228328	2.8415733683448
0.27031341774191	0.047143898261528	2.8603588235621
0.27236124666419	0.045666744760529	2.8796110117719
0.27440907558648	0.043060837608497	2.9008840095904
0.27645690450877	0.041246605466860	2.9243317364867
0.27850473343106	0.041595713872153	2.9486012996721
0.28055256235334	0.043980723440088	2.9717703082133
0.28260039127563	0.046863369727110	2.9926787603836
0.28464822019792	0.048360307277258	3.0117327339958
0.28669604912020	0.047547944657010	3.0306230559436
0.28874387804249	0.045102344803863	3.0511538572002
0.29079170696478	0.042830844445097	3.0739926159586
0.29283953588707	0.042419889069606	3.0982076921586
0.29488736480935	0.044266607734601	3.1219137698337
0.29693519373164	0.047203642710241	3.1435780419133
0.29898302265393	0.049307890070844	3.1630821907178
0.30103085157621	0.049232853375896	3.1818043975670
0.30307868049850	0.047141537083193	3.2016645492995
0.30512650942079	0.044593548579931	3.2237941241331
0.30717433834308	0.043464610792108	3.2477522753630
0.30922216726536	0.044647047920162	3.2718312288841
0.31126999618765	0.047431560384202	3.2942394267856
0.31331782510994	0.049998611029712	3.3143427346189
0.31536565403222	0.050679000263383	3.3331037933684
0.31741348295451	0.049110303412639	3.3524151194285
0.31946131187680	0.046487981277511	3.3737879718776
0.32150914079909	0.044737182131792	3.3973053397793
0.32355696972137	0.045179002190579	3.4215644282648
0.32560479864366	0.047615219116834	3.4446485007161
0.32765262756595	0.050465603265457	3.4654547929692
0.32970045648823	0.051862688861142	3.4844585204597
0.33174828541052	0.050945555416536	3.5033836656191
0.33379611433281	0.048456286464752	3.5240086122312
0.33584394325510	0.046225868987671	3.5469340760280
0.33789177217738	0.045905689557237	3.5711669121205
0.33993960109967	0.047823439840770	3.5948081500273
0.34198743002196	0.050756065396137	3.6163686004000
0.34403525894424	0.052777074762171	3.6358005877607
0.34608308786653	0.052591210466357	3.6545310169847
0.34813091678882	0.050431828715688	3.6744728452901
0.35017874571111	0.047899272749161	3.6966997916497
0.35222657463339	0.046852191215715	3.7207024377185
0.35427440355568	0.048119873070197	3.7447411062730
0.35632223247797	0.050927685923077	3.7670510699517
0.35837006140025	0.053433689025912	3.7870651470448
0.36041789032254	0.054004685187459	3.8058066771247
0.36246571924483	0.052347689430203	3.8251806059381
0.36451354816712	0.049712938967372	3.8466537840694
0.36656137708940	0.048027779660406	3.8702387417044
0.36860920601169	0.048561438962965	3.8944849764237
0.37065703493398	0.051045704811719	3.9174838121854
0.37270486385627	0.053860703317760	3.9381906977676
0.37475269277855	0.055157093944471	3.9571488803026
0.37680052170084	0.054137260620426	3.9761130897918
0.37884835062313	0.051607910900634	3.9968339171502
0.38089617954541	0.049421234803847	4.0198450331971
0.38294400846770	0.049191756331719	4.0440934454454
0.38499183738999	0.051177807836501	4.0676689634414
0.38703966631228	0.054102528075011	4.0891275343866
0.38908749523456	0.056038414406263	4.1084916761976
0.39113532415685	0.055742649420669	4.1272349169640
0.39318315307914	0.053518119958579	4.1472609979559
0.39523098200142	0.051003618182446	4.1695850081653
0.39727881092371	0.050038544974748	4.1936301309003
0.39932663984600	0.051388607583388	4.2176272186859
0.40137446876829	0.054215322374529	4.2398404045726
0.40342229769057	0.056656859966062	4.2597696886009
0.40547012661286	0.057117861777596	4.2784973689336
0.40751795553515	0.055374685452519	4.2979382946557
0.40956578445743	0.052730381564965	4.3195133219949
0.41161361337972	0.051112011633668	4.3431649618329
0.41366144230201	0.051735638656652	4.3673971667782
0.41570927122430	0.054263844654197	4.3903117216752
0.41775710014658	0.057039441734130	4.4109232757256
0.41980492906887	0.058233495658890	4.4298419992165
0.42185275799116	0.057112362082697	4.4488509193395
0.42390058691344	0.054545965848175	4.4696707177257
0.42594841583573	0.052405179689198	4.4927676870210
0.42799624475802	0.052265754627938	4.5170306665456
0.43004407368031	0.054316669345760	4.5405407911297
0.43209190260259	0.057229173018676	4.5619008189966
0.43413973152488	0.059077271587238	4.5812031278149
0.43618756044717	0.058671996013434	4.5999657648605
0.43823538936945	0.056385115766651	4.6200808250773
0.44028321829174	0.053891634422141	4.6425036663554
0.44233104721403	0.053009428190501	4.6665910334044
0.44437887613632	0.054439869399945	4.6905466406831
0.44642670505860	0.057281895457825	4.7126655597019
0.44847453398089	0.059656187253582	4.7325153565512
0.45052236290318	0.060007077347363	4.7512357175434
0.45257019182546	0.058180282938378	4.7707489633671
0.45461802074775	0.055529833780654	4.7924283516436
0.45666584967004	0.053980088706031	4.8161467128531
0.45871367859233	0.054692616405532	4.8403645084131
0.46076150751461	0.057261474049266	4.8631963383847
0.46280933643690	0.059994386719682	4.8837170836077
0.46485716535919	0.061085067802557	4.9026028332819
0.46690499428147	0.059864558922260	4.9216625622895
0.46895282320376	0.057264700932261	4.9425849642008
0.47100065212605	0.055172632647360	4.9657685722408
0.47304848104834	0.055123466374076	4.9900456280795
0.47509630997062	0.057236794311560	5.0134910224672
0.47714413889291	0.060133790158738	5.0347559332209
0.47919196781520	0.061892367782386	5.0540022737900
0.48123979673749	0.061378726877339	5.0727905815333
0.48328762565977	0.059032844501353	5.0929989777463
0.48533545458206	0.056563729634272	5.1155220770515
0.48738328350435	0.055765521011568	5.1396511931040
0.48943111242663	0.057274567128465	5.1635652380776
0.49147894134892	0.060128541000959	5.1855922756450
0.49352677027121	0.062433048643382	5.2053677921711
0.49557459919350	0.062673966107304	5.2240872708806
0.49762242811578	0.060766385021411	5.2436780623599
0.49967025703807	0.058113483797791	5.2654642133107
0.50171808596036	0.056634505890583	5.2892491963759
0.50376591488264	0.057435191895501	5.3134520085388
0.50581374380493	0.060041731063407	5.3362023907552
0.50786157272722	0.062728943348552	5.3566364728170
0.50990940164951	0.063715377402778	5.3754952736240
0.51195723057179	0.062397433529302	5.3946114127718
0.51400505949408	0.059767556645281	5.4156395824000
0.51605288841637	0.057726761492473	5.4389102364760
0.51810071733865	0.057767709096036	5.4632006249893
0.52014854626094	0.059940629834519	5.4865818250002
0.52219637518323	0.062818475043482	5.5077550141582
0.52424420410552	0.064485475252681	5.5269512815982
0.52629203302780	0.063864304780480	5.5457716030446
0.52833986195009	0.061462452994880	5.5660778000153
0.53038769087238	0.059020721016836	5.5887027509365
0.53243551979466	0.058307310797043	5.6128733664009
0.53448334871695	0.059892884944298	5.6367460975812
0.53653117763924	0.062755190122481	5.6586840400248
0.53857900656153	0.064987178307365	5.6783909311343
0.54062683548381	0.065118108524172	5.6971164444543
0.54267466440610	0.063132442905285	5.7167905243722
0.54472249332839	0.060480672146710	5.7386864197722
0.54677032225067	0.059074531090353	5.7625385980608
0.54881815117296	0.059962640702870	5.7867266334490
0.55086598009525	0.062604028463021	5.8093977212877
0.55291380901754	0.065242828305184	5.8297502212709
0.55496163793982	0.066124626733532	5.8485890469424
0.55700946686211	0.064711851800066	5.8677681200552
0.55905729578440	0.062056231161314	5.8889060907740
0.56110512470668	0.060070261110656	5.9122649928306
0.56315295362897	0.060202339703621	5.9365686633617
0.56520078255126	0.062433354998875	5.9598867566464
0.56724861147355	0.065289864858444	5.9809719851069
0.56929644039583	0.066864778651874	6.0001242187019
0.57134426931812	0.066138493859906	6.0189828101886
0.57339209824041	0.063685268911940	6.0393909717954
0.57543992716269	0.061275460190449	6.0621188803641
0.57748775608498	0.060649132308117	6.0863300874969
0.57953558500727	0.062310601676419	6.1101609157377
0.58158341392956	0.065179007059482	6.1320115049514
0.58363124285184	0.067337014744983	6.1516541533999
0.58567907177413	0.067359032702496	6.1703911308844
0.58772690069642	0.065298825447516	6.1901525958355
0.58977472961871	0.062652335076052	6.2121594964472
0.59182255854099	0.061321419572023	6.2360777242304
0.59387038746328	0.062296343979923	6.2602495090887
0.59591821638557	0.064969727561189	6.2828418022267
0.59796604530785	0.067557243395290	6.3031161353014
0.60001387423014	0.068333675901276	6.3219402559559
0.60206170315243	0.066828083445808	6.3411870669221
0.60410953207472	0.064150106159393	6.3624372094225
0.60615736099700	0.062221328638480	6.3858840554127
0.60820518991929	0.062444128677661	6.4101996922257
0.61025301884158	0.064730152075195	6.4334547818565
0.61230084776386	0.067561460390935	6.4544551019585
0.61434867668615	0.069042036517967	6.4735688884416
0.61639650560844	0.068211253686337	6.4924718096134
0.61844433453073	0.065709404372147	6.5129861948755
0.62049216345301	0.063334210318287	6.5358186102457
0.62253999237530	0.062795494866689	6.5600703296460
0.62458782129759	0.064530691028340	6.5838598610463
0.62663565021987	0.067401752920321	6.6056263181992
0.62868347914216	0.069483476907162	6.6252107490049
0.63073130806445	0.069397166896027	6.6439663129529
0.63277913698674	0.067265762806451	6.6638209374746
0.63482696590902	0.064628743244555	6.6859417567146
0.63687479483131	0.063375706508256	6.7099265335951
0.63892262375360	0.064437353691597	6.7340822372264
0.64097045267588	0.067140692796103	6.7565978395666
0.64301828159817	0.069675181155526	6.7767989102631
0.64506611052046	0.070346934613842	6.7956148849033
0.64711393944275	0.068752178754255	6.8149352670359
0.64916176836503	0.066057022693814	6.8363007072959
0.65120959728732	0.064189698563711	6.8598356917364
0.65325742620961	0.064504796793602	6.8841622376561
0.65530525513189	0.066844831704930	6.9073544310266
0.65735308405418	0.069649262556166	6.9282725931391
0.65940091297647	0.071035494877434	6.9473528424214
0.66144874189876	0.070103038205407	6.9663050517913
0.66349657082104	0.067557367810599	6.9869283914217
0.66554439974333	0.065221274061005	7.0098649547395
0.66759222866562	0.064772162051083	7.0341548979629
0.66964005758790	0.066580008118045	7.0579013115955
0.67168788651019	0.069450991509093	7.0795842834216
0.67373571543248	0.071454446490282	7.0991138585473
0.67578354435477	0.071260311666173	7.1178924380307
0.67783137327705	0.069060574615342	7.1378433393124
0.67987920219934	0.066436353535295	7.1600784376203
0.68192703112163	0.065262642128521	7.1841278704029
0.68397486004391	0.066409413451302	7.2082654609983
0.68602268896620	0.069138890738026	7.2307044788059
0.68807051788849	0.071616565543607	7.2508354109100
0.69011834681078	0.072182010218018	7.2696482738599
0.69216617573306	0.070499161808497	7.2890468644197
0.69421400465535	0.067789205867150	7.3105299481113
0.69626183357764	0.065984681091789	7.3341529660149
0.69830966249993	0.066390747023063	7.3584895570763
0.70035749142221	0.068781002543788	7.3816196033400
0.70240532034450	0.071554253844083	7.4024593781873
0.70445314926679	0.072843685225437	7.4215123485906
0.70650097818907	0.071810098856433	7.4405204790680
0.70854880711136	0.069223334743207	7.4612575404429
0.71059663603365	0.066929051584728	7.4843003193817
0.71264446495594	0.066570199289061	7.5086289781109
0.71469229387822	0.068448849124068	7.5323334612701
0.71674012280051	0.071316861051256	7.5539366426300
0.71878795172280	0.073240453836500	7.5734176293809
0.72083578064508	0.072939800804772	7.5922263100900
0.72288360956737	0.070675666480711	7.6122790146775
0.72493143848966	0.068068839282147	7.6346309927365
0.72697926741195	0.066977392379076	7.6587453387424
0.72902709633423	0.068209504570717	7.6828648507542
0.73107492525652	0.070963530836160	7.7052292747558
0.73312275417881	0.073383254766093	7.7252947289391
0.73517058310109	0.073843729238778	7.7441105469686
0.73721841202338	0.072076973185769	7.7635924352893
0.73926624094567	0.069357684705373	7.7851954083743
0.74131406986796	0.067620266149414	7.8089057992820
0.74336189879024	0.068118787912172	7.8332506520459
0.74540972771253	0.070558182138761	7.8563180449288
0.74745755663482	0.073298561911169	7.8770815665550
0.74950538555710	0.074491182353504	7.8961114247898
0.75155321447939	0.073359153331497	7.9151795302283
0.75360104340168	0.070735692365812	7.9360320725396
0.75564887232397	0.068486998941157	7.9591798460496
