#Parameters = {C_1=26.243897880769; C_2=97.94356027968; Conductivity=10000000; Conductivity_Mo=17900000; Conductivity_MoGr=1000000; Ip=101.39863498211; Pipe_lenght=40; Pipe_r=30; beta=1; cells_wave=20; conductivity_copper=59500000; d=-397.94356027968; half_gap_x=3.7561021192308; half_gap_y=30; half_gap_z=150; mu_copper=0.999994; offset=1.5024408476923; offset_x=1; offset_y=5; sigma_z=5; teta=15; thcoll=26.243897880769; translate_z=-247.94356027968; wakelength=20000}
#"Frequency / GHz"	"Z [Re / Ohm]"	"Z [Im / Ohm]"
#-----------------------------------------------
0.0000000000000	0.085859746006097	-1.6111526644402e-12
0.0020478289222872	0.073915697618590	-0.014845470241859
0.0040956578445743	0.043130824862844	-0.015501224877958
0.0061434867668615	0.0061409844796683	0.0056795267775998
0.0081913156891487	-0.022995739613845	0.046647292375781
0.010239144611436	-0.035337065158627	0.097409163861188
0.012286973533723	-0.030589349159546	0.14553673332986
0.014334802456010	-0.016025938023445	0.18233291102776
0.016382631378297	-0.0017495332292456	0.20640632999141
0.018430460300585	0.0048524578379259	0.22304411483562
0.020478289222872	0.0024248879945916	0.24019168246738
0.022526118145159	-0.0047835790094790	0.26362686243955
0.024573947067446	-0.010374356927929	0.29408926497663
0.026621775989733	-0.0099357823597218	0.32771865744104
0.028669604912020	-0.0033984499299090	0.35911003927842
0.030717433834308	0.0055356712756545	0.38485432377147
0.032765262756595	0.012178052615330	0.40539321189520
0.034813091678882	0.013896901303653	0.42427128793400
0.036860920601169	0.011522733132252	0.44554660259217
0.038908749523456	0.0084261650707632	0.47116856915251
0.040956578445743	0.0080899912847308	0.49996652427311
0.043004407368031	0.011856929254242	0.52872428078253
0.045052236290318	0.018264631921124	0.55445839164816
0.047100065212605	0.024245811839366	0.57633578132164
0.049147894134892	0.027258984650805	0.59603303603474
0.051195723057179	0.026898281793754	0.61643822278431
0.053243551979466	0.024983628247461	0.63967011300786
0.055291380901754	0.024192050031915	0.66575417877505
0.057339209824041	0.026231822928763	0.69276790500919
0.059387038746328	0.030785388387061	0.71825322182588
0.061434867668615	0.035859090213237	0.74088165196304
0.063482696590902	0.039214141302899	0.76126170669536
0.065530525513189	0.039865814382310	0.78141386054112
0.067578354435477	0.038657911524160	0.80334449292596
0.069626183357764	0.037590280365663	0.82771678001195
0.071674012280051	0.038419416650717	0.85349233360857
0.073721841202338	0.041502248524561	0.87872443468065
0.075769670124625	0.045636879327483	0.90191084161972
0.077817499046912	0.048951070404828	0.92297586699355
0.079865327969200	0.050190616447456	0.94324787931124
0.081913156891487	0.049527882139430	0.96449985740027
0.083960985813774	0.048375422611705	0.98774110505896
0.086008814736061	0.048378718281922	1.0125797287864
0.088056643658348	0.050301491269942	1.0375545009936
0.090104472580635	0.053554845159263	1.0611679966237
0.092152301502923	0.056655865760226	1.0828963205161
0.094200130425210	0.058266057521786	1.1034993945423
0.096247959347497	0.058087010539031	1.1244545447306
0.098295788269784	0.057017904981646	1.1469318073902
0.10034361719207	0.056500281136611	1.1710191351303
0.10239144611436	0.057524529923103	1.1957082738084
0.10443927503665	0.059980552160604	1.2196198898282
0.10648710395893	0.062776193551626	1.2419501288929
0.10853493288122	0.064613645952078	1.2629920781471
0.11058276180351	0.064875087462016	1.2838968089321
0.11263059072579	0.064015948169306	1.3058638021464
0.11467841964808	0.063218501436265	1.3293282864492
0.11672624857037	0.063566515090027	1.3536944450757
0.11877407749266	0.065315671314229	1.3777753541465
0.12082190641494	0.067749608338833	1.4006175710652
0.12286973533723	0.069698844128219	1.4221395013816
0.12491756425952	0.070349118496371	1.4431579133088
0.12696539318180	0.069782407576412	1.4648049492883
0.12901322210409	0.068892984754653	1.4877502860103
0.13106105102638	0.068755440511288	1.5117616111559
0.13310887994867	0.069890228235608	1.5358905861705
0.13515670887095	0.071927806930603	1.5591388021643
0.13720453779324	0.073886949347772	1.5811374460626
0.13925236671553	0.074859933190529	1.6023792081075
0.14130019563781	0.074627598063147	1.6238583403838
0.14334802456010	0.073788824625478	1.6463804751161
0.14539585348239	0.073330492412592	1.6700203314475
0.14744368240468	0.073945858803131	1.6940914364647
0.14949151132696	0.075571466130484	1.7176341241833
0.15153934024925	0.077451255764350	1.7400759116338
0.15358716917154	0.078669987538817	1.7616106889456
0.15563499809382	0.078780715216625	1.7830464428652
0.15768282701611	0.078097101144743	1.8052391194485
0.15973065593840	0.077460464665727	1.8285085268806
0.16177848486069	0.077653578313403	1.8524341612593
0.16382631378297	0.078869125246732	1.8761602624281
0.16587414270526	0.080593273447843	1.8989896865026
0.16792197162755	0.081973367842336	1.9208551112673
0.16996980054984	0.082407521169972	1.9423496816583
0.17201762947212	0.081949162524606	1.9643068460184
0.17406545839441	0.081255344616507	1.9872263641038
0.17611328731670	0.081124765910620	2.0109412236212
0.17816111623898	0.081949892709398	2.0347468727090
0.18020894516127	0.083458615497935	2.0578940625450
0.18225677408356	0.084915002705781	2.0801010443736
0.18430460300585	0.085631966446764	2.1017354248125
0.18635243192813	0.085439286938685	2.1235489739785
0.18840026085042	0.084788725491705	2.1461560724250
0.19044808977271	0.084432375019324	2.1696171679876
0.19249591869499	0.084902860279731	2.1934092167805
0.19454374761728	0.086154317141741	2.2167950863358
0.19659157653957	0.087605831885178	2.2393314320170
0.19863940546186	0.088549351131732	2.2611654792776
0.20068723438414	0.088636097298192	2.2829224106828
0.20273506330643	0.088107754611367	2.3052685523402
0.20478289222872	0.087619659028152	2.3284551761385
0.20683072115100	0.087784853425919	2.3521548980826
0.20887855007329	0.088755952608591	2.3756966876496
0.21092637899558	0.090129756437024	2.3985311840257
0.21297420791787	0.091233582922324	2.4206039437433
0.21502203684015	0.091590383731685	2.4423833029616
0.21706986576244	0.091241387143697	2.4645303179484
0.21911769468473	0.090708386728457	2.4874430670745
0.22116552360701	0.090628109829339	2.5109891567888
0.22321335252930	0.091314641304341	2.5346058740601
0.22526118145159	0.092550405821742	2.5576928470942
0.22730901037388	0.093744544705390	2.5800234507921
0.22935683929616	0.094343844858417	2.6018932579515
0.23140466821845	0.094210706152244	2.6239086247553
0.23345249714074	0.093710170704027	2.6465663031884
0.23550032606302	0.093451499296579	2.6699152876215
0.23754815498531	0.093867017645252	2.6935308517393
0.23959598390760	0.094919171018646	2.7168132494124
0.24164381282989	0.096134105036217	2.7394012168377
0.24369164175217	0.096933355918429	2.7614153669542
0.24573947067446	0.097031705905432	2.7833676885577
0.24778729959675	0.096627782750276	2.8058045571240
0.24983512851903	0.096260280208594	2.8289319620068
0.25188295744132	0.096433605852432	2.8524798198682
0.25393078636361	0.097272944521614	2.8758944731859
0.25597861528590	0.098444470618968	2.8987223809313
0.25802644420818	0.099391201086167	2.9209192543332
0.26007427313047	0.099718065313309	2.9428740767821
0.26212210205276	0.099460153983066	2.9651359407118
0.26416993097504	0.099052183946455	2.9880353437236
0.26621775989733	0.099024614754219	3.0114609635023
0.26826558881962	0.099638701298683	3.0349425075080
0.27031341774191	0.10071142855565	3.0579783220719
0.27236124666419	0.10174747934697	3.0803796776792
0.27440907558648	0.10228331375384	3.1023955703307
0.27645690450877	0.10220448949927	3.1245357003112
0.27850473343106	0.10181913855622	3.1472172924706
0.28055256235334	0.10164072337298	3.1704803368264
0.28260039127563	0.10203309725936	3.1939654623085
0.28464822019792	0.10296310706946	3.2171659187461
0.28669604912020	0.10402883459185	3.2397771050855
0.28874387804249	0.10474030111999	3.2619026690811
0.29079170696478	0.10485671463468	3.2839778435419
0.29283953588707	0.10454825409197	3.3064664365964
0.29488736480935	0.10427382809981	3.3295423094952
0.29693519373164	0.10446244494199	3.3529739736598
0.29898302265393	0.10521932018283	3.3762887434022
0.30103085157621	0.10625795345284	3.3991001695190
0.30307868049850	0.10710179631715	3.4213720364477
0.30512650942079	0.10741367578690	3.4434386717608
0.30717433834308	0.10722535557511	3.4657707863223
0.30922216726536	0.10691104056380	3.4886507401242
0.31126999618765	0.10692626213814	3.5119811630675
0.31331782510994	0.10749425192472	3.5353565431038
0.31536565403222	0.10845564272417	3.5583453646253
0.31741348295451	0.10938258799115	3.5807865873407
0.31946131187680	0.10987572318410	3.6028968511881
0.32150914079909	0.10983794487083	3.6251171659873
0.32355696972137	0.10953740960566	3.6478074710526
0.32560479864366	0.10941906907586	3.6710005251080
0.32765262756595	0.10979711108325	3.6943833230436
0.32970045648823	0.11064082160601	3.7175160781048
0.33174828541052	0.11159974150534	3.7401356471045
0.33379611433281	0.11224803245587	3.7623341278963
0.33584394325510	0.11237774356236	3.7844914903636
0.33789177217738	0.11213908800909	3.8070113453218
0.33993960109967	0.11193319243691	3.8300435211101
0.34198743002196	0.11213378793185	3.8533840634530
0.34403525894424	0.11283087076285	3.8766192972964
0.34608308786653	0.11377208979132	3.8994122769123
0.34813091678882	0.11453988579051	3.9217333365143
0.35017874571111	0.11484011577841	3.9438770522293
0.35222657463339	0.11470272752068	3.9662563348030
0.35427440355568	0.11445764270083	3.9891175103245
0.35632223247797	0.11450487018735	4.0123729252898
0.35837006140025	0.11503897007742	4.0356647644283
0.36041789032254	0.11591760548080	4.0586137533913
0.36246571924483	0.11676292161628	4.0810799413379
0.36451354816712	0.11722363533938	4.1032563085056
0.36656137708940	0.11721610173686	4.1255326695086
0.36860920601169	0.11697898168622	4.1482257793015
0.37065703493398	0.11690590473361	4.1713624483166
0.37270486385627	0.11727339306721	4.1946641141252
0.37475269277855	0.11805204927668	4.2177413893887
0.37680052170084	0.11892987638389	4.2403627686563
0.37884835062313	0.11952954503564	4.2626121169982
0.38089617954541	0.11966835906279	4.2848278570152
0.38294400846770	0.11948186081852	4.3073678381448
0.38499183738999	0.11932750524622	4.3303632025236
0.38703966631228	0.11953678245466	4.3536304942077
0.38908749523456	0.12018762810962	4.3768008465050
0.39113532415685	0.12105332776004	4.3995753344216
0.39318315307914	0.12176130762509	4.4219297695968
0.39523098200142	0.12205064246058	4.4441286780488
0.39727881092371	0.12195034374115	4.4665406942670
0.39932663984600	0.12175664627628	4.4893841591935
0.40137446876829	0.12182682070898	4.5125784493519
0.40342229769057	0.12233297684385	4.5358022273697
0.40547012661286	0.12314546830120	4.5587166245668
0.40751795553515	0.12392483491909	4.5811983927828
0.40956578445743	0.12435713801740	4.6034226553785
0.41161361337972	0.12436957888639	4.6257397606157
0.41366144230201	0.12417834842413	4.6484327917014
0.41570927122430	0.12413734531449	4.6715235367777
0.41775710014658	0.12449358289659	4.6947598780676
0.41980492906887	0.12521829669515	4.7177916302805
0.42185275799116	0.12602919639162	4.7404122335813
0.42390058691344	0.12658685298491	4.7626995275118
0.42594841583573	0.12672863545833	4.7849597057933
0.42799624475802	0.12657900300213	4.8075147303621
0.43004407368031	0.12646139691510	4.8304807658660
0.43209190260259	0.12667405578428	4.8536900779048
0.43413973152488	0.12728510718583	4.8768088585196
0.43618756044717	0.12808768799352	4.8995682555924
0.43823538936945	0.12874458373861	4.9219487463134
0.44028321829174	0.12902129124892	4.9441914493687
0.44233104721403	0.12894645847144	4.9666300659505
0.44437887613632	0.12878996525986	4.9894605553326
0.44642670505860	0.12887525377597	5.0126074888764
0.44847453398089	0.12935637928202	5.0357782009950
0.45052236290318	0.13011343120743	5.0586659284585
0.45257019182546	0.13083728347421	5.0811609723889
0.45461802074775	0.13124381888020	5.1034245598569
0.45666584967004	0.13126920155098	5.1257757166918
0.45871367859233	0.13111201713858	5.1484704949231
0.46076150751461	0.13109452779697	5.1715263054745
0.46280933643690	0.13143994782319	5.1947118472830
0.46485716535919	0.13211964239967	5.2177082379837
0.46690499428147	0.13287482129694	5.2403291268431
0.46895282320376	0.13339642203447	5.2626478815913
0.47100065212605	0.13353817209221	5.2849450710190
0.47304848104834	0.13341597252671	5.3075137843372
0.47509630997062	0.13332610515626	5.3304578478337
0.47714413889291	0.13353994700294	5.3536218381874
0.47919196781520	0.13411740112594	5.3767000350456
0.48123979673749	0.13486728234980	5.3994479688454
0.48328762565977	0.13548079730214	5.4218502077143
0.48533545458206	0.13574495082854	5.4441292523538
0.48738328350435	0.13568841563396	5.4665906170424
0.48943111242663	0.13555998680926	5.4894119401207
0.49147894134892	0.13565569974669	5.5125216770227
0.49352677027121	0.13611471732611	5.5356501958697
0.49557459919350	0.13682469532904	5.5585168348175
0.49762242811578	0.13750095327240	5.5810231779689
0.49967025703807	0.13788368764068	5.6033194782777
0.50171808596036	0.13791662880227	5.6256994331275
0.50376591488264	0.13778430603437	5.6483969822643
0.50581374380493	0.13778328948048	5.6714257019515
0.50786157272722	0.13811722808711	5.6945710404392
0.50990940164951	0.13875731280768	5.7175396491133
0.51195723057179	0.13946375307820	5.7401618999022
0.51400505949408	0.13995234562199	5.7625078042187
0.51605288841637	0.14009045092946	5.7848371436455
0.51810071733865	0.13998725948677	5.8074193017759
0.52014854626094	0.13991694135890	5.8303477357964
0.52219637518323	0.14012874253891	5.8534768500933
0.52424420410552	0.14067554656820	5.8765238886570
0.52629203302780	0.14137880489183	5.8992645657790
0.52833986195009	0.14195305096307	5.9216871074335
0.53038769087238	0.14220318765197	5.9439989284422
0.53243551979466	0.14215822195974	5.9664823431194
0.53448334871695	0.14204979432796	5.9892996706558
0.53653117763924	0.14215132380964	6.0123822661867
0.53857900656153	0.14258945375930	6.0354793269668
0.54062683548381	0.14325781370698	6.0583318090636
0.54267466440610	0.14389180483283	6.0808508741492
0.54472249332839	0.14425185570399	6.1031779591241
0.54677032225067	0.14428824846958	6.1255858769993
0.54881815117296	0.14417413207599	6.1482900862018
0.55086598009525	0.14418484067629	6.1713006762000
0.55291380901754	0.14450761374535	6.1944167377543
0.55496163793982	0.14511320265557	6.2173660830486
0.55700946686211	0.14577739111764	6.2399931672065
0.55905729578440	0.14623665776544	6.2623654855077
0.56110512470668	0.14636992862024	6.2847256845878
0.56315295362897	0.14628107935774	6.3073233386855
0.56520078255126	0.14622598601251	6.3302430041640
0.56724861147355	0.14643533476885	6.3533470018492
0.56929644039583	0.14695587734010	6.3763716256867
0.57134426931812	0.14761935663528	6.3991095663812
0.57339209824041	0.14815972280016	6.4215523709004
0.57543992716269	0.14839699617426	6.4438950565039
0.57748775608498	0.14836072572354	6.4664005390112
0.57953558500727	0.14826836753925	6.4892181080695
0.58158341392956	0.14837435045031	6.5122812665882
0.58363124285184	0.14879457417455	6.5353548318950
0.58567907177413	0.14942738254912	6.5581979626674
0.58772690069642	0.15002487860691	6.5807301193347
0.58977472961871	0.15036456593085	6.6030856136005
0.59182255854099	0.15040248405704	6.6255198234324
0.59387038746328	0.15030245090647	6.6482325506256
0.59591821638557	0.15032198893416	6.6712306952738
0.59796604530785	0.15063435515965	6.6943246259134
0.60001387423014	0.15120965442807	6.7172599734224
0.60206170315243	0.15183660288307	6.7398932701304
0.60410953207472	0.15226914176322	6.7622901743199
0.60615736099700	0.15239617640998	6.7846790473411
0.60820518991929	0.15231736117849	6.8072926891163
0.61025301884158	0.15227324522008	6.8302079080985
0.61230084776386	0.15247872842948	6.8532934761473
0.61434867668615	0.15297512155500	6.8763017221451
0.61639650560844	0.15360264274665	6.8990398530548
0.61844433453073	0.15411163408226	6.9215025121732
0.62049216345301	0.15433509800930	6.9438744481927
0.62253999237530	0.15430332753802	6.9664021694020
0.62458782129759	0.15422195773140	6.9892237398116
0.62663565021987	0.15432930668038	7.0122742306074
0.62868347914216	0.15473196661166	7.0353315699587
0.63073130806445	0.15533205823091	7.0581704376199
0.63277913698674	0.15589578601801	7.0807175715789
0.63482696590902	0.15621529452413	7.1031014525059
0.63687479483131	0.15625178636178	7.1255626891995
0.63892262375360	0.15616137099802	7.1482876022991
0.64097045267588	0.15618644967182	7.1712801001947
0.64301828159817	0.15648819842418	7.1943599457947
0.64506611052046	0.15703590808376	7.2172879469682
0.64711393944275	0.15762915147990	7.2399311281529
0.64916176836503	0.15803681082432	7.2623538379694
0.65120959728732	0.15815654122749	7.2847723822792
0.65325742620961	0.15808465819664	7.3074051527132
0.65530525513189	0.15804873834392	7.3303220831045
0.65735308405418	0.15825008790099	7.3533971994731
0.65940091297647	0.15872511649430	7.3763964459110
0.66144874189876	0.15932107151679	7.3991395672942
0.66349657082104	0.15980228364727	7.4216240939243
0.66554439974333	0.16001303596006	7.4440261566805
0.66759222866562	0.15998450874870	7.4665781850802
0.66964005758790	0.15991235977269	7.4894084033954
0.67168788651019	0.16002103386303	7.5124529519768
0.67373571543248	0.16040889463929	7.5355008534716
0.67578354435477	0.16098102873254	7.5583401758792
0.67783137327705	0.16151561559971	7.5809041416054
0.67987920219934	0.16181746120937	7.6033164619197
0.68192703112163	0.16185243300334	7.6258051329977
0.68397486004391	0.16177021253353	7.6485447547662
0.68602268896620	0.16180021718082	7.6715364186148
0.68807051788849	0.16209304876933	7.6946077886992
0.69011834681078	0.16261703454251	7.7175327479135
0.69216617573306	0.16318092512989	7.7401875554787
0.69421400465535	0.16356650480441	7.7626356846968
0.69626183357764	0.16367917068444	7.7850831862737
0.69830966249993	0.16361258046927	7.8077359582463
0.70035749142221	0.16358319756114	7.8306577861176
0.70240532034450	0.16378046639779	7.8537270262763
0.70445314926679	0.16423630840128	7.8767213428088
0.70650097818907	0.16480383043256	7.8994714840522
0.70854880711136	0.16525942628116	7.9219777548347
0.71059663603365	0.16545730970700	7.9444090465978
0.71264446495594	0.16542968921926	7.9669856271653
0.71469229387822	0.16536375832361	7.9898270339604
0.71674012280051	0.16547192191371	8.0128701089159
0.71878795172280	0.16584522089974	8.0359133776304
0.72083578064508	0.16639109968163	8.0587566065077
0.72288360956737	0.16689805302300	8.0813388823326
0.72493143848966	0.16718201140533	8.1037800068100
0.72697926741195	0.16721316075416	8.1262970889692
0.72902709633423	0.16713583034870	8.1490544007887
0.73107492525652	0.16716820292154	8.1720503264211
0.73312275417881	0.16745153099876	8.1951192029053
0.73517058310109	0.16795306044283	8.2180462840122
0.73721841202338	0.16848937456448	8.2407160569942
0.73926624094567	0.16885354165361	8.2631914855386
0.74131406986796	0.16895793562032	8.2856698263119
0.74336189879024	0.16889416763037	8.3083460167009
0.74540972771253	0.16886914913899	8.3312782412824
0.74745755663482	0.16906190526741	8.3543483809460
0.74950538555710	0.16950022348661	8.3773442214881
0.75155321447939	0.17004212632158	8.4001062132614
0.75360104340168	0.17047450741516	8.4226372945215
0.75564887232397	0.17066041443887	8.4451001884796
0.75769670124625	0.17063319626636	8.4677045053960
0.75974453016854	0.17057280022607	8.4905619716638
0.76179235909083	0.17068105278803	8.5136097676750
0.76384018801311	0.17104235959344	8.5366545707570
0.76588801693540	0.17156596373377	8.5595064324493
