#Parameters = {C_1=27.02612532093; C_2=108.39586814454; Conductivity=10000; Conductivity_Mo=17900000; Conductivity_MoGr=1000000; Ip=111.71425907497; Pipe_lenght=40; Pipe_r=30; beta=1; cells_wave=20; conductivity_copper=59500000; d=-408.39586814454; half_gap_x=30; half_gap_y=2.9738746790698; half_gap_z=150; mu_copper=0.999994; offset_x=5; offset_y=1; sigma_z=5; teta=14; thcoll=27.02612532093; translate_z=-258.39586814454; wakelength=20000}
#"Frequency / GHz"	"Z (2) [Re / Ohm]"	"Z (2) [Im / Ohm]"
#-------------------------------------------------------
0.0000000000000	-0.12192902199873	-2.8161929662343e-11
0.020478289222872	0.00077638786422422	0.28722151598431
0.040956578445743	0.043838930017974	0.51864715738061
0.061434867668615	0.058569559649521	0.74417515025891
0.081913156891487	0.079495868750483	0.97506416905018
0.10239144611436	0.096242577581425	1.1916372301762
0.12286973533723	0.10180243372841	1.4136207913622
0.14334802456010	0.11297916246384	1.6375340019487
0.16382631378297	0.11941790342656	1.8559391184254
0.18430460300585	0.12312514767604	2.0803609790284
0.20478289222872	0.13114467365259	2.3029653692332
0.22526118145159	0.13449750839243	2.5237991054095
0.24573947067446	0.13892818171141	2.7488793747453
0.26621775989733	0.14520859725676	2.9706101993775
0.28669604912020	0.14779929911429	3.1931086679328
0.30717433834308	0.15305072524646	3.4175981141640
0.32765262756595	0.15789560270151	3.6388982843638
0.34813091678882	0.16069351307875	3.8623701768935
0.36860920601169	0.16623318873806	4.0857624610877
0.38908749523456	0.16991530892116	4.3071422414294
0.40956578445743	0.17330812998522	4.5309622904988
0.43004407368031	0.17854400684791	4.7532809522556
0.45052236290318	0.18147463166282	4.9751178901564
0.47100065212605	0.18547556393426	5.1987590912717
0.49147894134892	0.18999134889040	5.4203516947619
0.51195723057179	0.19263824382827	5.6427815993323
0.53243551979466	0.19700160917831	5.8658925159848
0.55291380901754	0.20064599402621	6.0872431875753
0.57339209824041	0.20340237899456	6.3101657231192
0.59387038746328	0.20775803335601	6.5326312181739
0.61434867668615	0.21064072101371	6.7541902740710
0.63482696590902	0.21372428433873	6.9773501818149
0.65530525513189	0.21771551580879	7.1992883347174
0.67578354435477	0.22012289610390	7.4213494938428
0.69626183357764	0.22353826448020	7.6444599796870
0.71674012280051	0.22693421914569	7.8661595931792
0.73721841202338	0.22920809454879	8.0888078714290
0.75769670124625	0.23278184792056	8.3116665078321
0.77817499046912	0.23553528715056	8.5334809993217
0.79865327969200	0.23795061309363	8.7566146369990
0.81913156891487	0.24141821133648	8.9791783966712
0.83960985813774	0.24365782334093	9.2014163530083
0.86008814736061	0.24634315583202	9.4248278296611
0.88056643658348	0.24945854762831	9.6472239890366
0.90104472580636	0.25142682250198	9.8700650219246
0.92152301502923	0.25434381243945	10.093542117945
0.94200130425210	0.25696657310086	10.316017479268
0.96247959347497	0.25892398657986	10.539481317566
0.98295788269784	0.26190506540894	10.762899317494
1.0034361719207	0.26404254942985	10.985735059044
1.0239144611436	0.26617800285786	11.209708443267
1.0443927503665	0.26900508152367	11.433079234339
1.0648710395893	0.27079710333172	11.656501354719
1.0853493288122	0.27317118500959	11.880808220172
1.1058276180351	0.27566348464472	12.104277753904
1.1263059072579	0.27732348751990	12.328396135747
1.1467841964808	0.27986374856834	12.552881431134
1.1672624857037	0.28194325415391	12.776677465812
1.1877407749266	0.28367642110881	13.001471061903
1.2082190641494	0.28621865560313	13.226070147553
1.2286973533723	0.28793248579345	13.450426974086
1.2491756425952	0.28986488327795	13.675777746739
1.2696539318180	0.29222444095394	13.900546750510
1.2901322210409	0.29371938987758	14.125632777176
1.3106105102638	0.29586034504417	14.351391995497
1.3310887994867	0.29790340812476	14.576491921132
1.3515670887095	0.29936521660171	14.802368361167
1.3720453779324	0.30161358608663	15.028429775607
1.3925236671553	0.30330364781654	15.254076717204
1.4130019563781	0.30488692339295	15.480701158233
1.4334802456010	0.30707935150460	15.707056178513
1.4539585348239	0.30848743265726	15.933455922017
1.4744368240468	0.31026487840730	16.160723535763
1.4949151132696	0.31224540398364	16.387475522348
1.5153934024925	0.31352133982740	16.614764495754
1.5358716917154	0.31546648621387	16.842567434740
1.5563499809382	0.31714811420645	17.069901459079
1.5768282701611	0.31846235113437	17.298115549999
1.5973065593840	0.32046688878717	17.526399185723
1.6177848486069	0.32186053768421	17.754524596325
1.6382631378297	0.32333897271172	17.983609119800
1.6587414270526	0.32525743222488	18.212408043051
1.6792197162755	0.32646131537119	18.441498463985
1.6996980054984	0.32813951538827	18.671355111150
1.7201762947212	0.32984513590623	18.900797961194
1.7406545839441	0.33100285609010	19.130952389361
1.7611328731670	0.33281862356790	19.361503970049
1.7816111623898	0.33425281048509	19.591786473122
1.8020894516127	0.33550160478934	19.823021334092
1.8225677408356	0.33732806089462	20.054264571193
1.8430460300585	0.33852437838653	20.285596481544
1.8635243192813	0.33994826894755	20.517866352986
1.8840026085042	0.34164822850549	20.749892301865
1.9044808977271	0.34271780087920	20.982440528073
1.9249591869499	0.34431963432866	21.215681334183
1.9454374761728	0.34579747219103	21.448660537133
1.9659157653957	0.34688135210149	21.682513558074
1.9863940546186	0.34858185201632	21.916695738181
2.0068723438414	0.34981456003399	22.150841464761
2.0273506330643	0.35102647372336	22.386012505813
2.0478289222872	0.35269621785607	22.621186750288
2.0683072115100	0.35374012135607	22.856709378545
2.0887855007329	0.35512586402901	23.093171115557
2.1092637899558	0.35663782411719	23.329483925453
2.1297420791787	0.35760685131654	23.566550035295
2.1502203684015	0.35913268806347	23.804284884589
2.1706986576244	0.36041272567833	24.041957861936
2.1911769468473	0.36143490532002	24.280667830950
2.2116552360701	0.36300397414395	24.519713698035
2.2321335252930	0.36405583893578	24.758997552655
2.2526118145159	0.36522088945490	24.999392552213
2.2730901037388	0.36670722477506	25.239872621173
2.2935683929616	0.36760248402085	25.480999484409
2.3140466821845	0.36892006582083	25.723100270452
2.3345249714074	0.37020763202932	25.965232702369
2.3550032606302	0.37104849233223	26.208393472687
2.3754815498531	0.37244049126670	26.452262777961
2.3959598390760	0.37346297491983	26.696350552519
2.4164381282989	0.37434322253553	26.941703314049
2.4369164175217	0.37568048311390	27.187502290817
2.4573947067446	0.37645177036361	27.433899233120
2.4778729959675	0.37743143248356	27.681596254221
2.4983512851903	0.37859786543599	27.929606617604
2.5188295744132	0.37921819494245	28.178666010450
2.5393078636361	0.38031238983230	28.428881878261
2.5597861528590	0.38125817808495	28.679484541430
2.5802644420818	0.38188050499829	28.931515425779
2.6007427313047	0.38305515081375	29.184476217934
2.6212210205276	0.38381180759426	29.438110597114
2.6416993097505	0.38457995548432	29.693376039725
2.6621775989733	0.38576036858171	29.949395651619
2.6826558881962	0.38641953147192	30.206529709394
2.7031341774191	0.38741222228928	30.465300783609
2.7236124666419	0.38851596079027	30.724822056778
2.7440907558648	0.38919912330916	30.985948398626
2.7645690450877	0.39041541084800	31.248590296687
2.7850473343106	0.39140835590987	31.512209617843
2.8055256235334	0.39224582917340	31.777857955097
2.8260039127563	0.39363323209110	32.044902645661
2.8464822019792	0.39457413746270	32.313363688795
2.8669604912020	0.39568448274376	32.584127266081
2.8874387804249	0.39717781511762	32.856315313865
2.9079170696478	0.39821188366025	33.130497581462
2.9283953588707	0.39967391693566	33.407099348752
2.9488736480935	0.40122428796836	33.685416346178
2.9693519373164	0.40252692463520	33.966366823756
2.9898302265393	0.40436023731298	34.249792163982
3.0103085157621	0.40596064498168	34.535539548550
3.0307868049850	0.40767488097273	34.824584476330
3.0512650942079	0.40985678865006	35.116282359642
3.0717433834308	0.41158142903213	35.411212735441
3.0922216726536	0.41379818700117	35.710160637877
3.1126999618765	0.41632241358367	36.012300348654
3.1331782510994	0.41837215593836	36.318854450910
3.1536565403222	0.42116881812831	36.630323436381
3.1741348295451	0.42412124052181	36.946152315448
3.1946131187680	0.42685479598357	37.267909901047
3.2150914079909	0.43039390133877	37.595923793041
3.2355696972137	0.43405071459058	37.930433655495
3.2560479864366	0.43804827979038	38.273067248302
3.2765262756595	0.44282318425802	38.624305942438
3.2970045648823	0.44794670956289	38.985743048329
3.3174828541052	0.45440802244740	39.359162687470
3.3379611433281	0.46208243277128	39.745820326451
3.3584394325510	0.47118724891123	40.149394622998
3.3789177217738	0.48394334102986	40.572936093373
3.3993960109967	0.50088641768254	41.019846387670
3.4198743002196	0.52416047081125	41.497455373188
3.4403525894424	0.55981241450408	42.013437638531
3.4608308786653	0.61506916435477	42.576690514560
3.4813091678882	0.70251888510592	43.201482529409
3.5017874571111	0.84872296240961	43.904930203724
3.5222657463339	1.1003123838474	44.698195050638
3.5427440355568	1.5300437500370	45.576057406108
3.5632223247797	2.2508630841162	46.482806400570
3.5837006140025	3.3671292925030	47.226353385515
3.6041789032254	4.7833850871867	47.488643683118
3.6246571924483	6.1049404024840	47.104520058796
3.6451354816712	6.9289066434890	46.311995323192
3.6656137708940	7.2171620627515	45.542736217720
3.6860920601169	7.2209117820519	45.016495834596
3.7065703493398	7.1434253363873	44.702940348410
3.7270486385627	7.0611662316086	44.533576670254
3.7475269277855	7.0149131217427	44.449572916908
3.7680052170084	6.9990954302168	44.389328032221
3.7884835062313	6.9845140658569	44.336913091315
3.8089617954541	6.9652652633652	44.290057955586
3.8294400846770	6.9271376090661	44.239707116090
3.8499183738999	6.8537144560750	44.198660868458
3.8703966631228	6.7499622793763	44.182218155621
3.8908749523456	6.6213409517505	44.193010965546
3.9113532415685	6.4695330391328	44.238716883955
3.9318315307914	6.3066175557161	44.326395429667
3.9523098200142	6.1437371151927	44.451876539896
3.9727881092371	5.9850438551982	44.611743345148
3.9932663984600	5.8371074033251	44.804141419858
4.0137446876829	5.7056288212649	45.022696499269
4.0342229769057	5.5919654696549	45.261114933850
4.0547012661286	5.4964805799492	45.515076566951
4.0751795553515	5.4198386129299	45.780821507108
4.0956578445743	5.3623479303165	46.053487596557
4.1161361337972	5.3214031602199	46.328702288097
4.1366144230201	5.2949672076330	46.605489670270
4.1570927122430	5.2832936865036	46.881013211391
4.1775710014658	5.2828607453913	47.151524392674
4.1980492906887	5.2903574789534	47.417712001801
4.2185275799116	5.3057036077706	47.678623199557
4.2390058691344	5.3255341923772	47.931894134126
4.2594841583573	5.3463116576491	48.179056730936
4.2799624475802	5.3673130436632	48.420987474824
4.3004407368031	5.3862515919092	48.657434973675
4.3209190260259	5.4004876392176	48.890250607362
4.3413973152488	5.4089846831425	49.121867077595
4.3618756044717	5.4114503209126	49.354106604858
4.3823538936945	5.4070891821568	49.588453932734
4.4028321829174	5.3952117925799	49.828027636438
4.4233104721403	5.3778703120284	50.075651570902
4.4437887613632	5.3562233691914	50.331607086077
4.4642670505860	5.3302193273893	50.598546046783
4.4847453398089	5.3036094236159	50.878875011823
4.5052236290318	5.2786764052560	51.171293051098
4.5257019182546	5.2558219926403	51.477256119891
4.5461802074775	5.2392627258865	51.797845419864
4.5666584967004	5.2313325403087	52.130554179836
4.5871367859233	5.2326458024733	52.475506304876
4.6076150751461	5.2467575081957	52.832223705716
4.6280933643690	5.2753487116907	53.197729391979
4.6485716535919	5.3191004400082	53.570928393060
4.6690499428147	5.3801328285293	53.949972170063
4.6895282320376	5.4591618282787	54.332052507016
4.7100065212605	5.5566858460375	54.715050456077
4.7304848104834	5.6729219540946	55.096265918411
4.7509630997062	5.8075247769695	55.473541885909
4.7714413889291	5.9604256056598	55.844180137333
4.7919196781520	6.1298970328003	56.205500316026
4.8123979673749	6.3147136645142	56.556401095680
4.8328762565977	6.5140572674217	56.894341395417
4.8533545458206	6.7249056253760	57.217588359292
4.8738328350435	6.9457322426284	57.526195159429
4.8943111242663	7.1752167370149	57.818380310046
4.9147894134892	7.4102041176458	58.093725655546
4.9352677027121	7.6494924871419	58.352908406251
4.9557459919350	7.8915711820568	58.594981101670
4.9762242811578	8.1340632845104	58.820460979400
4.9967025703807	8.3761528033472	59.029783308216
5.0171808596036	8.6160640620405	59.222649914425
5.0376591488264	8.8523491202136	59.399962632800
5.0581374380493	9.0840604487315	59.561495952090
5.0786157272722	9.3088872489226	59.707671386319
5.0990940164951	9.5259793750775	59.839634565252
5.1195723057179	9.7338073625666	59.956897499605
5.1400505949408	9.9296299797348	60.060944756340
5.1605288841637	10.112956266181	60.153397259094
5.1810071733865	10.281861718580	60.234336996190
5.2014854626094	10.433897697368	60.306453198002
5.2219637518323	10.569026143595	60.371970625144
5.2424420410552	10.685711786732	60.432095171473
5.2629203302780	10.782768148799	60.490225029399
5.2833986195009	10.860781841146	60.548860277097
5.3038769087238	10.919405094095	60.610201238661
5.3243551979466	10.959244681990	60.677327190282
5.3448334871695	10.981383756443	60.752396368961
5.3653117763924	10.986924766831	60.837998442182
5.3857900656153	10.978012879855	60.935949432794
5.4062683548381	10.955811247551	61.047643814322
5.4267466440610	10.922574230385	61.175443564773
5.4472249332839	10.881211371761	61.319564378699
5.4677032225067	10.832632864961	61.480639199503
5.4881815117296	10.779718400681	61.660385178927
5.5086598009525	10.725339070409	61.857704356753
5.5291380901754	10.670160279445	62.072708150694
5.5496163793982	10.617178067684	62.306201570995
5.5700946686211	10.568682067691	62.556371731258
5.5905729578440	10.525357165496	62.823001211567
5.6110512470668	10.489873707655	63.105825598963
5.6315295362897	10.463710360624	63.402920564396
5.6520078255126	10.447838078322	63.713762227232
5.6724861147355	10.444230241842	64.037023348651
5.6929644039583	10.453590030805	64.371091066531
5.7134426931812	10.477241949112	64.715025604108
5.7339209824041	10.516204160610	65.066657469658
5.7543992716269	10.570612743501	65.424842828812
5.7748775608498	10.641940382454	65.788096325616
5.7953558500727	10.730154514181	66.153811259564
5.8158341392956	10.835071332002	66.521214259174
5.8363124285184	10.957880048785	66.888253846915
5.8567907177413	11.097577745457	67.252386911949
5.8772690069642	11.253818231176	67.612967988078
5.8977472961871	11.426999514164	67.967575395661
5.9182255854099	11.615390901073	68.314223237963
5.9387038746328	11.818504426359	68.652177867166
5.9591821638557	12.035587531089	68.979082849833
5.9796604530785	12.264566425838	69.293886575888
6.0001387423014	12.504760083241	69.595703921350
6.0206170315243	12.754263832359	69.882793036971
6.0410953207472	13.011135459953	70.155170892218
6.0615736099700	13.274482928765	70.411888315933
6.0820518991929	13.541661845244	70.652227889664
6.1025301884158	13.811284875922	70.877064331271
6.1230084776386	14.082285535549	71.085519797807
6.1434867668615	14.351917854802	71.277946150761
6.1639650560844	14.619490254792	71.455563416854
6.1844433453073	14.883760307161	71.617698368050
6.2049216345301	15.142410348226	71.765466025293
6.2253999237530	15.395154250395	71.899903530140
6.2458782129759	15.640485024924	72.020772421540
6.2663565021987	15.876742769333	72.129578746610
6.2868347914216	16.103497297849	72.227017500317
6.3073130806445	16.318979578085	72.313707994401
6.3277913698674	16.522254433774	72.391379110973
6.3482696590902	16.712415208567	72.460704119954
6.3687479483131	16.887814563989	72.523583145875
6.3892262375360	17.048410956090	72.581932012321
6.4097045267588	17.193069391675	72.636839716114
6.4301828159817	17.321026904463	72.691437131117
6.4506611052046	17.433379554930	72.747592643574
6.4711393944275	17.529421422669	72.806850640038
6.4916176836503	17.609921527007	72.872765597601
6.5120959728732	17.677049000531	72.946617776915
6.5325742620961	17.731018663358	73.029948273278
6.5530525513189	17.774085075657	73.125512320135
6.5735308405418	17.808860023283	73.233522579472
6.5940091297647	17.836441170129	73.354973670683
6.6144874189876	17.859773281045	73.490914902360
6.6349657082104	17.880993304804	73.640521149325
6.6554439974333	17.901672458977	73.804025581374
6.6759222866562	17.924399562951	73.980640516279
6.6964005758790	17.950192697230	74.169056657364
6.7168788651019	17.980665767849	74.368876690048
6.7373571543248	18.017290609849	74.578036930239
6.7578354435477	18.059906962664	74.795444860492
6.7783137327705	18.109877985288	75.020331846596
6.7987920219934	18.167307120325	75.250253437878
6.8192703112163	18.231292019566	75.484813496586
6.8397486004392	18.302769867833	75.723117882674
6.8602268896620	18.380709054484	75.963236851627
6.8807051788849	18.464127707536	76.205589446611
6.9011834681078	18.553476547109	76.449374424552
6.9216617573306	18.647200740275	76.693816663948
6.9421400465535	18.744886954743	76.939927667229
6.9626183357764	18.846610632849	77.187162039870
6.9830966249993	18.951114710421	77.436059526621
7.0035749142221	19.058993287401	77.687717579443
7.0240532034450	19.170215705343	77.941847270489
7.0445314926679	19.284553203430	78.199858413890
7.0650097818907	19.403642129431	78.462255921878
7.0854880711136	19.527600385077	78.728781168754
7.1059663603365	19.657495205816	79.000797991824
7.1264446495594	19.795515000042	79.277619984813
7.1469229387822	19.941950526992	79.558681536122
7.1674012280051	20.098758111400	79.844337697149
7.1878795172280	20.267772034021	80.132529595115
7.2083578064508	20.449195031554	80.422184324434
7.2288360956737	20.644922357846	80.712143311873
7.2493143848966	20.855486917359	80.999430507246
7.2697926741195	21.080626282654	81.282598506538
7.2902709633423	21.321124987231	81.559226211237
7.3107492525652	21.575706647041	81.826435362341
7.3312275417881	21.843447083902	82.082867311085
7.3517058310109	22.123418388901	82.325754637531
7.3721841202338	22.412815249416	82.553482742077
7.3926624094567	22.710271578085	82.765322257813
7.4131406986796	23.013353393705	82.959252133658
7.4336189879024	23.318763659802	83.135618727939
7.4540972771253	23.625274463589	83.294536985561
7.4745755663482	23.929841472920	83.435359752510
7.4950538555710	24.229927779001	83.560144801002
7.5155321447939	24.524940763551	83.669527553733
7.5360104340168	24.812220145823	83.764094885970
7.5564887232397	25.090677695357	83.846532413541
7.5769670124625	25.360285979990	83.917425029579
7.5974453016854	25.619294574604	83.978006559468
7.6179235909083	25.867818510188	84.030380605344
7.6384018801311	26.105760146553	84.074841147624
7.6588801693540	26.332282908156	84.112822752699
7.6793584585769	26.547876167115	84.145219503160
7.6998367477998	26.751687244575	84.172384746237
7.7203150370226	26.943616866583	84.195935578393
7.7407933262455	27.123819460941	84.215698280783
7.7612716154684	27.290472812275	84.232718632582
7.7817499046912	27.444130788590	84.249080374342
7.8022281939141	27.584547883941	84.264155331712
7.8227064831370	27.709303295427	84.279983297755
7.8431847723599	27.819565967384	84.299447319106
7.8636630615827	27.915459538276	84.322041773086
7.8841413508056	27.994436654611	84.350002525829
7.9046196400285	28.057516969329	84.387427604386
7.9250979292514	28.106867879187	84.434146312474
7.9455762184742	28.137894713967	84.488169846838
7.9660545076971	28.139568495439	84.558871447940
7.9865327969200	28.115646069069	84.671964621713
