#Parameters = {C_1=13.247618914885; C_2=49.440786869662; Conductivity=10000000; Conductivity_Mo=17900000; Conductivity_MoGr=1000000; Ip=51.184868986893; Pipe_lenght=40; Pipe_r=30; beta=1; cells_wave=20; conductivity_copper=59500000; d=-349.44078686966; half_gap_x=16.752381085115; half_gap_y=30; half_gap_z=150; mu_copper=0.999994; offset=6.7009524340459; offset_x=1; offset_y=5; sigma_z=5; teta=15; thcoll=13.247618914885; translate_z=-199.44078686966; wakelength=20000}
#"Frequency / GHz"	"Z [Re / Ohm]"	"Z [Im / Ohm]"
#-----------------------------------------------
0.0000000000000	-0.090956193211029	-4.6268832478021e-13
0.0020478289222872	-0.078860703275560	0.047071523283274
0.0040956578445743	-0.048144958455796	0.079275999764064
0.0061434867668615	-0.012501704261713	0.089248103656436
0.0081913156891487	0.013546578846765	0.080397462912831
0.010239144611436	0.021993787536790	0.064251583470290
0.012286973533723	0.014637127217704	0.053655659861479
0.014334802456010	0.00073746875534939	0.055930767192301
0.016382631378297	-0.0091491970349785	0.069865841763423
0.018430460300585	-0.0092628319842664	0.087893579161411
0.020478289222872	-0.0011160304346165	0.10162672599902
0.022526118145159	0.0086994323894537	0.10708745465933
0.024573947067446	0.013499191995793	0.10650027400358
0.026621775989733	0.010874804066375	0.10594361913894
0.028669604912020	0.0037580042122807	0.11081536148517
0.030717433834308	-0.0021444422710427	0.12226537028808
0.032765262756595	-0.0025005015841991	0.13682806198720
0.034813091678882	0.0028094516294890	0.14919820859750
0.036860920601169	0.0099534594016995	0.15602164434390
0.038908749523456	0.014087017275744	0.15806235845426
0.040956578445743	0.012779826442514	0.15939099853661
0.043004407368031	0.0075571503617410	0.16434705004300
0.045052236290318	0.0026136192981774	0.17449516670661
0.047100065212605	0.0017446547810895	0.18767203476548
0.049147894134892	0.0057079587957157	0.19967358788533
0.051195723057179	0.011821947043868	0.20728751206369
0.053243551979466	0.015981025378714	0.21050676637959
0.055291380901754	0.015587908133051	0.21241849018990
0.057339209824041	0.011326721380692	0.21693335382837
0.059387038746328	0.0065814666939702	0.22601358029466
0.061434867668615	0.0049819148943416	0.23834987678439
0.063482696590902	0.0078468060675858	0.25036744042327
0.065530525513189	0.013313511405221	0.25879301412400
0.067578354435477	0.017718575412013	0.26294803150283
0.069626183357764	0.018209211119963	0.26517106435630
0.071674012280051	0.014731367518395	0.26911643910955
0.073721841202338	0.010016790614527	0.27716410993821
0.075769670124625	0.0076176720056726	0.28877050537806
0.077817499046912	0.0094001425225184	0.30089684118691
0.079865327969200	0.014259832410232	0.31017918899351
0.081913156891487	0.018938365993619	0.31529355236104
0.083960985813774	0.020337422835212	0.31785815216759
0.086008814736061	0.017689849772897	0.32126262371768
0.088056643658348	0.013070858620920	0.32827118329386
0.090104472580635	0.0099127986536635	0.33909197789031
0.092152301502923	0.010586227397344	0.35125742034637
0.094200130425210	0.014749505627715	0.36137876438107
0.096247959347497	0.019612796026420	0.36752806104691
0.098295788269784	0.021912641586824	0.37057582416887
0.10034361719207	0.020200538911360	0.37355922866067
0.10239144611436	0.015843106641465	0.37954012978852
0.10443927503665	0.012045860910996	0.38946262050505
0.10648710395893	0.011598617548995	0.40150707740991
0.10853493288122	0.014927328789469	0.41238052317435
0.11058276180351	0.019810871571624	0.41962798717973
0.11263059072579	0.022949105634455	0.42334368812803
0.11467841964808	0.022275210147529	0.42609115899191
0.11672624857037	0.018393377660737	0.43109923025743
0.11877407749266	0.014143533364338	0.44000330570948
0.12082190641494	0.012607436245051	0.45171084628576
0.12286973533723	0.014955859552875	0.46317665774782
0.12491756425952	0.019639634971351	0.47153728312115
0.12696539318180	0.023482285218874	0.47610896143252
0.12901322210409	0.023903290472883	0.47885628545339
0.13106105102638	0.020716527876580	0.48301155621590
0.13310887994867	0.016251719373572	0.49081538119445
0.13515670887095	0.013721055014511	0.50195725234120
0.13720453779324	0.014976392138735	0.51380037565691
0.13925236671553	0.019222443641348	0.52322738414819
0.14130019563781	0.023579254411790	0.52881491521734
0.14334802456010	0.025095680800896	0.53182074339311
0.14539585348239	0.022806321120328	0.53529968223180
0.14744368240468	0.018398910206956	0.54197006470390
0.14949151132696	0.015031573628159	0.55232064901717
0.15153934024925	0.015129082130669	0.56427566711745
0.15358716917154	0.018695592551966	0.57464687111193
0.15563499809382	0.023317299170636	0.58135669502849
0.15768282701611	0.025848758149550	0.58488272340836
0.15973065593840	0.024604756052657	0.58791984942205
0.16177848486069	0.020530807939697	0.59349955915346
0.16382631378297	0.016539970914445	0.60287888268861
0.16587414270526	0.015481576641465	0.61466866954627
0.16792197162755	0.018158293221185	0.62580513741374
0.16996980054984	0.022771135944670	0.63368489050861
0.17201762947212	0.026175704527274	0.63797569204820
0.17406545839441	0.026072237131335	0.64084391870894
0.17611328731670	0.022604326616432	0.64544342203292
0.17816111623898	0.018255375156140	0.65371999205628
0.18020894516127	0.016117757682591	0.66505959188272
0.18225677408356	0.017741114767078	0.67671901682220
0.18430460300585	0.022056722092968	0.68573661263732
0.18635243192813	0.026124168850204	0.69099214572763
0.18840026085042	0.027178425673635	0.69398340841903
0.19044808977271	0.024552201290221	0.69778152472039
0.19249591869499	0.020137370551964	0.70489380639696
0.19454374761728	0.017066730758687	0.71552128125367
0.19659157653957	0.017534769309486	0.72742155479556
0.19863940546186	0.021273243154634	0.73747025190697
0.20068723438414	0.025740250397856	0.74383369210696
0.20273506330643	0.027889329663908	0.74724210179132
0.20478289222872	0.026287334623749	0.75047960356495
0.20683072115100	0.022108979236173	0.75644738772718
0.20887855007329	0.018318193917095	0.76614743802733
0.21092637899558	0.017606994838055	0.77798785282192
0.21297420791787	0.020525161087372	0.78889108878726
0.21502203684015	0.025099940022649	0.79643342918039
0.21706986576244	0.028208581636317	0.80052839929707
0.21911769468473	0.027748653232374	0.80348511748336
0.22116552360701	0.024097856646598	0.80840247133869
0.22321335252930	0.019849961541411	0.81701593500476
0.22526118145159	0.018011682989822	0.82849300094497
0.22730901037388	0.019914052092653	0.84001307760975
0.22935683929616	0.024289044191857	0.84872773502953
0.23140466821845	0.028151835305901	0.85373894307384
0.23345249714074	0.028874701187490	0.85672154006415
0.23550032606302	0.026011597600884	0.86075865287844
0.23754815498531	0.021606660656198	0.86819995157797
0.23959598390760	0.018773440429269	0.87903049528093
0.24164381282989	0.019532451518099	0.89088236664272
0.24369164175217	0.023408866246699	0.90067997579878
0.24573947067446	0.027763444184062	0.90677576232987
0.24778729959675	0.029625917952551	0.91009333098744
0.24983512851903	0.027757214260638	0.91348502932881
0.25188295744132	0.023508829168223	0.91975093660377
0.25393078636361	0.019883483184361	0.92969513117318
0.25597861528590	0.019450052657053	0.94156841991728
0.25802644420818	0.022560639710146	0.95228360694948
0.26007427313047	0.027107130419181	0.95955889467885
0.26212210205276	0.029985436998139	0.96350129772280
0.26416993097504	0.029250346639657	0.96653138400104
0.26621775989733	0.025465133477305	0.97170235828669
0.26826558881962	0.021309664202517	0.98058079052967
0.27031341774191	0.019719740719634	0.99215993348552
0.27236124666419	0.021849552326538	1.0035593130513
0.27440907558648	0.026271275146743	1.0120243694118
0.27645690450877	0.029966754220422	1.0168380075108
0.27850473343106	0.030422436228909	1.0198176292509
0.28055256235334	0.027373472164512	1.0240532759728
0.28260039127563	0.022986912470122	1.0317630828733
0.28464822019792	0.020357413757504	1.0427543662426
0.28669604912020	0.021359755840430	1.0545579088380
0.28874387804249	0.025348349029507	1.0641417404249
0.29079170696478	0.029605758335407	1.0700148963689
0.29283953588707	0.031228539659963	1.0732614784370
0.29488736480935	0.029141635031870	1.0767879317997
0.29693519373164	0.024843802315619	1.0833062485288
0.29898302265393	0.021367301291057	1.0934525674830
0.30103085157621	0.021174001848399	1.1053462935958
0.30307868049850	0.024447666250900	1.1158951968690
0.30512650942079	0.028966922634374	1.1229407146606
0.30717433834308	0.031646648022247	1.1267551143762
0.30922216726536	0.030678163379476	1.1298521600364
0.31126999618765	0.026783569069276	1.1352430157773
0.31331782510994	0.022714384908880	1.1443475044101
0.31536565403222	0.021342645869477	1.1560095841059
0.31741348295451	0.023668789373510	1.1672996685371
0.31946131187680	0.028128068189542	1.1755469234857
0.32150914079909	0.031676280358257	1.1801917196448
0.32355696972137	0.031901430180780	1.1831734674214
0.32560479864366	0.028696557377021	1.1875851252430
0.32765262756595	0.024333621502048	1.1955278641130
0.32970045648823	0.021887477121493	1.2066539038821
0.33174828541052	0.023103231577781	1.2184079931130
0.33379611433281	0.027186098149615	1.2277997945758
0.33584394325510	0.031352850216328	1.2334777865859
0.33789177217738	0.032762193600746	1.2366663985905
0.33993960109967	0.030485189076285	1.2403166503137
0.34198743002196	0.026149290618637	1.2470595363132
0.34403525894424	0.022809554097385	1.2573815502233
0.34608308786653	0.022829990089510	1.2692874978921
0.34813091678882	0.026244322700956	1.2796842402414
0.35017874571111	0.030732788758576	1.2865256471565
0.35222657463339	0.033230884779785	1.2902313371005
0.35427440355568	0.032054374028009	1.2933955218569
0.35632223247797	0.028067032152145	1.2989880210684
0.35837006140025	0.024081531114194	1.3082949889675
0.36041789032254	0.022909046881230	1.3200272300180
0.36246571924483	0.025410057120120	1.3312142592468
0.36451354816712	0.029897827277146	1.3392640413723
0.36656137708940	0.033308063092366	1.3437601848197
0.36860920601169	0.033323613732371	1.3467505381159
0.37065703493398	0.029981017144010	1.3513272109449
0.37270486385627	0.025645060454010	1.3594826577901
0.37475269277855	0.023369105249886	1.3707282989021
0.37680052170084	0.024778092933562	1.3824333613364
0.37884835062313	0.028941989562055	1.3916489169789
0.38089617954541	0.033020660199874	1.3971524276788
0.38294400846770	0.034232998265305	1.4002953122246
0.38499183738999	0.031785077102314	1.4040659776134
0.38703966631228	0.027420572282848	1.4110179651658
0.38908749523456	0.024211905122824	1.4214996122726
0.39113532415685	0.024430216254953	1.4334125390899
0.39318315307914	0.027970851498189	1.4436663563121
0.39523098200142	0.032425883715097	1.4503210829039
0.39727881092371	0.034753369041306	1.4539320451910
0.39932663984600	0.033386128052762	1.4571649351794
0.40137446876829	0.029318179694310	1.4629478986628
0.40342229769057	0.025415696321981	1.4724416770830
0.40547012661286	0.024430145197330	1.4842349323076
0.40751795553515	0.027090926963277	1.4953225594971
0.40956578445743	0.031599699141081	1.5031888205057
0.41161361337972	0.034876923496029	1.5075512812862
0.41366144230201	0.034696555099371	1.5105566698268
0.41570927122430	0.031229148885040	1.5152928726828
0.41775710014658	0.026923727363647	1.5236484992254
0.41980492906887	0.024810268080643	1.5350036938984
0.42185275799116	0.026399439092677	1.5466596974914
0.42390058691344	0.030635394167455	1.5557094405393
0.42594841583573	0.034627528526417	1.5610525931030
0.42799624475802	0.035654027091402	1.5641583442614
0.43004407368031	0.033048495219929	1.5680471579534
0.43209190260259	0.028661970601125	1.5751972319513
0.43413973152488	0.025580029312664	1.5858267262452
0.43618756044717	0.025984129255513	1.5977424128140
0.43823538936945	0.029639508828775	1.6078597171433
0.44028321829174	0.034057734504032	1.6143406581199
0.44233104721403	0.036221313862212	1.6178678822384
0.44437887613632	0.034675111281542	1.6211717062457
0.44642670505860	0.030535022429061	1.6271378837495
0.44847453398089	0.026714740781139	1.6368075174300
0.45052236290318	0.025906437136485	1.6486553519126
0.45257019182546	0.028714841164520	1.6596467246866
0.45461802074775	0.033237964280707	1.6673407279629
0.45666584967004	0.036385141127039	1.6715819954409
0.45871367859233	0.036019001141454	1.6746085614495
0.46076150751461	0.032436895019244	1.6795009389098
0.46280933643690	0.028165013889636	1.6880471926602
0.46485716535919	0.026207776320456	1.6995035948284
0.46690499428147	0.027965644824813	1.7111098535872
0.46895282320376	0.032264401821206	1.7200019581047
0.47100065212605	0.036168716884564	1.7251970525624
0.47304848104834	0.037016297457687	1.7282747481260
0.47509630997062	0.034262971227530	1.7322826056260
0.47714413889291	0.029859984163617	1.7396241956783
0.47919196781520	0.026901926459088	1.7503932976922
0.48123979673749	0.027482178811442	1.7623087168904
0.48328762565977	0.031242045776100	1.7722950179721
0.48533545458206	0.035619115405550	1.7786138244995
0.48738328350435	0.037622869173049	1.7820686965839
0.48943111242663	0.035907145428765	1.7854485046838
0.49147894134892	0.031703234107652	1.7915948913497
0.49352677027121	0.027966849807272	1.8014329660807
0.49557459919350	0.027329966835411	1.8133299778110
0.49762242811578	0.030276789736256	1.8242265420534
0.49967025703807	0.034807942243681	1.8317566601304
0.50171808596036	0.037825749876841	1.8358874598075
0.50376591488264	0.037280806017045	1.8389422680626
0.50581374380493	0.033592347895139	1.8439908453108
0.50786157272722	0.029358050466639	1.8527221468023
0.50990940164951	0.027554145367872	1.8642737006898
0.51195723057179	0.029472971485625	1.8758289410366
0.51400505949408	0.033827161546447	1.8845687741963
0.51605288841637	0.037641388862318	1.8896251599553
0.51810071733865	0.038313947107141	1.8926829309676
0.52014854626094	0.035419706626807	1.8968126346702
0.52219637518323	0.031005031764989	1.9043429647275
0.52424420410552	0.028170096555567	1.9152469731695
0.52629203302780	0.028920764786207	1.9271604117743
0.52833986195009	0.032778479114632	1.9370197070575
0.53038769087238	0.037111531501831	1.9431847518375
0.53243551979466	0.038958389204954	1.9465756022792
0.53448334871695	0.037079815790972	1.9500352870250
0.53653117763924	0.032817824332334	1.9563600279485
0.53857900656153	0.029166104534952	1.9663616261661
0.54062683548381	0.028695816298860	1.9783046559840
0.54267466440610	0.031773878122039	1.9891086395658
0.54472249332839	0.036308391647375	1.9964824221022
0.54677032225067	0.039197817331081	2.0005119094912
0.54881815117296	0.038479970767611	2.0036009074361
0.55086598009525	0.034691850266368	2.0088058205667
0.55291380901754	0.030497928784007	2.0177179007939
0.55496163793982	0.028844220259900	2.0293604074088
0.55700946686211	0.030916978873224	2.0408650038124
0.55905729578440	0.035320445953082	2.0494589718705
0.56110512470668	0.039043575315163	2.0543864791285
0.56315295362897	0.039546155821937	2.0574326275908
0.56520078255126	0.036519015535334	2.0616869551172
0.56724861147355	0.032098606142552	2.0694028938454
0.56929644039583	0.029387043470393	2.0804362303538
0.57134426931812	0.030302803939323	2.0923446476630
0.57339209824041	0.034251219680607	2.1020796369759
0.57543992716269	0.038536110897110	2.1080987120074
0.57748775608498	0.040227616212080	2.1114344512061
0.57953558500727	0.038192250102702	2.1149794670102
0.58158341392956	0.033878604613637	2.1214824482926
0.58363124285184	0.030314084139895	2.1316435834748
0.58567907177413	0.030007522768265	2.1436290389887
0.58772690069642	0.033210744537367	2.1543411452320
0.58977472961871	0.037743664335679	2.1615645007508
0.59182255854099	0.040504384640209	2.1655011514295
0.59387038746328	0.039618268432683	2.1686310450645
0.59591821638557	0.035737058865985	2.1739941547431
0.59796604530785	0.031587769284167	2.1830842641506
0.60001387423014	0.030083594216635	2.1948136824812
0.60206170315243	0.032305477318250	2.2062663974767
0.60410953207472	0.036752819367817	2.2147181513934
0.60615736099700	0.040382713309341	2.2195240259538
0.60820518991929	0.040717980427743	2.2225656721517
0.61025301884158	0.037563621498749	2.2269480544936
0.61230084776386	0.033142347861295	2.2348483660388
0.61434867668615	0.030554997019509	2.2460073608076
0.61639650560844	0.031632237801434	2.2579085187578
0.61844433453073	0.035665916801058	2.2675212249931
0.62049216345301	0.039899211505427	2.2734004849753
0.62253999237530	0.041436324341534	2.2766884412499
0.62458782129759	0.039248853240857	2.2803235689479
0.62663565021987	0.034888735457900	2.2870051054975
0.62868347914216	0.031413539450246	2.2973228128334
0.63073130806445	0.031268352173645	2.3093478989205
0.63277913698674	0.034591575238449	2.3199688263163
0.63482696590902	0.039118535189374	2.3270468600582
0.63687479483131	0.041750019481277	2.3308980726230
0.63892262375360	0.040699339824926	2.3340748783430
0.64097045267588	0.036730480596287	2.3395981083325
0.64301828159817	0.032629315344333	2.3488641848071
0.64506611052046	0.031273886407631	2.3606773034327
0.64711393944275	0.033640427829281	2.3720773879578
0.64916176836503	0.038126602973767	2.3803905562302
0.65120959728732	0.041661108855118	2.3850817307013
0.65325742620961	0.041831254773319	2.3881258143495
0.65530525513189	0.038554686888282	2.3926399623352
0.65735308405418	0.034136951114021	2.4007241796245
0.65940091297647	0.031674672017987	2.4120061614438
0.66144874189876	0.032910308487989	2.4238986928745
0.66349657082104	0.037024638124826	2.4333916421401
0.66554439974333	0.041203761531297	2.4391373503340
0.66759222866562	0.042588178691746	2.4423846865419
0.66964005758790	0.040253885244979	2.4461143911281
0.67168788651019	0.035852963383292	2.4529743639049
0.67373571543248	0.032469566189609	2.4634450961225
0.67578354435477	0.032483494602171	2.4755063075849
0.67783137327705	0.035921288337205	2.4860360747027
0.67987920219934	0.040437319869102	2.4929734988552
0.68192703112163	0.042938349700978	2.4967467646241
0.68397486004391	0.041726400280985	2.4999770515739
0.68602268896620	0.037675461239036	2.5056630458628
0.68807051788849	0.033626575484551	2.5151034948316
0.69011834681078	0.032419989023348	2.5269970161878
0.69216617573306	0.034927391786381	2.5383430915494
0.69421400465535	0.039447525078017	2.5465204484623
0.69626183357764	0.042884200236230	2.5511031932119
0.69830966249993	0.042891012462693	2.5541564102988
0.70035749142221	0.039497117208128	2.5588060777418
0.70240532034450	0.035087608481743	2.5670736516132
0.70445314926679	0.032751701755852	2.5784753411060
0.70650097818907	0.034142706049068	2.5903566742950
0.70854880711136	0.038332270386620	2.5997309837692
0.71059663603365	0.042452914789816	2.6053484801570
0.71264446495594	0.043684134965609	2.6085625285400
0.71469229387822	0.041206447131530	2.6123926874030
0.71674012280051	0.036769619833239	2.6194331910696
0.71878795172280	0.033481089619434	2.6300555772764
0.72083578064508	0.033653497609850	2.6421507317799
0.72288360956737	0.037202316496413	2.6525894360908
0.72493143848966	0.041703805728712	2.6593899932824
0.72697926741195	0.044073553580890	2.6630914068114
0.72902709633423	0.042703138608975	2.6663805996335
0.73107492525652	0.038574780228134	2.6722314984619
0.73312275417881	0.034581514658824	2.6818448249664
0.73517058310109	0.033523420794239	2.6938158207629
0.73721841202338	0.036167745048202	2.7051067976129
0.73926624094567	0.040716852188547	2.7131511996500
0.74131406986796	0.044052951521977	2.7176318061480
0.74336189879024	0.043897725998721	2.7207010847795
0.74540972771253	0.040390946695700	2.7254906392347
0.74745755663482	0.035994287590353	2.7339419359254
0.74950538555710	0.033786539361746	2.7454609635017
0.75155321447939	0.035330840975097	2.7573290659239
0.75360104340168	0.039591351533238	2.7665857967520
