#Parameters = {C_1=13.8; C_2=51.50230114445; Conductivity_W=18000000; Ip=53.319105611157; Pipe_lenght=40; Pipe_r=30; beta=1; cells_wave=20; conductivity_copper=59500000; d=-151.50230114445; half_gap_x=16.2; half_gap_y=30; half_gap_z=50; mu_copper=0.999994; offset=6.48; offset_x=1; offset_y=5; sigma_z=5; teta=15; thcoll=13.8; translate_z=-101.50230114445; wakelength=20000}
#"Frequency / GHz"	"Z [Re / Ohm]"	"Z [Im / Ohm]"
#-----------------------------------------------
0.0000000000000	0.16657967540373	-5.9391590054232e-13
0.0020478289222872	0.14784212734354	-0.055780713839603
0.0040956578445743	0.099504978566598	-0.089431787647503
0.0061434867668615	0.041274146438032	-0.089043419796132
0.0081913156891487	-0.0049551754728558	-0.057836135672242
0.010239144611436	-0.025303676484257	-0.011394735806896
0.012286973533723	-0.019392115440632	0.030955489009635
0.014334802456010	0.0013965984253264	0.055769930445161
0.016382631378297	0.021349243902967	0.061018551064585
0.018430460300585	0.029069854954491	0.055041192791783
0.020478289222872	0.022600736755385	0.050227291843088
0.022526118145159	0.0086770124745023	0.055492177643484
0.024573947067446	-0.0027139165460279	0.071860447342508
0.026621775989733	-0.0047770998010189	0.093232960915715
0.028669604912020	0.0024838668209152	0.11120440634628
0.030717433834308	0.013243176338006	0.12057144851148
0.032765262756595	0.020244398071849	0.12215161072824
0.034813091678882	0.019524178404139	0.12153016967174
0.036860920601169	0.012523935303557	0.12497991446210
0.038908749523456	0.0045658475682877	0.13540381903427
0.040956578445743	0.0010325693130749	0.15084347467236
0.043004407368031	0.0038963066281325	0.16623778342592
0.045052236290318	0.010771552627388	0.17700021578691
0.047100065212605	0.016864606213943	0.18195819848958
0.049147894134892	0.018309715680116	0.18382096027672
0.051195723057179	0.014618767725743	0.18708379564858
0.053243551979466	0.0087279799513123	0.19493769340980
0.055291380901754	0.0048001843290911	0.20727445213861
0.057339209824041	0.0053881883009105	0.22100721667288
0.059387038746328	0.0098640826704138	0.23232718493542
0.061434867668615	0.015056712034235	0.23927751363007
0.063482696590902	0.017526735246645	0.24292806515315
0.065530525513189	0.015869668599312	0.24646831717442
0.067578354435477	0.011522186575165	0.25295165734258
0.069626183357764	0.0076304659146766	0.26326933242254
0.071674012280051	0.0068484977757201	0.27568489931811
0.073721841202338	0.0095926726970068	0.28714727831460
0.075769670124625	0.013888731951600	0.29540693571262
0.077817499046912	0.016824921427630	0.30047979963596
0.079865327969200	0.016554593401800	0.30451676830722
0.081913156891487	0.013480785164213	0.31024980201549
0.083960985813774	0.0098719350951463	0.31912738378437
0.086008814736061	0.0082445443328069	0.33040399052886
0.088056643658348	0.0096575139897454	0.34174769198410
0.090104472580635	0.013067317830856	0.35088575134278
0.092152301502923	0.016127915369467	0.35713430940141
0.094200130425210	0.016831811802749	0.36178877934648
0.096247959347497	0.014850421167285	0.36716287748056
0.098295788269784	0.011684048577502	0.37498232508551
0.10034361719207	0.0095711013361671	0.38524338291033
0.10239144611436	0.0099440073627699	0.39628673477159
0.10443927503665	0.012492519314174	0.40598718637009
0.10648710395893	0.015442681176465	0.41321100923860
0.10853493288122	0.016815192515874	0.41854559405353
0.11058276180351	0.015774586694223	0.42383609168326
0.11263059072579	0.013153034112772	0.43088762023372
0.11467841964808	0.010824846107855	0.44024245835288
0.11672624857037	0.010397158828476	0.45085760726675
0.11877407749266	0.012128399638469	0.46086896570906
0.12082190641494	0.014799659184660	0.46888590027215
0.12286973533723	0.016593266382839	0.47491994749336
0.12491756425952	0.016348270245254	0.48032999707479
0.12696539318180	0.014328097550501	0.48685402538881
0.12901322210409	0.011995179419308	0.49541485635087
0.13106105102638	0.010977747021620	0.50551845543013
0.13310887994867	0.011956577139908	0.51563476261630
0.13515670887095	0.014230927287995	0.52427141103763
0.13720453779324	0.016237862502852	0.53098885064746
0.13925236671553	0.016642759749873	0.53666816847787
0.14130019563781	0.015241895849924	0.54287174315386
0.14334802456010	0.013068335620033	0.55075864238866
0.14539585348239	0.011652183816262	0.56030613249626
0.14744368240468	0.011963213261631	0.57035870050693
0.14949151132696	0.013765135420177	0.57944782085162
0.15153934024925	0.015810044594122	0.58680241355780
0.15358716917154	0.016717426326520	0.59285605486274
0.15563499809382	0.015919918353407	0.59891879118317
0.15768282701611	0.014029114318513	0.60625968905824
0.15973065593840	0.012387209835775	0.61524143887155
0.16177848486069	0.012131577095139	0.62509605592720
0.16382631378297	0.013423109780938	0.63447825252950
0.16587414270526	0.015360859117848	0.64239904494346
0.16792197162755	0.016624031854009	0.64889271278851
0.16996980054984	0.016384974630337	0.65496830310033
0.17201762947212	0.014862992737567	0.66189629814805
0.17406545839441	0.013149376889188	0.67033377779143
0.17611328731670	0.012440582309481	0.67988963350320
0.17816111623898	0.013217523403400	0.68941655789043
0.18020894516127	0.014933161599805	0.69781329786021
0.18225677408356	0.016410228755549	0.70477700377781
0.18430460300585	0.016660980139091	0.71099243234029
0.18635243192813	0.015558911052932	0.71764131331904
0.18840026085042	0.013906333769074	0.72558258328846
0.19044808977271	0.012864903440446	0.73477148428472
0.19249591869499	0.013152576233252	0.74430973618252
0.19454374761728	0.014561508045378	0.75307884562624
0.19659157653957	0.016119968036799	0.76051071389879
0.19863940546186	0.016773853827997	0.76696521319070
0.20068723438414	0.016110435800748	0.77346447731171
0.20273506330643	0.014627963079319	0.78097911619816
0.20478289222872	0.013375818942425	0.78976426375471
0.20683072115100	0.013224398345921	0.79919912911886
0.20887855007329	0.014272188925945	0.80822984642486
0.21092637899558	0.015793469650873	0.81610030322094
0.21297420791787	0.016751830071405	0.82286462253943
0.21502203684015	0.016516660366985	0.82933442393417
0.21706986576244	0.015287741496463	0.83650789829001
0.21911769468473	0.013942535620572	0.84488184887405
0.22116552360701	0.013421760594480	0.85412042683890
0.22321335252930	0.014083062516940	0.86330094524145
0.22526118145159	0.015466456359860	0.87155754549464
0.22730901037388	0.016624775786784	0.87867409810427
0.22935683929616	0.016782253237106	0.88522072553721
0.23140466821845	0.015863685865868	0.89214856993983
0.23345249714074	0.014533594555344	0.90013041643287
0.23550032606302	0.013727210350931	0.90910393425592
0.23754815498531	0.014003942108739	0.91832728506536
0.23959598390760	0.015169947761693	0.92690001979837
0.24164381282989	0.016424103300399	0.93438385039982
0.24369164175217	0.016918248493941	0.94109565167645
0.24573947067446	0.016340233937538	0.94787720374839
0.24778729959675	0.015119265773761	0.95550850371234
0.24983512851903	0.014118925311153	0.96417325232672
0.25188295744132	0.014037052202318	0.97334252650166
0.25393078636361	0.014929243969647	0.98214961832422
0.25597861528590	0.016181067617147	0.98999071664512
0.25802644420818	0.016940808905598	0.99693539005849
0.26007427313047	0.016708253332705	1.0036680863007
0.26212210205276	0.015672733623639	1.0110082765445
0.26416993097504	0.014572264152147	1.0193454088591
0.26621775989733	0.014177999415995	1.0283780490464
0.26826558881962	0.014763909863387	1.0373316409069
0.27031341774191	0.015926154600136	1.0454979400086
0.27236124666419	0.016870873743080	1.0527206655572
0.27440907558648	0.016965592284221	1.0594945714483
0.27645690450877	0.016171454532019	1.0666157000489
0.27850473343106	0.015061110162940	1.0746298187245
0.28055256235334	0.014416112642954	1.0834610041486
0.28260039127563	0.014686663511119	1.0924729301563
0.28464822019792	0.015686963914384	1.1009144156892
0.28669604912020	0.016732111645721	1.1084374669618
0.28874387804249	0.017116096003404	1.1153307407625
0.29079170696478	0.016597483882964	1.1223120421725
0.29283953588707	0.015558856218973	1.1300287468245
0.29488736480935	0.014735004021825	1.1386136685516
0.29693519373164	0.014702769162714	1.1476009015335
0.29898302265393	0.015486560153831	1.1562544841730
0.30103085157621	0.016549152414795	1.1640782250139
0.30307868049850	0.017168811682098	1.1711536803924
0.30512650942079	0.016938175067171	1.1780762404655
0.30717433834308	0.016040204619546	1.1855387113438
0.30922216726536	0.015114450946145	1.1938534820907
0.31126999618765	0.014811066503543	1.2027426959498
0.31331782510994	0.015343425494438	1.2115371746458
0.31536565403222	0.016347057737992	1.2196418978923
0.31741348295451	0.017137910896171	1.2269443955780
0.31946131187680	0.017187108199751	1.2338858921274
0.32150914079909	0.016482837509218	1.2411506231474
0.32355696972137	0.015531879616609	1.2491919430696
0.32560479864366	0.015004320989488	1.2579233084640
0.32765262756595	0.015270396205752	1.2667846379125
0.32970045648823	0.016149466501167	1.2751336658427
0.33174828541052	0.017041187645704	1.2826889629722
0.33379611433281	0.017343863294291	1.2897191593494
0.33584394325510	0.016868572135111	1.2968513057944
0.33789177217738	0.015964154256343	1.3046349214137
0.33993960109967	0.015270578341800	1.3131647078316
0.34198743002196	0.015274925223469	1.3220208559927
0.34403525894424	0.015977941454172	1.3305641958029
0.34608308786653	0.016899325211073	1.3383788033213
0.34813091678882	0.017414069494976	1.3455556798406
0.35017874571111	0.017184439918495	1.3526241331312
0.35222657463339	0.016389124138575	1.3601822412771
0.35427440355568	0.015594194497499	1.3684842896065
0.35632223247797	0.015358878466251	1.3772696772575
0.35837006140025	0.015850591808249	1.3859482790815
0.36041789032254	0.016734147720087	1.3940105544458
0.36246571924483	0.017408279411838	1.4013774931915
0.36451354816712	0.017422686141166	1.4084501542123
0.36656137708940	0.016786425052279	1.4158280866894
0.36860920601169	0.015956535222388	1.4238942314207
0.37065703493398	0.015518302469079	1.4325536112646
0.37270486385627	0.015780755063550	1.4413040315676
0.37475269277855	0.016566868558153	1.4495864350591
0.37680052170084	0.017340808018989	1.4571705738390
0.37884835062313	0.017580896768668	1.4643100210218
0.38089617954541	0.017138786933754	1.4715622793891
0.38294400846770	0.016337623338611	1.4794014999088
0.38499183738999	0.015744402404528	1.4878927681052
0.38703966631228	0.015776797992231	1.4966516304369
0.38908749523456	0.016417018959401	1.5051137007117
0.39113532415685	0.017228654886727	1.5129253630063
0.39318315307914	0.017661715245136	1.5201851777649
0.39523098200142	0.017432723642525	1.5273712684676
0.39727881092371	0.016717257953335	1.5350079810918
0.39932663984600	0.016024245957473	1.5433041472808
0.40137446876829	0.015841895158371	1.5520124407303
0.40342229769057	0.016301522357552	1.5606044490011
0.40547012661286	0.017090698143068	1.5686376256578
0.40751795553515	0.017673013262701	1.5760593622372
0.40956578445743	0.017659955988118	1.5832393190002
0.41161361337972	0.017077151370118	1.5907104710988
0.41366144230201	0.016342577790172	1.5988002058393
0.41570927122430	0.015974637214013	1.6074067502277
0.41775710014658	0.016233908558550	1.6160735416842
0.41980492906887	0.016946093940767	1.6243073592037
0.42185275799116	0.017626386350412	1.6319186046229
0.42390058691344	0.017816615030901	1.6391490282451
0.42594841583573	0.017400767579764	1.6465009440898
0.42799624475802	0.016681658298388	1.6543885142497
0.43004407368031	0.016168203058255	1.6628531342035
0.43209190260259	0.016222675728107	1.6715384556064
0.43413973152488	0.016812388993293	1.6799397876826
0.43618756044717	0.017535954411047	1.6877533855717
0.43823538936945	0.017903431913101	1.6950839431117
0.44028321829174	0.017674892354203	1.7023686075937
0.44233104721403	0.017023487951558	1.7100725397059
0.44437887613632	0.016412261499334	1.7183679886054
0.44642670505860	0.016272259769096	1.7270182477341
0.44847453398089	0.016705663203929	1.7355445943383
0.45052236290318	0.017418344231013	1.7435585404785
0.45257019182546	0.017926250045621	1.7510288500498
0.45461802074775	0.017890848485517	1.7582998432739
0.45666584967004	0.017351220165591	1.7658506203731
0.45871367859233	0.016693724964477	1.7739635278477
0.46076150751461	0.016382508310533	1.7825312437169
0.46280933643690	0.016638778027568	1.7911342445756
0.46485716535919	0.017290426655186	1.7993328426331
0.46690499428147	0.017894170991281	1.8069705476320
0.46895282320376	0.018043596883594	1.8142794945411
0.47100065212605	0.017649086490327	1.8217169816753
0.47304848104834	0.016996863371002	1.8296481737419
0.47509630997062	0.016548362753704	1.8380950880106
0.47714413889291	0.016620514331582	1.8467243714656
0.47919196781520	0.017168422729417	1.8550802395536
0.48123979673749	0.017819421506730	1.8628998483729
0.48328762565977	0.018132870542317	1.8702929242443
0.48533545458206	0.017904623862250	1.8776629353060
0.48738328350435	0.017305828523835	1.8854263543941
0.48943111242663	0.016761734197648	1.8937253163521
0.49147894134892	0.016656273196519	1.9023318846758
0.49352677027121	0.017067601753560	1.9108083467175
0.49557459919350	0.017716729812997	1.9188108569935
0.49762242811578	0.018162900522777	1.9263258268633
0.49967025703807	0.018108932139966	1.9336765826340
0.50171808596036	0.017605025583408	1.9412975894993
0.50376591488264	0.017011301866620	1.9494338643631
0.50581374380493	0.016746876148596	1.9579735086270
0.50786157272722	0.017000274236672	1.9665277870558
0.50990940164951	0.017601243060052	1.9747015159604
0.51195723057179	0.018141074358502	1.9823657250082
0.51400505949408	0.018256451652868	1.9897445005168
0.51605288841637	0.017879720984979	1.9972575924416
0.51810071733865	0.017283217405272	2.0052292980692
0.52014854626094	0.016888703385650	2.0136654965054
0.52219637518323	0.016975226952478	2.0222521014264
0.52424420410552	0.017487726801581	2.0305742577860
0.52629203302780	0.018077627278615	2.0384033419286
0.52833986195009	0.018345608204580	2.0458532479125
0.53038769087238	0.018117499535922	2.0532991596100
0.53243551979466	0.017562711077565	2.0611166848493
0.53448334871695	0.017074708472962	2.0694227053237
0.53653117763924	0.016997823136746	2.0779967165575
0.53857900656153	0.017390048832109	2.0864355450055
0.54062683548381	0.017985202282802	2.0944329204398
0.54267466440610	0.018379040367428	2.1019900693441
0.54472249332839	0.018309229206728	2.1094125536776
0.54677032225067	0.017835291961530	2.1170971471739
0.54881815117296	0.017295128698183	2.1252573735451
0.55086598009525	0.017069779853980	2.1337775373363
0.55291380901754	0.017320172274283	2.1422950065547
0.55496163793982	0.017877700198343	2.1504522776914
0.55700946686211	0.018363003227629	2.1581436406112
0.55905729578440	0.018449300741266	2.1655862799713
0.56110512470668	0.018087513317998	2.1731680401625
0.56315295362897	0.017538108277696	2.1811785354263
0.56520078255126	0.017189102918494	2.1896100023348
0.56724861147355	0.017287366552245	2.1981648116630
0.56929644039583	0.017769268537713	2.2064629608764
0.57134426931812	0.018306822304618	2.2143049196951
0.57339209824041	0.018535934204061	2.2218080446151
0.57543992716269	0.018307939978308	2.2293233278233
0.57748775608498	0.017790675614975	2.2371914990512
0.57953558500727	0.017350400938734	2.2455079400616
0.58158341392956	0.017297615132623	2.2540585881603
0.58363124285184	0.017673146288028	2.2624698577991
0.58567907177413	0.018221861268590	2.2704676080824
0.58772690069642	0.018570825973544	2.2780656645951
0.58977472961871	0.018487529094425	2.2855542761596
0.59182255854099	0.018039393234226	2.2932978648273
0.59387038746328	0.017545165643312	2.3014829803355
0.59591821638557	0.017353175615469	2.3099907627867
0.59796604530785	0.017600697037226	2.3184810831004
0.60001387423014	0.018120636042116	2.3266288349880
0.60206170315243	0.018558942855401	2.3343482454851
0.60410953207472	0.018620271799776	2.3418504604025
0.60615736099700	0.018271455673472	2.3494957887956
0.60820518991929	0.017762632863887	2.3575439828773
0.61025301884158	0.017452673504322	2.3659756107359
0.61230084776386	0.017560721169112	2.3745073436195
0.61434867668615	0.018015848113031	2.3827893068184
0.61639650560844	0.018507948901823	2.3906470519507
0.61844433453073	0.018703402556636	2.3982008235446
0.62049216345301	0.018475540231547	2.4057806042627
0.62253999237530	0.017990727839185	2.4136969327856
0.62458782129759	0.017591590529103	2.4220266513967
0.62663565021987	0.017559322965924	2.4305613881744
0.62868347914216	0.017919960409397	2.4389532735578
0.63073130806445	0.018428062228868	2.4469560119224
0.63277913698674	0.018737919060383	2.4545942660594
0.63482696590902	0.018642875806500	2.4621448838246
0.63687479483131	0.018217111654507	2.4699441419771
0.63892262375360	0.017762624365149	2.4781551994014
0.64097045267588	0.017599268975361	2.4866565595828
0.64301828159817	0.017843808109774	2.4951277723721
0.64506611052046	0.018330585648545	2.5032719503589
0.64711393944275	0.018727690946670	2.5110206057299
0.64916176836503	0.018767175263377	2.5185794988533
0.65120959728732	0.018429655887479	2.5262848475477
0.65325742620961	0.017956140257968	2.5343703663725
0.65530525513189	0.017679989959556	2.5428065380067
0.65735308405418	0.017796167211919	2.5513226380400
0.65940091297647	0.018227477052872	2.5595951673721
0.66144874189876	0.018679555894490	2.5674715550407
0.66349657082104	0.018845470255761	2.5750744555061
0.66554439974333	0.018617733620838	2.5827153637884
0.66759222866562	0.018161303806555	2.5906783683196
0.66964005758790	0.017798010402890	2.5990241525573
0.67168788651019	0.017783366835232	2.6075494559473
0.67373571543248	0.018130533093527	2.6159290384834
0.67578354435477	0.018602696490092	2.6239410130279
0.67783137327705	0.018878111164118	2.6316194465528
0.67987920219934	0.018772791218135	2.6392292962692
0.68192703112163	0.018366735950752	2.6470820577253
0.68397486004391	0.017947104342647	2.6553203813876
0.68602268896620	0.017808674531406	2.6638205731792
0.68807051788849	0.018050230991217	2.6722796028468
0.69011834681078	0.018507508083385	2.6804254388538
0.69216617573306	0.018868186025722	2.6882047304410
0.69421400465535	0.018888450742284	2.6958183648731
0.69626183357764	0.018560969391888	2.7035812422699
0.69830966249993	0.018118567622851	2.7117041374675
0.70035749142221	0.017872032255171	2.7201487477124
0.70240532034450	0.017995020352287	2.7286556007040
0.70445314926679	0.018404923465037	2.7369245425292
0.70650097818907	0.018821404786053	2.7448222738914
0.70854880711136	0.018961153819094	2.7524734519456
0.71059663603365	0.018733571629069	2.7601731140648
0.71264446495594	0.018302237236201	2.7681819343422
0.71469229387822	0.017970475537530	2.7765463867154
0.71674012280051	0.017971064241741	2.7850678731827
0.71878795172280	0.018305863415671	2.7934412879428
0.72083578064508	0.018745842358465	2.8014663544885
0.72288360956737	0.018990574840837	2.8091853626127
0.72493143848966	0.018876143806348	2.8168525929534
0.72697926741195	0.018487590410206	2.8247574962165
0.72902709633423	0.018098779540196	2.8330245745009
0.73107492525652	0.017982183490908	2.8415283122397
0.73312275417881	0.018220690183360	2.8499812685568
0.73517058310109	0.018651405988530	2.8581335208202
0.73721841202338	0.018979533695731	2.8659450859559
0.73926624094567	0.018982726856153	2.8736123785528
0.74131406986796	0.018664271795248	2.8814312386423
0.74336189879024	0.018249575479735	2.8895920387505
0.74540972771253	0.018029247226217	2.8980487664663
0.74745755663482	0.018158002572007	2.9065521040199
0.74950538555710	0.018548533384602	2.9148227587333
0.75155321447939	0.018933133437499	2.9227445543288
0.75360104340168	0.019049599750128	2.9304438001783
0.75564887232397	0.018822325457807	2.9382007316776
0.75769670124625	0.018413520633877	2.9462551026474
