#Parameters = {C_1=13.247618914885; C_2=303.4203577015; Conductivity=10000000; Conductivity_Mo=17900000; Conductivity_MoGr=1000000; Ip=303.70942177453; Pipe_lenght=40; Pipe_r=30; beta=1; cells_wave=30; conductivity_copper=59500000; d=-603.4203577015; half_gap_x=16.752381085115; half_gap_y=30; half_gap_z=150; mu_copper=0.999994; offset=6.7009524340459; offset_x=1; offset_y=5; sigma_z=5; teta=2.5; thcoll=13.247618914885; translate_z=-453.4203577015; wakelength=20000}
#"Frequency / GHz"	"X [Re / Ohm]"	"X [Im / Ohm]"
#-----------------------------------------------
0.0000000000000	5.2507580583042e-13	17.840211264502
0.0020478289222872	9.6576787896996	14.628088104900
0.0040956578445743	15.292410153799	6.4893254619672
0.0061434867668615	14.874348822039	-2.8659182609493
0.0081913156891487	9.2850598490751	-9.4274525181292
0.010239144611436	1.6957825975374	-10.873134929023
0.012286973533723	-4.1979593116954	-7.5656854406044
0.014334802456010	-6.0754988624179	-2.0804103506717
0.016382631378297	-3.9935344208846	2.3790384388121
0.018430460300585	-0.023376877940323	3.7274568465215
0.020478289222872	3.1516104662575	1.9376234684531
0.022526118145159	3.7968150260900	-1.2648446498701
0.024573947067446	1.9531542602148	-3.6453231902431
0.026621775989733	-0.85790766582698	-3.8289244174645
0.028669604912020	-2.7514683754901	-1.9886042010020
0.030717433834308	-2.6676932766728	0.47270406939964
0.032765262756595	-0.91546502567079	1.9416474565544
0.034813091678882	1.1851696068445	1.6215345880125
0.036860920601169	2.2455521289686	-0.061877020511576
0.038908749523456	1.6923430298219	-1.8618119216702
0.040956578445743	0.047313912548031	-2.5876697955876
0.043004407368031	-1.5146715245740	-1.8605089018342
0.045052236290318	-1.9827251594154	-0.27974524589423
0.047100065212605	-1.1481444309525	1.0526564459760
0.049147894134892	0.32962819016952	1.2906674032163
0.051195723057179	1.4244607154870	0.37390972535650
0.053243551979466	1.4431268008158	-0.99551816339979
0.055291380901754	0.45393042251689	-1.8715808913171
0.057339209824041	-0.81458693857809	-1.7038582581957
0.059387038746328	-1.5006978362521	-0.67173796497972
0.061434867668615	-1.1875549896818	0.48445416262396
0.063482696590902	-0.14923517276436	0.99069707782186
0.065530525513189	0.87558465456621	0.55449367860387
0.067578354435477	1.2031799383200	-0.47107315952082
0.069626183357764	0.65612970935857	-1.3613728898976
0.071674012280051	-0.34840498174029	-1.5247682396679
0.073721841202338	-1.1110279382730	-0.88957802875474
0.075769670124625	-1.1329541589200	0.077068136870638
0.077817499046912	-0.43865609732209	0.71085292352600
0.079865327969200	0.46817165842603	0.60543934729573
0.081913156891487	0.96685665120035	-0.12848428902642
0.083960985813774	0.74200465690715	-0.96341485481888
0.086008814736061	-0.019674678715509	-1.3296675461062
0.088056643658348	-0.77887984781209	-1.0002734245620
0.090104472580635	-1.0229744113363	-0.22763261362354
0.092152301502923	-0.60989022253189	0.44830944888537
0.094200130425210	0.15270329088281	0.57669361084092
0.096247959347497	0.73448631249542	0.095844117644433
0.098295788269784	0.74981216876510	-0.64175448728874
0.10034361719207	0.21201370315236	-1.1247679885729
0.10239144611436	-0.49196847818169	-1.0349592748068
0.10443927503665	-0.87816022656904	-0.45453859824886
0.10648710395893	-0.69671160146640	0.20522263570390
0.10853493288122	-0.091925599996626	0.49502490804149
0.11058276180351	0.51038876290535	0.23318959103779
0.11263059072579	0.70183444103750	-0.38122893556097
0.11467841964808	0.36756830325773	-0.91725520637267
0.11672624857037	-0.24636729908467	-1.0125266925808
0.11877407749266	-0.71266593384028	-0.61667190196388
0.12082190641494	-0.71901334383818	-0.014680147240561
0.12286973533723	-0.27619685995330	0.37799925670294
0.12491756425952	0.30004233310460	0.30198165414230
0.12696539318180	0.61357161865740	-0.17496462645514
0.12901322210409	0.45970448858680	-0.71457835042674
0.13106105102638	-0.041741695481014	-0.94671059882714
0.13310887994867	-0.53812317226656	-0.72206843539269
0.13515670887095	-0.69108280712786	-0.20695593650414
0.13720453779324	-0.40638351002128	0.23951234638830
0.13925236671553	0.10925983635862	0.31566278507402
0.14130019563781	0.49783486202469	-0.019008010472796
0.14334802456010	0.49829495181045	-0.52384774078353
0.14539585348239	0.12163537888799	-0.84908023382361
0.14744368240468	-0.36429744063712	-0.77726851209558
0.14949151132696	-0.62455955351787	-0.36784542431690
0.15153934024925	-0.48733952826836	0.091030475528488
0.15358716917154	-0.056709557787785	0.28521437097842
0.15563499809382	0.36575866303573	0.089575400702430
0.15768282701611	0.49198602167627	-0.35161629117564
0.15973065593840	0.24364372421538	-0.73017751274960
0.16177848486069	-0.19977751077310	-0.78860679854724
0.16382631378297	-0.53007261096162	-0.49461013999039
0.16587414270526	-0.52402944136229	-0.057500919901313
0.16792197162755	-0.19378529375045	0.22076099021309
0.16996980054984	0.22722866151489	0.15413006908206
0.17201762947212	0.44914541529492	-0.20320339851343
0.17406545839441	0.32511399345234	-0.59959071389874
0.17611328731670	-0.051699440995762	-0.76260254446629
0.17816111623898	-0.41740981158344	-0.58576388410945
0.18020894516127	-0.52179218680741	-0.19752890525735
0.18225677408356	-0.29909659037697	0.13192836225829
0.18430460300585	0.091140765098236	0.17871067274929
0.18635243192813	0.37826314686506	-0.082664752094960
0.18840026085042	0.36813131932689	-0.46620775786727
0.19044808977271	0.074305852122098	-0.70634505715526
0.19249591869499	-0.29571725394188	-0.64139934386128
0.19454374761728	-0.48668094914632	-0.32203975197112
0.19659157653957	-0.37132607938677	0.027893614846697
0.19863940546186	-0.034848743575888	0.16827323299609
0.20068723438414	0.28783727414429	0.0074574624931964
0.20273506330643	0.37605347964167	-0.33798735827364
0.20478289222872	0.17422432743366	-0.62735121050788
0.20683072115100	-0.17336454019418	-0.66316908920408
0.20887855007329	-0.42539174214750	-0.42565035055266
0.21092637899558	-0.41076487456086	-0.082743491401232
0.21297420791787	-0.14449974435158	0.12861496537325
0.21502203684015	0.18616207849383	0.066219973398225
0.21706986576244	0.35338793843042	-0.22173904750788
0.21911769468473	0.24570549608661	-0.53331690632513
0.22116552360701	-0.057755099248616	-0.65414722617514
0.22321335252930	-0.34505868208631	-0.50465557427944
0.22526118145159	-0.41923998151498	-0.19214470652374
0.22730901037388	-0.23310903784089	0.066202276800469
0.22935683929616	0.081090096086676	0.094266648354877
0.23140466821845	0.30560411649632	-0.12293599556343
0.23345249714074	0.28806673986385	-0.43183726784387
0.23550032606302	0.044880476013851	-0.61863934042709
0.23754815498531	-0.25298165811243	-0.55705709236107
0.23959598390760	-0.39996822891270	-0.29345936853066
0.24164381282989	-0.29760069465054	-0.012088213130054
0.24369164175217	-0.020239242690677	0.093730999739352
0.24573947067446	0.23886871962244	-0.045566195394795
0.24778729959675	0.30222444790589	-0.33010174125004
0.24983512851903	0.12966512951164	-0.56192758943875
0.25188295744132	-0.15632106559327	-0.58253510543879
0.25393078636361	-0.35734557966590	-0.38104125948263
0.25597861528590	-0.33656790823932	-0.099273479158995
0.25802644420818	-0.11167489913349	0.068071845579887
0.26007427313047	0.15972504380480	0.0079766823138575
0.26212210205276	0.29055529499143	-0.23456864508796
0.26416993097504	0.19322430135158	-0.48994196792013
0.26621775989733	-0.061755283467800	-0.58233800316341
0.26826558881962	-0.29664297433066	-0.45063058991880
0.27031341774191	-0.35021639917562	-0.18860987245533
0.27236124666419	-0.18828482422514	0.021807576131329
0.27440907558648	0.074734380205649	0.036897678810941
0.27645690450877	0.25665776945808	-0.15068691227787
0.27850473343106	0.23373211627071	-0.40889330520547
0.28055256235334	0.024817147566978	-0.55907097041383
0.28260039127563	-0.22366274539601	-0.49943104731942
0.28464822019792	-0.34020789473123	-0.27388823017847
0.28669604912020	-0.24648224882884	-0.039775172415306
0.28874387804249	-0.0098252473521763	0.041928005840209
0.29079170696478	0.20510966134039	-0.082694495792503
0.29283953588707	0.25092061921620	-0.32494119336574
0.29488736480935	0.098553259501600	-0.51647445432887
0.29693519373164	-0.14437110675925	-0.52616669795336
0.29898302265393	-0.30944227355633	-0.34974539865303
0.30103085157621	-0.28409596071979	-0.11098924957369
0.30307868049850	-0.088256625809039	0.025133637172518
0.30512650942079	0.14115836608819	-0.033531000978218
0.30717433834308	0.24597267835237	-0.24392692787198
0.30922216726536	0.15582098881586	-0.45920584322279
0.31126999618765	-0.064620218388815	-0.53110499844216
0.31331782510994	-0.26189891875369	-0.41194376433576
0.31536565403222	-0.30050282770868	-0.18610328722464
0.31741348295451	-0.15584292361550	-0.010263124691612
0.31946131187680	0.070265604100499	-0.0046834896848185
0.32150914079909	0.22127128949678	-0.17093987865053
0.32355696972137	0.19429005180930	-0.39235416797727
0.32560479864366	0.010210374083941	-0.51577092661757
0.32765262756595	-0.20223895701762	-0.45739530815755
0.32970045648823	-0.29641495231349	-0.25958169471108
0.33174828541052	-0.20888964913381	-0.060119141153397
0.33379611433281	-0.0020679952447534	0.0037670573038609
0.33584394325510	0.18030413463681	-0.11015748415733
0.33789177217738	0.21305926838701	-0.32123121245616
0.33993960109967	0.075526248698958	-0.48290236548536
0.34198743002196	-0.13550400941327	-0.48438912489967
0.34403525894424	-0.27380722903309	-0.32649960305472
0.34608308786653	-0.24496291397768	-0.11974476510307
0.34813091678882	-0.070733319129810	-0.0069690255877602
0.35017874571111	0.12728621051848	-0.064640162060606
0.35222657463339	0.21254211896577	-0.25098725791199
0.35427440355568	0.12770279079159	-0.43613379069228
0.35632223247797	-0.066789240584536	-0.49253064573031
0.35837006140025	-0.23568612770705	-0.38274305917077
0.36041789032254	-0.26290854871464	-0.18419274252374
0.36246571924483	-0.13125056299284	-0.034544182130241
0.36451354816712	0.066892239193255	-0.036234605295722
0.36656137708940	0.19437689293756	-0.18633516879771
0.36860920601169	0.16424960873473	-0.37974673468638
0.37065703493398	-0.00093474802468593	-0.48270988129991
0.37270486385627	-0.18585664323834	-0.42523432321198
0.37475269277855	-0.26286921408277	-0.24859699330717
0.37680052170084	-0.18004202814972	-0.075697365999701
0.37884835062313	0.0038980203456855	-0.025526830388764
0.38089617954541	0.16121181077250	-0.13125766031645
0.38294400846770	0.18387209151966	-0.31831945290171
0.38499183738999	0.057759111216715	-0.45691540902758
0.38703966631228	-0.12861406917283	-0.45201455499966
0.38908749523456	-0.24615873631184	-0.30844263980972
0.39113532415685	-0.21455995529463	-0.12650538626500
0.39318315307914	-0.057091166453704	-0.031890385788176
0.39523098200142	0.11649903420724	-0.088818098785660
0.39727881092371	0.18649060784873	-0.25643782546796
0.39932663984600	0.10577327084472	-0.41805541263802
0.40137446876829	-0.068442684383478	-0.46230812687865
0.40342229769057	-0.21510816123784	-0.35983537639877
0.40547012661286	-0.23338532486002	-0.18267424254649
0.40751795553515	-0.11192108433456	-0.053600056642069
0.40956578445743	0.064230724623635	-0.061020523752801
0.41161361337972	0.17318041188140	-0.19840289425760
0.41366144230201	0.14055916703785	-0.36972114395341
0.41570927122430	-0.0097056518536501	-0.45651285708151
0.41775710014658	-0.17284830176490	-0.39973312124374
0.41980492906887	-0.23625411336771	-0.23986044900202
0.42185275799116	-0.15714318542324	-0.088029599614590
0.42390058691344	0.0086262368424549	-0.048755755437150
0.42594841583573	0.14600771195413	-0.14796939407820
0.42799624475802	0.16062527604528	-0.31590150740914
0.43004407368031	0.043620254650461	-0.43608560183100
0.43209190260259	-0.12305821673216	-0.42607458048870
0.43413973152488	-0.22399750933754	-0.29394414288817
0.43618756044717	-0.19018676281396	-0.13187186614847
0.43823538936945	-0.046148418556308	-0.051811031237073
0.44028321829174	0.10783978651233	-0.10813701594422
0.44233104721403	0.16557252179795	-0.26070187157778
0.44437887613632	0.088181909013642	-0.40338530208653
0.44642670505860	-0.069690325698322	-0.43785644899452
0.44847453398089	-0.19841918234582	-0.34128763325621
0.45052236290318	-0.20947164282448	-0.18140115431806
0.45257019182546	-0.096248672323734	-0.068958402152874
0.45461802074775	0.062107298258675	-0.081010479377004
0.45666584967004	0.15604778323228	-0.20808134461007
0.45871367859233	0.12141786367708	-0.36147739193307
0.46076150751461	-0.016717609713373	-0.43514509675954
0.46280933643690	-0.16214890149566	-0.37894576766170
0.46485716535919	-0.21448617264359	-0.23273012822407
0.46690499428147	-0.13841473747421	-0.098068073537130
0.46895282320376	0.012526235661591	-0.067673412196296
0.47100065212605	0.13363678399388	-0.16155271176074
0.47304848104834	0.14169606006606	-0.31384252259830
0.47509630997062	0.032161559832687	-0.41896960340306
0.47714413889291	-0.11837707770040	-0.40479334141449
0.47919196781520	-0.20570962676397	-0.28206551290366
0.48123979673749	-0.17010438106895	-0.13630710390610
0.48328762565977	-0.037120996693991	-0.068195607633632
0.48533545458206	0.10073915961028	-0.12400698509333
0.48738328350435	0.14839049826858	-0.26416132390370
0.48943111242663	0.073760739839197	-0.39124087634461
0.49147894134892	-0.070617479854127	-0.41765968900292
0.49352677027121	-0.18454239171568	-0.32598763564166
0.49557459919350	-0.18964691452018	-0.18038942670972
0.49762242811578	-0.083268120153025	-0.081695536079377
0.49967025703807	0.060339345370103	-0.097556038493210
0.50171808596036	0.14184939104543	-0.21605250417126
0.50376591488264	0.10557842499555	-0.35456831237992
0.50581374380493	-0.022461605722075	-0.41734862400775
0.50786157272722	-0.15316698056773	-0.36165517463713
0.50990940164951	-0.19631286212872	-0.22681857242316
0.51195723057179	-0.12279850621014	-0.10644917687495
0.51400505949408	0.015768002656968	-0.083430199986390
0.51605288841637	0.12331285012456	-0.17282917186228
0.51810071733865	0.12592359539063	-0.31204218267385
0.52014854626094	0.022661560346021	-0.40459439032949
0.52219637518323	-0.11436519685217	-0.38695977937243
0.52424420410552	-0.19031926442828	-0.27212682970697
0.52629203302780	-0.15323709169814	-0.14004038449168
0.52833986195009	-0.029544124547530	-0.081928014358327
0.53038769087238	0.094783604844508	-0.13727517179553
0.53243551979466	0.13399465253243	-0.26698349036315
0.53448334871695	0.061721794270641	-0.38094985477673
0.53653117763924	-0.071281505180489	-0.40062185418826
0.53857900656153	-0.17274651935920	-0.31310597060162
0.54062683548381	-0.17286569542903	-0.17956420933021
0.54267466440610	-0.072286955604284	-0.092453789933585
0.54472249332839	0.058865018414135	-0.11149819101593
0.54677032225067	0.12989583444714	-0.22272513316061
0.54881815117296	0.092273872075888	-0.34865928812868
0.55086598009525	-0.027197354910157	-0.40225429451760
0.55291380901754	-0.14543397367088	-0.34702705463885
0.55496163793982	-0.18081838014960	-0.22185749570117
0.55700946686211	-0.10950734270426	-0.11360409142754
0.55905729578440	0.018539775423679	-0.096815037814621
0.56110512470668	0.11457613390512	-0.18237613524189
0.56315295362897	0.11259138218461	-0.31046340339683
0.56520078255126	0.014698334953248	-0.39234006914252
0.56724861147355	-0.11081852611768	-0.37180173469819
0.56929644039583	-0.17710329592027	-0.26372779953869
0.57134426931812	-0.13880168767843	-0.14330190947502
0.57339209824041	-0.023063176742635	-0.093694643776192
0.57543992716269	0.089713155102583	-0.14860862835865
0.57748775608498	0.12174343338257	-0.26937122578532
0.57953558500727	0.051522321130373	-0.37213719050689
0.58158341392956	-0.071732585000849	-0.38607361252496
0.58363124285184	-0.16254655233314	-0.30215438000704
0.58567907177413	-0.15843403525482	-0.17895625082162
0.58772690069642	-0.062864190756410	-0.10175799319522
0.58977472961871	0.057592790680185	-0.12349610307490
0.59182255854099	0.11965007045402	-0.22845267016211
0.59387038746328	0.080904756914469	-0.34357872666394
0.59591821638557	-0.031176788331412	-0.38930874001089
0.59796604530785	-0.13869669611604	-0.33452327685322
0.60001387423014	-0.16743828591431	-0.21769702149934
0.60206170315243	-0.098068258186953	-0.11986732467977
0.60410953207472	0.020891601798104	-0.10840897906235
0.60615736099700	0.10701660061175	-0.19062085473166
0.60820518991929	0.10110294312033	-0.30909333424434
0.61025301884158	0.0078783188141403	-0.38177205795528
0.61230084776386	-0.10769025452102	-0.35876384331743
0.61434867668615	-0.16564514332117	-0.25656252041635
0.61639650560844	-0.12633259848474	-0.14622105060017
0.61844433453073	-0.017508438482026	-0.10394096359084
0.62049216345301	0.085268244578998	-0.15843522302012
0.62253999237530	0.11111053062323	-0.27142017592691
0.62458782129759	0.042708413889761	-0.36448431590594
0.62663565021987	-0.072072424131989	-0.37348170080737
0.62868347914216	-0.15366013697068	-0.29272175213918
0.63073130806445	-0.14591588858889	-0.17851729768546
0.63277913698674	-0.054737987040532	-0.10990603140681
0.63482696590902	0.056411307697164	-0.13393824676350
0.63687479483131	0.11068981212398	-0.23340048794668
0.63892262375360	0.071012202322141	-0.33911234693130
0.64097045267588	-0.034601054456400	-0.37802100096118
0.64301828159817	-0.13278461844385	-0.32366175743285
0.64506611052046	-0.15576888041225	-0.21413315910083
0.64711393944275	-0.088133763731677	-0.12538370407588
0.64916176836503	0.022875778951634	-0.11853592811541
0.65120959728732	0.10036400399439	-0.19777891730092
0.65325742620961	0.091062386094095	-0.30783361529751
0.65530525513189	0.0019606814529373	-0.37249236586846
0.65735308405418	-0.10489531425502	-0.34736732967079
0.65940091297647	-0.15558650147765	-0.25034049610582
0.66144874189876	-0.11543283969363	-0.14883047091711
0.66349657082104	-0.012696369630920	-0.11293532141925
0.66554439974333	0.081321222810464	-0.16701463985243
0.66759222866562	0.10177610226991	-0.27315060971049
0.66964005758790	0.035017092317050	-0.35771162329659
0.67168788651019	-0.072300820369584	-0.36241319656646
0.67373571543248	-0.14579937444629	-0.28447048160940
0.67578354435477	-0.13490468708567	-0.17818433979538
0.67783137327705	-0.047625592664134	-0.11709988722969
0.67987920219934	0.055330166326168	-0.14310532154891
0.68192703112163	0.10279383608024	-0.23769704162069
0.68397486004391	0.062343461631586	-0.33511936264050
0.68602268896620	-0.037538820856637	-0.36805459835411
0.68807051788849	-0.12749835404421	-0.31411901119982
0.69011834681078	-0.14544461001682	-0.21105313141336
0.69216617573306	-0.079385948610166	-0.13030304540939
0.69421400465535	0.024585225718976	-0.12748234379400
0.69626183357764	0.094465184185446	-0.20405963184856
0.69830966249993	0.082215992058208	-0.30666231159486
0.70035749142221	-0.0032000700669591	-0.36425654160195
0.70240532034450	-0.10234264006267	-0.33730639941447
0.70445314926679	-0.14663705552418	-0.24489433744685
0.70650097818907	-0.10578595969572	-0.15120237381373
0.70854880711136	-0.0084717459018231	-0.12092574487305
0.71059663603365	0.077792558255549	-0.17458975350251
0.71264446495594	0.093513336234394	-0.27462847729427
0.71469229387822	0.028258904657968	-0.35166248034365
0.71674012280051	-0.072416580122373	-0.35259727459708
0.71878795172280	-0.13875445266692	-0.27720011470785
0.72083578064508	-0.12510844202043	-0.17796005877905
0.72288360956737	-0.041334046855058	-0.12353674561575
0.72493143848966	0.054332239142175	-0.15124793088586
0.72697926741195	0.095768193537736	-0.24147183871663
0.72902709633423	0.054679489035091	-0.33151971506879
0.73107492525652	-0.040069939992617	-0.35917553609013
0.73312275417881	-0.12271357094787	-0.30566542805647
0.73517058310109	-0.13621279816550	-0.20838249311701
