#Parameters = {C_1=27.534904321902; C_2=630.65299298732; Conductivity=10000; Conductivity_MoGr=1000000; Ip=631.25380673694; Pipe_lenght=40; Pipe_r=30; beta=1; cells_wave=30; conductivity_copper=59500000; d=-880.65299298732; half_gap_x=30; half_gap_y=2.4650956780985; half_gap_z=125; mu_copper=0.999994; offset_x=5; offset_y=1; sigma_z=5; teta=2.5; thcoll=27.534904321902; translate_z=-755.65299298732; wakelength=20000}
#"Frequency / GHz"	"Y [Re / Ohm]"	"Y [Im / Ohm]"
#-----------------------------------------------
0.0000000000000	3.8822048387827e-11	-332.62349511585
0.020478289222872	-77.942556615836	-224.87536345041
0.040956578445743	-88.168710148064	-157.26824126823
0.061434867668615	-84.895788489271	-138.25143605394
0.081913156891487	-90.399732197172	-110.87313830464
0.10239144611436	-74.797529961173	-91.283011124916
0.12286973533723	-69.525291472630	-88.724359757559
0.14334802456010	-67.376403178967	-76.582558370327
0.16382631378297	-56.968772205383	-72.210710482377
0.18430460300585	-56.653444623773	-71.642660521230
0.20478289222872	-53.214724362664	-64.221423568600
0.22526118145159	-47.497440933171	-64.529949514473
0.24573947067446	-48.776233991730	-62.733179879892
0.26621775989733	-44.626522692488	-58.296958907193
0.28669604912020	-42.336339450888	-59.855258479295
0.30717433834308	-43.246193699553	-56.858633756511
0.32765262756595	-39.173596838716	-54.915419804115
0.34813091678882	-39.160191797999	-56.092251704368
0.36860920601169	-38.873141631611	-52.707155360759
0.38908749523456	-35.672552202859	-52.659512224014
0.40956578445743	-36.787849600197	-52.709567534427
0.43004407368031	-35.268591690241	-49.814961374584
0.45052236290318	-33.434814738038	-50.835225061593
0.47100065212605	-34.641736967919	-49.669369683393
0.49147894134892	-32.366461659424	-47.874858879023
0.51195723057179	-31.953597034547	-49.076456416261
0.53243551979466	-32.504453779710	-47.084965273543
0.55291380901754	-30.171886036331	-46.575704513743
0.57339209824041	-30.820737073450	-47.241841780073
0.59387038746328	-30.385244063224	-45.065322435319
0.61434867668615	-28.639707816386	-45.602238360088
0.63482696590902	-29.734138315737	-45.358935082727
0.65530525513189	-28.414301703481	-43.634791368973
0.67578354435477	-27.634136626137	-44.684867178808
0.69626183357764	-28.523016180145	-43.560613378547
0.71674012280051	-26.747630174998	-42.708553038105
0.73721841202338	-26.947045105270	-43.652474318779
0.75769670124625	-27.157035505674	-42.010979696091
0.77817499046912	-25.491232297914	-42.112790166515
0.79865327969200	-26.351572691642	-42.458880991959
0.81913156891487	-25.723307580337	-40.833253688837
0.83960985813774	-24.655298511381	-41.635448807523
0.86008814736061	-25.663308499331	-41.173051694778
0.88056643658348	-24.373409554495	-40.061415609972
0.90104472580636	-24.147244698108	-41.090546021843
0.92152301502923	-24.788678678558	-39.937882891008
0.94200130425210	-23.258688661785	-39.627558580702
0.96247959347497	-23.803399780688	-40.371328098182
0.98295788269784	-23.743751461904	-38.907986442160
1.0034361719207	-22.471340145591	-39.384037606962
1.0239144611436	-23.443022421285	-39.475131961730
1.0443927503665	-22.635533496867	-38.189267163624
1.0648710395893	-22.009245875235	-39.154134566310
1.0853493288122	-22.926931659227	-38.494924713967
1.1058276180351	-21.615888333813	-37.800367189127
1.1263059072579	-21.777391865783	-38.791712477891
1.1467841964808	-22.202047794167	-37.578584002329
1.1672624857037	-20.823169738044	-37.664477586261
1.1877407749266	-21.620830033181	-38.227475555321
1.2082190641494	-21.313653442632	-36.870679665383
1.2286973533723	-20.328824045349	-37.636171312616
1.2491756425952	-21.377472247713	-37.490195113689
1.2696539318180	-20.384522458586	-36.459707367975
1.2901322210409	-20.111108519840	-37.553346292413
1.3106105102638	-20.935328803169	-36.693492762183
1.3310887994867	-19.569295698211	-36.344019420844
1.3515670887095	-20.061655930599	-37.292312624700
1.3720453779324	-20.270161444082	-35.991674008459
1.3925236671553	-18.995336857702	-36.430062064523
1.4130019563781	-20.020754336298	-36.811867065235
1.4334802456010	-19.452484213134	-35.524695387951
1.4539585348239	-18.715281947053	-36.565657902541
1.4744368240468	-19.834280226160	-36.169454654365
1.4949151132696	-18.624213852745	-35.366053048719
1.5153934024925	-18.686084553914	-36.591593487344
1.5358716917154	-19.408187462557	-35.500364067016
1.5563499809382	-17.946837088953	-35.492558998231
1.5768282701611	-18.778513025781	-36.398505077369
1.5973065593840	-18.742131213847	-34.972632459438
1.6177848486069	-17.542532266904	-35.790584637827
1.6382631378297	-18.820253245433	-35.970048934776
1.6587414270526	-17.934876050101	-34.728269129991
1.6792197162755	-17.448900504441	-36.091758623127
1.6996980054984	-18.655341568720	-35.392257438370
1.7201762947212	-17.152817981041	-34.829651092761
1.7406545839441	-17.597940978341	-36.230145400178
1.7611328731670	-18.198894216471	-34.830802236849
1.7816111623898	-16.573797556772	-35.234045069575
1.8020894516127	-17.832448157325	-36.104094017302
1.8225677408356	-17.473343341143	-34.480046799502
1.8430460300585	-16.325546565530	-35.801499164146
1.8635243192813	-17.954054714580	-35.718500905887
1.8840026085042	-16.609391691436	-34.498337363377
1.9044808977271	-16.435132771044	-36.336664909663
1.9249591869499	-17.787192733131	-35.196118700696
1.9454374761728	-15.810862399381	-34.952701054450
1.9659157653957	-16.808104402646	-36.653883377612
1.9863940546186	-17.240788365346	-34.753241175648
2.0068723438414	-15.293506852213	-35.791050942943
2.0273506330643	-17.245331362181	-36.646988048116
2.0478289222872	-16.349530128713	-34.647010447206
2.0683072115100	-15.217686095840	-36.851355151728
2.0887855007329	-17.494672354291	-36.340983279837
2.1092637899558	-15.280336359003	-35.107580201803
2.1297420791787	-15.630198307040	-37.905315210226
2.1502203684015	-17.315375097228	-35.915428566249
2.1706986576244	-14.299242979280	-36.286636331669
2.1911769468473	-16.434805535296	-38.735909941680
2.2116552360701	-16.543161836395	-35.706873980363
2.2321335252930	-13.724296837027	-38.246098588854
2.2526118145159	-17.405363865006	-39.222506186919
2.2730901037388	-15.127316118335	-36.204716739020
2.2935683929616	-13.883679245422	-41.014442601277
2.3140466821845	-18.213023136598	-39.431970229471
2.3345249714074	-13.093853697492	-38.161606122842
2.3550032606302	-15.166265171364	-44.841787195471
2.3754815498531	-18.431519183738	-39.797744885280
2.3959598390760	-10.346642797241	-43.357763188412
2.4164381282989	-18.667868548450	-51.376793455010
2.4369164175217	-17.182779152427	-42.067759447675
2.4573947067446	-5.0687103224194	-62.671871540373
2.4778729959675	-40.157337968271	-83.717487010178
2.4983512851903	-241.41730734457	0.23845278722989
2.5188295744132	-36.081033031502	30.350101533030
2.5393078636361	-7.4410972826227	-24.653093566932
2.5597861528590	-22.403069103188	-31.880993984625
2.5802644420818	-16.156001824677	-29.306911238916
2.6007427313047	-13.511067633859	-40.890614899807
2.6212210205276	-22.631048867491	-45.400930776792
2.6416993097505	-32.816732709746	-28.368540088517
2.6621775989733	-21.582177097718	-41.737281615168
2.6826558881962	-33.955638148190	-49.889100025631
2.7031341774191	-39.690345638664	-17.911783992721
2.7236124666419	-25.257834309574	-30.545846929234
2.7440907558648	-27.863270745670	-34.843980303890
2.7645690450877	-41.066606714555	-33.019878443219
2.7850473343106	-29.511747481600	-21.081245515798
2.8055256235334	-24.497207172265	-27.139022795212
2.8260039127563	-26.749155698034	-29.879466927638
2.8464822019792	-30.945600333157	-28.842403361790
2.8669604912020	-26.038848067005	-25.042514746294
2.8874387804249	-27.292121549018	-31.254461571666
2.9079170696478	-32.448792627626	-25.383673479413
2.9283953588707	-26.466503269606	-24.285416148858
2.9488736480935	-27.566068847309	-26.560440127444
2.9693519373164	-27.630852072915	-26.375550606624
2.9898302265393	-31.217554242355	-26.724907486845
3.0103085157621	-31.219641292783	-20.113622490937
3.0307868049850	-25.643933666649	-19.557883098967
3.0512650942079	-25.113293754645	-22.813173829213
3.0717433834308	-26.892309165116	-22.616039458574
3.0922216726536	-27.617952108616	-21.265459907224
3.1126999618765	-27.112259764299	-18.548906750698
3.1331782510994	-23.948277188891	-17.301738915820
3.1536565403222	-22.023519205441	-19.407643266858
3.1741348295451	-23.219838569705	-20.091242811453
3.1946131187680	-22.890613844474	-19.084850690237
3.2150914079909	-22.542484744602	-19.037094124604
3.2355696972137	-22.018855621294	-17.889552965034
3.2560479864366	-20.042572095154	-18.101168828852
3.2765262756595	-20.260872022275	-19.300266274049
3.2970045648823	-20.278056842193	-18.232879571275
3.3174828541052	-18.786532451522	-18.541189085460
3.3379611433281	-19.151522405306	-19.138097011615
3.3584394325510	-18.564870164659	-18.344520119421
3.3789177217738	-17.760697790377	-19.229089453961
3.3993960109967	-18.521828876753	-19.010249509538
3.4198743002196	-17.307267429238	-18.074313595242
3.4403525894424	-16.437508121406	-19.115475266232
3.4608308786653	-16.692743697065	-19.074337345332
3.4813091678882	-15.717135934591	-19.193679162312
3.5017874571111	-16.002484005212	-20.082078021106
3.5222657463339	-16.215212150338	-19.282101045433
3.5427440355568	-15.103760112208	-19.338902068303
3.5632223247797	-15.139704394501	-19.793836746870
3.5837006140025	-14.548362067072	-19.454191739675
3.6041789032254	-13.924305965990	-20.360572665979
3.6246571924483	-14.463136956521	-20.542227498434
3.6451354816712	-13.880532551567	-20.252163740809
3.6656137708940	-13.703242067760	-20.933898755151
3.6860920601169	-13.855861002252	-20.613091968006
3.7065703493398	-12.944785776484	-20.782969165865
3.7270486385627	-13.090641951644	-21.551608879910
3.7475269277855	-13.077769913178	-21.237634175861
3.7680052170084	-12.470583751568	-21.749008645682
3.7884835062313	-12.902260279787	-22.122295584584
3.8089617954541	-12.559799511224	-21.806290219870
3.8294400846770	-12.217702768905	-22.517560360461
3.8499183738999	-12.640985758804	-22.585383117889
3.8703966631228	-12.129846856896	-22.542347672044
3.8908749523456	-12.200914727924	-23.265408629084
3.9113532415685	-12.499990170195	-23.049112956656
3.9318315307914	-11.998563367641	-23.257581953562
3.9523098200142	-12.355737251204	-23.742989320003
3.9727881092371	-12.355838918665	-23.387096904400
3.9932663984600	-11.959415066351	-23.831161234735
4.0137446876829	-12.398610302584	-24.055335775303
4.0342229769057	-12.145330938580	-23.840645089528
4.0547012661286	-12.076360884972	-24.435155287995
4.0751795553515	-12.541241066006	-24.329586718029
4.0956578445743	-12.163688061104	-24.215293095079
4.1161361337972	-12.289556155310	-24.655248941550
4.1366144230201	-12.411915914358	-24.350166861850
4.1570927122430	-11.933387720697	-24.589496453104
4.1775710014658	-12.253020695934	-24.984024251933
4.1980492906887	-12.213510665407	-24.732121993923
4.2185275799116	-11.994656940448	-25.157670798163
4.2390058691344	-12.412353062554	-25.218905580669
4.2594841583573	-12.107603208658	-25.012523926185
4.2799624475802	-12.023447560019	-25.530538274093
4.3004407368031	-12.305830785438	-25.476684159071
4.3209190260259	-11.964188644295	-25.592417468940
4.3413973152488	-12.221936202951	-26.074172506228
4.3618756044717	-12.401990679483	-25.853099786197
4.3823538936945	-12.128883144675	-26.122055115503
4.4028321829174	-12.503147470205	-26.392940132063
4.4233104721403	-12.444975949141	-26.210289690076
4.4437887613632	-12.366107483060	-26.686224731556
4.4642670505860	-12.855602648420	-26.758705207757
4.4847453398089	-12.741994446019	-26.637364982424
4.5052236290318	-12.901889833441	-27.018142673300
4.5257019182546	-13.223660637816	-26.821177917571
4.5461802074775	-12.980938172944	-26.884962576976
4.5666584967004	-13.298738479068	-27.217235577665
4.5871367859233	-13.476892379853	-26.977833295121
4.6076150751461	-13.377692984390	-27.201327998462
4.6280933643690	-13.834579007106	-27.262398705727
4.6485716535919	-13.780738808171	-26.948700527229
4.6690499428147	-13.720660949016	-27.231338298332
4.6895282320376	-14.052041077554	-27.156087241770
4.7100065212605	-13.858666269286	-27.076011916927
4.7304848104834	-14.040097330156	-27.408561453704
4.7509630997062	-14.312550643935	-27.178431107698
4.7714413889291	-14.117910200355	-27.214245830116
4.7919196781520	-14.396997927665	-27.386964431427
4.8123979673749	-14.413020560572	-27.127820133828
4.8328762565977	-14.256336035245	-27.401109223526
4.8533545458206	-14.632863324852	-27.509638517171
4.8738328350435	-14.595641490291	-27.352188336572
4.8943111242663	-14.681949268725	-27.650277827465
4.9147894134892	-15.033639462312	-27.518762751450
4.9352677027121	-14.877356143941	-27.455158563725
4.9557459919350	-15.088853706811	-27.731460422393
4.9762242811578	-15.314378738502	-27.543191409798
4.9967025703807	-15.231226614345	-27.676122280263
5.0171808596036	-15.652939287204	-27.808548754895
5.0376591488264	-15.779752901199	-27.507177908862
5.0581374380493	-15.767543187273	-27.644212614536
5.0786157272722	-16.126718954768	-27.566669798594
5.0990940164951	-16.050329204816	-27.370292546496
5.1195723057179	-16.178230116419	-27.600559897027
5.1400505949408	-16.521937501087	-27.405147110563
5.1605288841637	-16.450657527880	-27.299345961070
5.1810071733865	-16.732072837131	-27.372906956910
5.2014854626094	-16.870937463115	-26.999691581525
5.2219637518323	-16.695544652609	-27.006540971575
5.2424420410552	-16.945804200809	-27.031726330737
5.2629203302780	-16.916288590302	-26.789059000286
5.2833986195009	-16.904404555723	-26.966721210650
5.3038769087238	-17.232156938335	-26.849285020559
5.3243551979466	-17.136118854878	-26.639655543981
5.3448334871695	-17.232447795595	-26.763283362579
5.3653117763924	-17.398254598277	-26.511716206653
5.3857900656153	-17.194944057969	-26.488408727614
5.4062683548381	-17.397313353227	-26.643072681301
5.4267466440610	-17.496709406053	-26.421075263577
5.4472249332839	-17.431586223692	-26.529475317461
5.4677032225067	-17.750208946768	-26.519631056667
5.4881815117296	-17.734666561230	-26.277538264302
5.5086598009525	-17.759921474354	-26.421120331241
5.5291380901754	-18.035313882429	-26.281382938262
5.5496163793982	-17.942985703955	-26.154475613339
5.5700946686211	-18.128012764905	-26.290120895691
5.5905729578440	-18.346382089824	-26.021493254108
5.6110512470668	-18.242057276377	-25.958858645532
5.6315295362897	-18.480180782188	-25.976474031319
5.6520078255126	-18.528433770121	-25.689610325576
5.6724861147355	-18.473379444687	-25.757936160604
5.6929644039583	-18.765246026324	-25.671955567764
5.7134426931812	-18.734703829803	-25.413651030073
5.7339209824041	-18.797149166573	-25.467995901335
5.7543992716269	-19.005215030952	-25.200131770170
5.7748775608498	-18.823053399889	-25.013631978027
5.7953558500727	-18.900548188692	-25.079951276389
5.8158341392956	-18.963645293606	-24.835318537016
5.8363124285184	-18.817237745164	-24.854379293871
5.8567907177413	-19.040002536638	-24.872809035157
5.8772690069642	-19.049862177447	-24.603055664244
5.8977472961871	-18.993364179804	-24.645362930292
5.9182255854099	-19.182696632005	-24.498072565465
5.9387038746328	-19.017214611992	-24.295374358179
5.9591821638557	-19.007897254693	-24.435841201384
5.9796604530785	-19.156284301022	-24.291969379211
6.0001387423014	-19.033796654154	-24.251746040562
6.0206170315243	-19.212617075205	-24.335297957111
6.0410953207472	-19.303398186594	-24.084722472834
6.0615736099700	-19.200418168577	-24.096151704260
6.0820518991929	-19.404454684177	-24.068878848453
6.1025301884158	-19.363874556153	-23.849078896337
6.1230084776386	-19.348920719846	-23.958535171958
6.1434867668615	-19.592711807256	-23.838988671761
6.1639650560844	-19.530781233327	-23.652153824978
6.1844433453073	-19.624324548893	-23.683794013234
6.2049216345301	-19.738069848287	-23.417340453698
6.2253999237530	-19.568187459894	-23.336810299592
6.2458782129759	-19.699588136942	-23.376006735715
6.2663565021987	-19.728117130707	-23.144884145343
6.2868347914216	-19.652996993192	-23.182291947312
6.3073130806445	-19.879544183577	-23.103204350376
6.3277913698674	-19.835912666689	-22.831031628443
6.3482696590902	-19.799575622484	-22.830245892906
6.3687479483131	-19.888213708938	-22.621655773562
6.3892262375360	-19.670797416311	-22.495438582073
6.4097045267588	-19.697087483495	-22.612006558964
6.4301828159817	-19.771293135742	-22.440481430412
6.4506611052046	-19.644561406309	-22.438880509386
6.4711393944275	-19.809601652444	-22.459564026203
6.4916176836503	-19.809996498725	-22.221216776785
6.5120959728732	-19.713814052728	-22.247946140902
6.5325742620961	-19.841220020493	-22.163622553245
6.5530525513189	-19.706125841326	-22.018448043963
6.5735308405418	-19.707928178588	-22.156875573310
6.5940091297647	-19.873105768158	-22.026916803195
6.6144874189876	-19.767973350198	-21.932476513682
6.6349657082104	-19.869891067766	-21.981577458533
6.6554439974333	-19.920467556523	-21.769502645323
6.6759222866562	-19.796501901020	-21.778197526812
6.6964005758790	-19.951301690263	-21.785986311232
6.7168788651019	-19.932861165015	-21.603644801968
6.7373571543248	-19.918509196307	-21.682701833444
6.7578354435477	-20.134025182225	-21.560949985173
6.7783137327705	-20.058612478555	-21.342638460924
6.7987920219934	-20.060583599798	-21.349492895403
6.8192703112163	-20.105203298329	-21.147154027482
6.8397486004392	-19.919992478979	-21.102321697127
6.8602268896620	-20.009942613066	-21.181845878732
6.8807051788849	-20.047513551090	-21.004814446393
6.9011834681078	-19.972211104710	-21.033778089848
6.9216617573306	-20.155892521182	-20.977891763273
6.9421400465535	-20.105612084838	-20.732795970560
6.9626183357764	-20.023759955715	-20.740465191933
6.9830966249993	-20.074104975453	-20.607064648191
7.0035749142221	-19.880692707649	-20.530991578830
7.0240532034450	-19.901528656237	-20.672076944308
7.0445314926679	-19.991320098696	-20.546800608968
7.0650097818907	-19.883474554806	-20.540397391963
7.0854880711136	-20.014868194412	-20.576205970405
7.1059663603365	-20.016676417760	-20.382472680506
7.1264446495594	-19.915712817159	-20.421519879094
7.1469229387822	-20.024163389913	-20.387688844937
7.1674012280051	-19.920412396000	-20.284031437022
7.1878795172280	-19.926339545414	-20.426759262055
7.2083578064508	-20.087674227860	-20.333689449611
7.2288360956737	-20.000753070068	-20.252521356701
7.2493143848966	-20.075419129449	-20.311262955131
7.2697926741195	-20.109236284300	-20.154197139689
7.2902709633423	-19.987896014304	-20.197251489982
7.3107492525652	-20.111174657398	-20.252411083050
7.3312275417881	-20.085966911372	-20.156198196202
7.3517058310109	-20.074879443555	-20.297392478696
7.3721841202338	-20.245546307019	-20.275517355375
7.3926624094567	-20.174688740825	-20.241219865093
7.4131406986796	-20.218814763484	-20.401982582285
7.4336189879024	-20.193693232555	-20.486405280889
7.4540972771253	-20.163992590595	-21.106358877601
7.4745755663482	-20.654954083117	-22.130549075483
7.4950538555710	-28.216634585745	-17.721962196985
7.5155321447939	-21.674353000261	-16.603427006655
7.5360104340168	-21.406388007086	-18.772156766743
7.5564887232397	-22.460522049320	-19.589745525669
7.5769670124625	-20.524856772091	-19.345567964021
7.5974453016854	-20.434904377409	-18.118839925622
7.6179235909083	-21.618137568797	-18.684328466433
7.6384018801311	-22.419594460145	-18.084236313605
7.6588801693540	-20.984794083726	-18.365218408107
7.6793584585769	-21.959502034128	-16.464208227943
7.6998367477998	-20.778446969036	-18.040206346289
7.7203150370226	-21.801742933236	-16.360355380860
7.7407933262455	-20.372068139738	-17.362787717260
7.7612716154684	-21.319937927630	-17.366294064422
