#Parameters = {C_1=25.412767459909; C_2=582.04806783857; Conductivity=10000000; Conductivity_Mo=17900000; Conductivity_MoGr=1000000; Ip=582.60257639714; Pipe_lenght=40; Pipe_r=30; beta=1; cells_wave=30; conductivity_copper=59500000; d=-882.04806783857; half_gap_x=4.5872325400905; half_gap_y=30; half_gap_z=150; mu_copper=0.999994; offset=1.8348930160362; offset_x=1; offset_y=5; sigma_z=5; teta=2.5; thcoll=25.412767459909; translate_z=-732.04806783857; wakelength=20000}
#"Frequency / GHz"	"X [Re / Ohm]"	"X [Im / Ohm]"
#-----------------------------------------------
0.0000000000000	-6.4464411075748e-13	-54.844913621394
0.0020478289222872	-19.596779443950	-48.448846090877
0.0040956578445743	-31.190049172553	-32.242937900601
0.0061434867668615	-30.748499979546	-13.612672712756
0.0081913156891487	-20.039544945333	-0.53264997800011
0.010239144611436	-5.3831850793492	2.3942520888693
0.012286973533723	5.8720206871768	-4.0844107441207
0.014334802456010	9.1323002598789	-14.823796853954
0.016382631378297	4.5458013633173	-23.447975418936
0.018430460300585	-3.7359266294230	-25.830109266683
0.020478289222872	-10.364491497029	-21.952434210062
0.022526118145159	-11.904656041002	-15.280413795317
0.024573947067446	-8.4687606363256	-10.271324753222
0.026621775989733	-3.1102828564412	-9.6471242147389
0.028669604912020	0.41493413401212	-13.037028688242
0.030717433834308	0.015680378638353	-17.629618022484
0.032765262756595	-3.6659089885899	-20.216169910680
0.034813091678882	-7.9852742620013	-19.234358336545
0.036860920601169	-10.183774091855	-15.561208074410
0.038908749523456	-9.1451888515674	-11.695179485563
0.040956578445743	-5.9365834984371	-9.9998603020253
0.043004407368031	-2.9101923421697	-11.205421652477
0.045052236290318	-2.0689273127891	-14.093936564587
0.047100065212605	-3.8035131034336	-16.463824023622
0.049147894134892	-6.7791201146522	-16.645379346048
0.051195723057179	-8.9495949780659	-14.545487305339
0.053243551979466	-8.9532597028557	-11.583045691072
0.055291380901754	-6.9543292170717	-9.6422668805000
0.057339209824041	-4.4226146294871	-9.7989699106921
0.059387038746328	-3.0716656362225	-11.668994437289
0.061434867668615	-3.7100256321781	-13.762885443195
0.063482696590902	-5.7666993414408	-14.546098948611
0.065530525513189	-7.7597032573777	-13.460102947520
0.067578354435477	-8.3387026042111	-11.232408845158
0.069626183357764	-7.1765012688281	-9.3139063405443
0.071674012280051	-5.1272396113000	-8.8685395376544
0.073721841202338	-3.5886385314536	-10.012334212185
0.075769670124625	-3.5374000507980	-11.794045504704
0.077817499046912	-4.8984149660730	-12.889700126451
0.079865327969200	-6.6508784549744	-12.509496334956
0.081913156891487	-7.5620908154025	-10.900075180114
0.083960985813774	-7.0262156352416	-9.1266817864974
0.086008814736061	-5.4410458507238	-8.3167574243290
0.088056643658348	-3.8924928667881	-8.8981454373643
0.090104472580635	-3.3912432159160	-10.343456700710
0.092152301502923	-4.1950754171566	-11.568979524252
0.094200130425210	-5.6686697363520	-11.690361226075
0.096247959347497	-6.7515368062892	-10.610727768241
0.098295788269784	-6.6926117940479	-9.0523417924331
0.10034361719207	-5.5450491219189	-8.0339983630357
0.10239144611436	-4.0973702985109	-8.1696713124008
0.10443927503665	-3.3103338142295	-9.2691306268238
0.10648710395893	-3.6596108606497	-10.498301530249
0.10853493288122	-4.8322656707786	-10.969117914025
0.11058276180351	-5.9687811324544	-10.343463993075
0.11263059072579	-6.2663322560007	-9.0419511324104
0.11467841964808	-5.5214801254484	-7.9307403919404
0.11672624857037	-4.2468086201968	-7.7175008481787
0.11877407749266	-3.2976092357724	-8.4763021978576
0.12082190641494	-3.2789250056170	-9.6191367619482
0.12286973533723	-4.1428216592871	-10.318036566756
0.12491756425952	-5.2428272049113	-10.076020419608
0.12696539318180	-5.7933711500479	-9.0541966176885
0.12901322210409	-5.4088453787288	-7.9407705431502
0.13106105102638	-4.3533519657268	-7.4657285416683
0.13310887994867	-3.3404951641350	-7.9023936869816
0.13515670887095	-3.0334229939151	-8.8952879803119
0.13720453779324	-3.5944996730922	-9.7214067834480
0.13925236671553	-4.5896230329197	-9.7939633614411
0.14130019563781	-5.3017709201915	-9.0583928227279
0.14334802456010	-5.2282103956487	-8.0140604985485
0.14539585348239	-4.4173041992081	-7.3577108180209
0.14744368240468	-3.4199492679516	-7.5024359827840
0.14949151132696	-2.8995848312681	-8.3035887917952
0.15153934024925	-3.1761717203604	-9.1728047360573
0.15358716917154	-4.0169957753907	-9.4917492575378
0.15563499809382	-4.8103674471812	-9.0352187671203
0.15768282701611	-4.9934881650584	-8.1146029524886
0.15973065593840	-4.4357410420291	-7.3511221326260
0.16177848486069	-3.5168583582204	-7.2432644231415
0.16382631378297	-2.8543895264108	-7.8291025107518
0.16587414270526	-2.8754945425644	-8.6717623547612
0.16792197162755	-3.5295166706382	-9.1699101530226
0.16996980054984	-4.3342909877399	-8.9730647708426
0.17201762947212	-4.7164122728436	-8.2153037373252
0.17406545839441	-4.4057613890943	-7.4119510599076
0.17611328731670	-3.6132201852065	-7.0979000852614
0.17816111623898	-2.8751189860950	-7.4610036382789
0.18020894516127	-2.6785592425141	-8.2214327247839
0.18225677408356	-3.1289902437486	-8.8339039543282
0.18430460300585	-3.8865649256546	-8.8670663486417
0.18635243192813	-4.4088091359383	-8.2964091783869
0.18840026085042	-4.3266934643405	-7.5120970322824
0.19044808977271	-3.6936990970512	-7.0426178227587
0.19249591869499	-2.9400773163179	-7.1896457326648
0.19454374761728	-2.5699533540695	-7.8261002726713
0.19659157653957	-2.8142124346705	-8.4922657098120
0.19863940546186	-3.4779015702056	-8.7178619978099
0.20068723438414	-4.0826650210139	-8.3446920709753
0.20273506330643	-4.2005376159217	-7.6287463207920
0.20478289222872	-3.7464243060210	-7.0562710267235
0.20683072115100	-3.0296089079780	-7.0056436966777
0.20887855007329	-2.5337837446326	-7.4899388767352
0.21092637899558	-2.5817846154083	-8.1551046827456
0.21297420791787	-3.1171927329205	-8.5300047774975
0.21502203684015	-3.7503274390741	-8.3519635580806
0.21706986576244	-4.0320155071901	-7.7430692647952
0.21911769468473	-3.7630072800010	-7.1191229948627
0.22116552360701	-3.1260841187483	-6.8987280183808
0.22321335252930	-2.5535115609474	-7.2158529131894
0.22526118145159	-2.4256789567750	-7.8330549946007
0.22730901037388	-2.8108388442285	-8.3112529900371
0.22935683929616	-3.4238418910606	-8.3148734207679
0.23140466821845	-3.8282649359982	-7.8404704694314
0.23345249714074	-3.7388369046620	-7.2132249990451
0.23550032606302	-3.2147487545043	-6.8578168681180
0.23754815498531	-2.6130128313480	-7.0049465944559
0.23959598390760	-2.3380555464850	-7.5361632908889
0.24164381282989	-2.5630211029399	-8.0711983484267
0.24369164175217	-3.1146955700675	-8.2336924655885
0.24573947067446	-3.5983412239387	-7.9097704435440
0.24778729959675	-3.6726686566298	-7.3219434433548
0.24983512851903	-3.2835356131308	-6.8706255506244
0.25188295744132	-2.6964724855259	-6.8559821644009
0.25393078636361	-2.3089636892441	-7.2732007205804
0.25597861528590	-2.3750530211808	-7.8206936787746
0.25802644420818	-2.8329556412912	-8.1121810908021
0.26007427313047	-3.3525287512386	-7.9436351171633
0.26212210205276	-3.5665004257785	-7.4307223431978
0.26416993097504	-3.3236204237260	-6.9242851819057
0.26621775989733	-2.7893487522856	-6.7654163906854
0.26826558881962	-2.3272010668251	-7.0509995029010
0.27031341774191	-2.2456921902190	-7.5707729060578
0.27236124666419	-2.5869341715395	-7.9565949452364
0.27440907558648	-3.1016461516964	-7.9380647108632
0.27645690450877	-3.4249793234622	-7.5271035139711
0.27850473343106	-3.3292461983659	-7.0055926985745
0.28055256235334	-2.8785808727991	-6.7274682372325
0.28260039127563	-2.3805704434512	-6.8741212352106
0.28464822019792	-2.1710750179822	-7.3320535985995
0.28669604912020	-2.3826790173837	-7.7752027641398
0.28874387804249	-2.8563226341103	-7.8923700891266
0.29079170696478	-3.2548889153606	-7.6012057557985
0.29283953588707	-3.2977417581618	-7.1016901218891
0.29488736480935	-2.9531224158925	-6.7345496731767
0.29693519373164	-2.4565790747752	-6.7447536816025
0.29898302265393	-2.1451413526739	-7.1141737485825
0.30103085157621	-2.2238967925652	-7.5776402591214
0.30307868049850	-2.6265614238157	-7.8088529217967
0.30512650942079	-3.0647568312587	-7.6458782985071
0.30717433834308	-3.2295434198316	-7.2004680642593
0.30922216726536	-3.0044383800095	-6.7774825403247
0.31126999618765	-2.5431053981206	-6.6624041382208
0.31331782510994	-2.1599998739839	-6.9249746333472
0.31536565403222	-2.1117050888405	-7.3739549767708
0.31741348295451	-2.4209467581738	-7.6922040746203
0.31946131187680	-2.8639276342041	-7.6567375700770
0.32150914079909	-3.1276184703239	-7.2911324132780
0.32355696972137	-3.0265211213625	-6.8461732470650
0.32560479864366	-2.6288599116180	-6.6242354172208
0.32765262756595	-2.2064177984750	-6.7703226535715
0.32970045648823	-2.0447651144966	-7.1741098914730
0.33174828541052	-2.2463296870539	-7.5490961017913
0.33379611433281	-2.6620567084489	-7.6321649323279
0.33584394325510	-2.9971689028696	-7.3646042987325
0.33789177217738	-3.0160527886436	-6.9300980098328
0.33993960109967	-2.7039152932366	-6.6252381848113
0.34198743002196	-2.2743465847989	-6.6537819053967
0.34403525894424	-2.0194123818274	-6.9873239843270
0.34608308786653	-2.1074347247418	-7.3876055122401
0.34813091678882	-2.4684243716308	-7.5731849562571
0.35017874571111	-2.8450917226985	-7.4139277035485
0.35222657463339	-2.9723586208516	-7.0189578640676
0.35427440355568	-2.7601710924496	-6.6586875857561
0.35632223247797	-2.3535786494086	-6.5765662999568
0.35837006140025	-2.0300712632996	-6.8215577162971
0.36041789032254	-2.0067817248346	-7.2165776089613
0.36246571924483	-2.2914638392817	-7.4831154273210
0.36451354816712	-2.6794799101157	-7.4343850944630
0.36656137708940	-2.8972475861126	-7.1030932580587
0.36860920601169	-2.7916352435240	-6.7164688355306
0.37065703493398	-2.4342304759330	-6.5374503540456
0.37270486385627	-2.0695280772140	-6.6829861495325
0.37475269277855	-1.9444583935699	-7.0449700074966
0.37680052170084	-2.1380767637707	-7.3672145690669
0.37884835062313	-2.5088419586967	-7.4237098736580
0.38089617954541	-2.7945782599187	-7.1741689760090
0.38294400846770	-2.7945673807459	-6.7898455285862
0.38499183738999	-2.5073348771041	-6.5331929112928
0.38703966631228	-2.1295797566999	-6.5758900566409
0.38908749523456	-1.9184386196770	-6.8813727079303
0.39113532415685	-2.0134958761922	-7.2322107584709
0.39318315307914	-2.3417110172169	-7.3819510499077
0.39523098200142	-2.6699804030610	-7.2254193194284
0.39727881092371	-2.7675692641692	-6.8698322582380
0.39932663984600	-2.5652593912459	-6.5586810168265
0.40137446876829	-2.2014718762148	-6.5023795916057
0.40342229769057	-1.9246888761396	-6.7334332992558
0.40547012661286	-1.9209243690823	-7.0857871526379
0.40751795553515	-2.1860062716393	-7.3113623889097
0.40956578445743	-2.5303315412429	-7.2520284111203
0.41161361337972	-2.7115072720802	-6.9478252309387
0.41366144230201	-2.6021152401593	-6.6074002965453
0.41570927122430	-2.2765144901826	-6.4624005177055
0.41775710014658	-1.9575802713354	-6.6074057955482
0.41980492906887	-1.8614798898022	-6.9359818674963
0.42185275799116	-2.0485656796508	-7.2160504717662
0.42390058691344	-2.3832092495900	-7.2512399910302
0.42594841583573	-2.6292555475737	-7.0160648552661
0.42799624475802	-2.6139469206096	-6.6719033689629
0.43004407368031	-2.3465565167846	-6.4538708876453
0.43209190260259	-2.0102900057043	-6.5078633277516
0.43413973152488	-1.8342255265257	-6.7906899859172
0.43618756044717	-1.9347797780074	-7.1016296041005
0.43823538936945	-2.2363899183018	-7.2224190710461
0.44028321829174	-2.5254247463207	-7.0680664993328
0.44233104721403	-2.5989001554405	-6.7443041772027
0.44437887613632	-2.4044961684051	-6.4728774621716
0.44642670505860	-2.0753146853880	-6.4374311450188
0.44847453398089	-1.8363354953664	-6.6570801251118
0.45052236290318	-1.8482876530273	-6.9746821194002
0.45257019182546	-2.0972624382401	-7.1668841624733
0.45461802074775	-2.4058586263716	-7.0989003308046
0.45666584967004	-2.5570930480566	-6.8167846328300
0.45871367859233	-2.4445491777504	-6.5140523281943
0.46076150751461	-2.1448835780286	-6.3967911165896
0.46280933643690	-1.8633124932302	-6.5412649484281
0.46485716535919	-1.7908130929510	-6.8423792492789
0.46690499428147	-1.9723850022681	-7.0878017653090
0.46895282320376	-2.2772276166592	-7.1054880399270
0.47100065212605	-2.4905518447113	-6.8821321651142
0.47304848104834	-2.4626030069928	-6.5710094991126
0.47509630997062	-2.2115198697047	-6.3847330115367
0.47714413889291	-1.9093998100662	-6.4479396655710
0.47919196781520	-1.7621714781609	-6.7119580697339
0.48123979673749	-1.8671074909848	-6.9898602072908
0.48328762565977	-2.1465500829289	-7.0866933760317
0.48533545458206	-2.4029822657810	-6.9341779568668
0.48738328350435	-2.4564167223450	-6.6368217452033
0.48943111242663	-2.2685545204915	-6.3983334130419
0.49147894134892	-1.9680829683325	-6.3801280579549
0.49352677027121	-1.7604461094420	-6.5901888660840
0.49557459919350	-1.7853339055329	-6.8787899328142
0.49762242811578	-2.0207293929156	-7.0431732911183
0.49967025703807	-2.2994069949646	-6.9680148097511
0.50171808596036	-2.4255899766601	-6.7043832652062
0.50376591488264	-2.3104021324123	-6.4331488571548
0.50581374380493	-2.0324141674470	-6.3390278013087
0.50786157272722	-1.7820572697600	-6.4829609737681
0.50990940164951	-1.7292076635771	-6.7609859186820
0.51195723057179	-1.9060014999945	-6.9773337060743
0.51400505949408	-2.1857028897846	-6.9803733545270
0.51605288841637	-2.3714776627960	-6.7670167615279
0.51810071733865	-2.3329058546902	-6.4837107198989
0.52014854626094	-2.0955700069060	-6.3241247753976
0.52219637518323	-1.8221934822851	-6.3949984639216
0.52424420410552	-1.6991836828294	-6.6430602495367
0.52629203302780	-1.8076723356438	-6.8930390019744
0.52833986195009	-2.0682559031598	-6.9696708446076
0.53038769087238	-2.2970563981158	-6.8187854149516
0.53243551979466	-2.3335407133044	-6.5438283017171
0.53448334871695	-2.1512603424375	-6.3332187658494
0.53653117763924	-1.8751330300782	-6.3295385374941
0.53857900656153	-1.6940178996534	-6.5313551451911
0.54062683548381	-1.7297551535273	-6.7952679984042
0.54267466440610	-1.9534692383631	-6.9360288308687
0.54472249332839	-2.2066171049286	-6.8548465937217
0.54677032225067	-2.3114773456303	-6.6070236102534
0.54881815117296	-2.1940922221959	-6.3626303775180
0.55086598009525	-1.9346268687823	-6.2881618002890
0.55291380901754	-1.7108710197967	-6.4315125350823
0.55496163793982	-1.6746859908537	-6.6897258823141
0.55700946686211	-1.8472470319431	-6.8812113766383
0.55905729578440	-2.1053341603993	-6.8717882434041
0.56110512470668	-2.2675011212717	-6.6670781560620
0.56315295362897	-2.2198756384282	-6.4076395556953
0.56520078255126	-1.9943820969326	-6.2708876422665
0.56724861147355	-1.7456641901029	-6.3482276831422
0.56929644039583	-1.6433595704115	-6.5824806912615
0.57134426931812	-1.7547573715580	-6.8084263371639
0.57339209824041	-1.9989967827216	-6.8677336492371
0.57543992716269	-2.2039675084357	-6.7183418762941
0.57748775608498	-2.2258856436775	-6.4627372644856
0.57953558500727	-2.0484783750284	-6.2761365711086
0.58158341392956	-1.7933680562902	-6.2848904743876
0.58363124285184	-1.6350796844694	-6.4794820629127
0.58567907177413	-1.6800558216150	-6.7220171394289
0.58772690069642	-1.8935389431142	-6.8423952084037
0.58977472961871	-2.1245369452899	-6.7560989845755
0.59182255854099	-2.2109632238048	-6.5220461674307
0.59387038746328	-2.0917489176453	-6.3009152671158
0.59591821638557	-1.8483905796197	-6.2434079390889
0.59796604530785	-1.6476801587698	-6.3861420054622
0.60001387423014	-1.6258509307911	-6.6270847668948
0.60206170315243	-1.7946026649470	-6.7969878758517
0.60410953207472	-2.0338217503922	-6.7768210481542
0.60615736099700	-2.1754662577290	-6.5797315638076
0.60820518991929	-2.1200415376802	-6.3411042752503
0.61025301884158	-1.9049417805352	-6.2241846611842
0.61230084776386	-1.6777237225784	-6.3070461704911
0.61434867668615	-1.5933950660309	-6.5291581491276
0.61639650560844	-1.7072045492578	-6.7341121003399
0.61844433453073	-1.9370763163773	-6.7783600409409
0.62049216345301	-2.1212181736348	-6.6303762183196
0.62253999237530	-2.1304791884079	-6.3917500845803
0.62458782129759	-1.9574373866108	-6.2261177563185
0.62663565021987	-1.7207731370564	-6.2456399660358
0.62868347914216	-1.5824318048650	-6.4337739081847
0.63073130806445	-1.6353865325807	-6.6575062662048
0.63277913698674	-1.8397798503341	-6.7600373924041
0.63482696590902	-2.0512966283046	-6.6693419433827
0.63687479483131	-2.1215862977689	-6.4474513496763
0.63892262375360	-2.0008628411448	-6.2467465200099
0.64097045267588	-1.7717312231142	-6.2040460739618
0.64301828159817	-1.5912692001274	-6.3460960761959
0.64506611052046	-1.5819646829788	-6.5717389164717
0.64711393944275	-1.7472258380297	-6.7226287913083
0.64916176836503	-1.9697362888209	-6.6930672012786
0.65120959728732	-2.0932976592911	-6.5027790134992
0.65325742620961	-2.0310716667124	-6.2825281396678
0.65530525513189	-1.8252193050193	-6.1830362119446
0.65735308405418	-1.6169853800686	-6.2706381788188
0.65940091297647	-1.5484419828166	-6.4819054865570
0.66144874189876	-1.6642357376162	-6.6682685110095
0.66349657082104	-1.8812807669597	-6.6992553923576
0.66554439974333	-2.0469590439540	-6.5526149400010
0.66759222866562	-2.0450675194585	-6.3290780637400
0.66964005758790	-1.8759703783319	-6.1819858685037
0.67168788651019	-1.6556769825625	-6.2109400053077
0.67373571543248	-1.5349489788641	-6.3932275139151
0.67578354435477	-1.5948361696788	-6.6002272242219
0.67783137327705	-1.7910189845392	-6.6869668119428
0.67987920219934	-1.9851711099261	-6.5924796519355
0.68192703112163	-2.0411595238350	-6.3814956842571
0.68397486004391	-1.9191852178725	-6.1989646976182
0.68602268896620	-1.7027689688139	-6.1693539399206
0.68807051788849	-1.5402952561630	-6.3106757829778
0.69011834681078	-1.5420206215257	-6.5226225770828
0.69216617573306	-1.7040254845103	-6.6566022258465
0.69421400465535	-1.9115569528073	-6.6187814807349
0.69626183357764	-2.0190116262800	-6.4346859831106
0.69830966249993	-1.9508164425933	-6.2308886426288
0.70035749142221	-1.7533183377091	-6.1469069101641
0.70240532034450	-1.5620607845968	-6.2386280183726
0.70445314926679	-1.5075424052204	-6.4401060980283
0.70650097818907	-1.6249765023635	-6.6098379870320
0.70854880711136	-1.8304477484470	-6.6290519813205
0.71059663603365	-1.9795999101861	-6.4837432701662
0.71264446495594	-1.9678164248798	-6.2737995867833
0.71469229387822	-1.8023757650610	-6.1432956092771
0.71674012280051	-1.5968203462465	-6.1805936503050
0.71878795172280	-1.4918482643846	-6.3575140154297
0.72083578064508	-1.5578393230705	-6.5494454429274
0.72288360956737	-1.7465389274810	-6.6220564529723
0.72493143848966	-1.9250632302487	-6.5242744020350
0.72697926741195	-1.9682699666273	-6.3231807540473
0.72902709633423	-1.8452909147289	-6.1569874425251
0.73107492525652	-1.6403960146580	-6.1390511820949
0.73312275417881	-1.4940973053676	-6.2795809135802
0.73517058310109	-1.5056493433101	-6.4791081926183
0.73721841202338	-1.6645948216557	-6.5978670018303
0.73926624094567	-1.8585625166096	-6.5526953866891
0.74131406986796	-1.9515316945569	-6.3742805898815
0.74336189879024	-1.8780583079730	-6.1853475063823
0.74540972771253	-1.6881939987490	-6.1152830221684
0.74745755663482	-1.5122721183700	-6.2105843714800
0.74950538555710	-1.4703286984179	-6.4031076544739
0.75155321447939	-1.5891041601884	-6.5577919231282
0.75360104340168	-1.7840100190494	-6.5664412659158
0.75564887232397	-1.9182114522326	-6.4224502199185
0.75769670124625	-1.8975633710765	-6.2248678277588
0.75974453016854	-1.7355378865391	-6.1093403310742
