#Parameters = {C_1=22; C_2=503.88284206549; Conductivity=10000; Conductivity_Mo=17900000; Conductivity_MoGr=1000000; Conductivity_W=18000000; Ip=504.36288377317; Pipe_lenght=40; Pipe_r=30; beta=1; cells_wave=30; conductivity_copper=59500000; d=-603.88284206549; half_gap_x=30; half_gap_y=8; half_gap_z=50; mu_copper=0.999994; offset_x=5; offset_y=1; sigma_z=5; teta=2.5; thcoll=22; translate_z=-553.88284206549; wakelength=20000}
#"Frequency / GHz"	"Z [Re / Ohm]"	"Z [Im / Ohm]"
#-----------------------------------------------
0.0000000000000	0.090409958293621	-2.4737265873102e-13
0.0020002000200020	0.084279786455039	-0.022322678241185
0.0040004000400040	0.067523209853191	-0.038771350414860
0.0060006000600060	0.044501256101899	-0.045230508859361
0.0080008000800080	0.020883505465334	-0.040479511297194
0.010001000100010	0.0018794114801627	-0.026329598958335
0.012001200120012	-0.0092440001401282	-0.0067702058561522
0.014001400140014	-0.011864954066800	0.013501236392869
0.016001600160016	-0.0077630569668851	0.030593540587816
0.018001800180018	-0.00012698264559940	0.042446376127649
0.020002000200020	0.0077335606282991	0.049073612352527
0.022002200220022	0.013468117021813	0.052062801068334
0.024002400240024	0.016206841685163	0.053641811445621
0.026002600260026	0.016441114229614	0.055736929309396
0.028002800280028	0.015442366677718	0.059374255243024
0.030003000300030	0.014543783266835	0.064574481177781
0.032003200320032	0.014597166184652	0.070664237904682
0.034003400340034	0.015778216625549	0.076775081330666
0.036003600360036	0.017729451675453	0.082275730544380
0.038003800380038	0.019889127793462	0.086972014115685
0.040004000400040	0.021810647759308	0.091050875917850
0.042004200420042	0.023330283985069	0.094865434104743
0.044004400440044	0.024547221989836	0.098706681173760
0.046004600460046	0.025678273448840	0.10267645802039
0.048004800480048	0.026894981063854	0.10669755265182
0.050005000500050	0.028232576303830	0.11061873921638
0.052005200520052	0.029601097489286	0.11433384179591
0.054005400540054	0.030867604236598	0.11784569684426
0.056005600560056	0.031946970688895	0.12125147710487
0.058005800580058	0.032847548443628	0.12467430224937
0.060006000600060	0.033654244081164	0.12819094888224
0.062006200620062	0.034470245085893	0.13179793222730
0.064006400640064	0.035358081559435	0.13542857166713
0.066006600660066	0.036313710980223	0.13900239118212
0.068006800680068	0.037282527457998	0.14247310199848
0.070007000700070	0.038200700301749	0.14584814438750
0.072007200720072	0.039033620450893	0.14917377651769
0.074007400740074	0.039789791303573	0.15250060551305
0.076007600760076	0.040506491320826	0.15585326564944
0.078007800780078	0.041220718864944	0.15922151298409
0.080008000800080	0.041945432914194	0.16257447048623
0.082008200820082	0.042664761256913	0.16588562210431
0.084008400840084	0.043348325340517	0.16915153897989
0.086008600860086	0.043973191451806	0.17239357262276
0.088008800880088	0.044538869158800	0.17564360392446
0.090009000900090	0.045066912205446	0.17892453031494
0.092009200920092	0.045587119521923	0.18223804858943
0.094009400940094	0.046120238825763	0.18556632308750
0.096009600960096	0.046667997560667	0.18888491395328
0.098009800980098	0.047215539064739	0.19217784935848
0.10001000100010	0.047743221345301	0.19544555120022
0.10201020102010	0.048239450461503	0.19870180573834
0.10401040104010	0.048706639895978	0.20196310171749
0.10601060106011	0.049157579656708	0.20523790174310
0.10801080108011	0.049605734816963	0.20852251498325
0.11001100110011	0.050056331772029	0.21180534294222
0.11201120112011	0.050503806269799	0.21507583731543
0.11401140114011	0.050936582762302	0.21833195062384
0.11601160116012	0.051345435990994	0.22158145045376
0.11801180118012	0.051729791808059	0.22483678661673
0.12001200120012	0.052098144509634	0.22810728654547
0.12201220122012	0.052462801829204	0.23139378936295
0.12401240124012	0.052832691108416	0.23468884962583
0.12601260126013	0.053208827913627	0.23798189630111
0.12801280128013	0.053584972402323	0.24126571869601
0.13001300130013	0.053952547382673	0.24454017581810
0.13201320132013	0.054306342862878	0.24781114758621
0.13401340134013	0.054647389806699	0.25108590090109
0.13601360136014	0.054981516443288	0.25436816570105
0.13801380138014	0.055314962029277	0.25765607296593
0.14001400140014	0.055650154467910	0.26094399337810
0.14201420142014	0.055984371499657	0.26422673618593
0.14401440144014	0.056311928313849	0.26750318896083
0.14601460146015	0.056628222342865	0.27077706955294
0.14801480148015	0.056932900442183	0.27405448572925
0.15001500150015	0.057230169037232	0.27734005940294
0.15201520152015	0.057526223046918	0.28063416312652
0.15401540154015	0.057825594621583	0.28393293423806
0.15601560156016	0.058128773590862	0.28723086237597
0.15801580158016	0.058432476673002	0.29052414568950
0.16001600160016	0.058732173761571	0.29381267059436
0.16201620162016	0.059025094989646	0.29709950853896
0.16401640164016	0.059311787916169	0.30038847904001
0.16601660166017	0.059595374027827	0.30368150593002
0.16801680168017	0.059879189432431	0.30697748264316
0.17001700170017	0.060164475987446	0.31027325852486
0.17201720172017	0.060449631838093	0.31356594496305
0.17401740174017	0.060731416489557	0.31685494171120
0.17601760176018	0.061007213829833	0.32014236753461
0.17801780178018	0.061276825435426	0.32343169031695
0.18001800180018	0.061542656226117	0.32672552436397
0.18201820182018	0.061808249747407	0.33002404271077
0.18401840184018	0.062076185923170	0.33332497707400
0.18601860186019	0.062346698468785	0.33662511173344
0.18801880188019	0.062617827727770	0.33992223797167
0.19001900190019	0.062886899311504	0.34321631386899
0.19201920192019	0.063152294563840	0.34650916547832
0.19401940194019	0.063414368442559	0.34980303984810
0.19601960196020	0.063674998133946	0.35309903073084
0.19801980198020	0.063936162277459	0.35639640667864
0.20002000200020	0.064198550092714	0.35969321768244
0.20202020202020	0.064461116813492	0.36298770179378
0.20402040204020	0.064721831594140	0.36627951948860
0.20602060206021	0.064979073036697	0.36957000754043
0.20802080208021	0.065232732527352	0.37286132234066
0.21002100210021	0.065484319104151	0.37615506900423
0.21202120212021	0.065736036660481	0.37945131664426
0.21402140214021	0.065989465124923	0.38274860912297
0.21602160216022	0.066244697919194	0.38604491374147
0.21802180218022	0.066500450769700	0.38933885640156
0.22002200220022	0.066755008966537	0.39263044789915
0.22202220222022	0.067007354540579	0.39592087940716
0.22402240224022	0.067257742108251	0.39921158704481
0.22602260226023	0.067507393446566	0.40250324201760
0.22802280228023	0.067757571174239	0.40579532955447
0.23002300230023	0.068008680036445	0.40908655746382
0.23202320232023	0.068259990503207	0.41237577986248
0.23402340234023	0.068510141941844	0.41566279983261
0.23602360236024	0.068758064580326	0.41894852285946
0.23802380238024	0.069003700550298	0.42223437943354
0.24002400240024	0.069248059665216	0.42552141446019
0.24202420242024	0.069492594972300	0.42880964129489
0.24402440244024	0.069738322040937	0.43209806302479
0.24602460246025	0.069985251452147	0.43538531780729
0.24802480248025	0.070232476156564	0.43867050821321
0.25002500250025	0.070478819238123	0.44195368009256
0.25202520252025	0.070723594541168	0.44523567044364
0.25402540254025	0.070966986144467	0.44851746495515
0.25602560256026	0.071209827402469	0.45179951397664
0.25802580258026	0.071452962476468	0.45508145712404
0.26002600260026	0.071696636122689	0.45836241576073
0.26202620262026	0.071940317163962	0.46164163216398
0.26402640264026	0.072183057989663	0.46491901570381
0.26602660266027	0.072424135647997	0.46819523460486
0.26802680268027	0.072663544119260	0.47147130292805
0.27002700270027	0.072902018944919	0.47474794406354
0.27202720272027	0.073140590025463	0.47802514788434
0.27402740274027	0.073379963458318	0.48130219872291
0.27602760276028	0.073620131444261	0.48457813773053
0.27802780278028	0.073860445771352	0.48785234633050
0.28002800280028	0.074100082264581	0.49112487488287
0.28202820282028	0.074338576542042	0.49439632336526
0.28402840284028	0.074576082555988	0.49766737963309
0.28602860286029	0.074813203554995	0.50093833686269
0.28802880288029	0.075050531473176	0.50420890868044
0.29002900290029	0.075288215291193	0.50747845000094
0.29202920292029	0.075525845904046	0.51074641977687
0.29402940294029	0.075762725138294	0.51401276847342
0.29602960296030	0.075998330812726	0.51727799341773
0.29802980298030	0.076232666440391	0.52054283150632
0.30003000300030	0.076466268716477	0.52380779716314
0.30203020302030	0.076699875500727	0.52707286811031
0.30403040304030	0.076933976795537	0.53033751617423
0.30603060306031	0.077168538780070	0.53360105094755
0.30803080308031	0.077403068234211	0.53686304430002
0.31003100310031	0.077636958720168	0.54012356194612
0.31203120312031	0.077869881362158	0.54338306530780
0.31403140314031	0.078101965890393	0.54664206655063
0.31603160316032	0.078333666302256	0.54990077584995
0.31803180318032	0.078565416507492	0.55315897367595
0.32003200320032	0.078797314644795	0.55641618281984
0.32203220322032	0.079029046426487	0.55967201418696
0.32403240324032	0.079260092569840	0.56292644982047
0.32603260326033	0.079490076223209	0.56617987521130
0.32803280328033	0.079719017867488	0.56943284328656
0.33003300330033	0.079947331820211	0.57268572901512
0.33203320332033	0.080175571445059	0.57593850081647
0.33403340334033	0.080404093076297	0.57919075271663
0.33603360336034	0.080632855735416	0.58244196810464
0.33803380338034	0.080861478348126	0.58569183779162
0.34003400340034	0.081089505450625	0.58894042728071
0.34203420342034	0.081316700052514	0.59218809439138
0.34403440344034	0.081543173027289	0.59543522452555
0.34603460346035	0.081769273535080	0.59868196648356
0.34803480348035	0.081995324789029	0.60192814333892
0.35003500350035	0.082221387916785	0.60517339054546
0.35203520352035	0.082447211562237	0.60841742130491
0.35403540354035	0.082672396934595	0.61166023796205
0.35603560356036	0.082896664526464	0.61490214871178
0.35803580358036	0.083120044225062	0.61814358075498
0.36003600360036	0.083342864831359	0.62138481503175
0.36203620362036	0.083565552945083	0.62462581605037
0.36403640364036	0.083788374820295	0.62786626410207
0.36603660366037	0.084011287777810	0.63110576307026
0.36803680368037	0.084233991468599	0.63434408465145
0.37003700370037	0.084456136982740	0.63758129158398
0.37203720372037	0.084677551534688	0.64081766712882
0.37403740374037	0.084898332454455	0.64405350685450
0.37603760376038	0.085118755725041	0.64728891618719
0.37803780378038	0.085339068229174	0.65052374754465
0.38003800380038	0.085559307019211	0.65375771380680
0.38203820382038	0.085779266368537	0.65699059688220
0.38403840384038	0.085998631981227	0.66022240927627
0.38603860386039	0.086217190470556	0.66345340104923
0.38803880388039	0.086434974384650	0.66668390894249
0.39003900390039	0.086652248214916	0.66991414829007
0.39203920392039	0.086869346776921	0.67314408362068
0.39403940394039	0.087086473071145	0.67637345943208
0.39603960396040	0.087303585970671	0.67960196663870
0.39803980398040	0.087520445836235	0.68282943334569
0.40004000400040	0.087736781654329	0.68605591695251
0.40204020402040	0.087952466045007	0.68928164335121
0.40404040404040	0.088167584033455	0.69250684065826
0.40604060406041	0.088382355602268	0.69573158198760
0.40804080408041	0.088596969807352	0.69895574145135
0.41004100410041	0.088811444786086	0.70217908909152
0.41204120412041	0.089025607452503	0.70540145742124
0.41404140414041	0.089239204804305	0.70862286626243
0.41604160416042	0.089452071116090	0.71184352254343
0.41804180418042	0.089664239636867	0.71506369593589
0.42004200420042	0.089875925842856	0.71828355293540
0.42204220422042	0.090087394707256	0.72150305767034
0.42404240424042	0.090298799678993	0.72472200196479
0.42604260426043	0.090510097162280	0.72794014180466
0.42804280428043	0.090721088348439	0.73115734922627
0.43004300430043	0.090931556122519	0.73437368177676
0.43204320432043	0.091141404337132	0.73758932876182
0.43404340434043	0.091350708794452	0.74080447528490
0.43604360436044	0.091559650547649	0.74401917732358
0.43804380438044	0.091768380692416	0.74723333045484
0.44004400440044	0.091976909584545	0.75044675017161
0.44204420442044	0.092185094628207	0.75365930708674
0.44404440444044	0.092392733497094	0.75687102507986
0.44604460446045	0.092599699431414	0.76008207679131
0.44804480448045	0.092806028387706	0.76329267993423
0.45004500450045	0.093011900940045	0.76650296323812
0.45204520452045	0.093217531771319	0.76971288961389
0.45404540454045	0.093423039600536	0.77292228513380
0.45604560456046	0.093628381404658	0.77613095259164
0.45804580458046	0.093833390841240	0.77933879421805
0.46004600460046	0.094037892049450	0.78254586458701
0.46204620462046	0.094241812109482	0.78575232278856
0.46404640464046	0.094445219115209	0.78895831968407
0.46604660466047	0.094648264183355	0.79216389726304
0.46804680468047	0.094851069734063	0.79536896650297
0.47004700470047	0.095053640646930	0.79857337610937
0.47204720472047	0.095255857680071	0.80177702379323
0.47404740474047	0.095457556505872	0.80497993446825
0.47604760476048	0.095658638719458	0.80818225307318
0.47804780478048	0.095859140779801	0.81138415710080
0.48004800480048	0.096059215645577	0.81458574680981
0.48204820482048	0.096259039833355	0.81778698484394
0.48404840484048	0.096458707050962	0.82098772343055
0.48604860486049	0.096658176909835	0.82418779957856
0.48804880488049	0.096857309677907	0.82738713514356
0.49004900490049	0.097055961297845	0.83058577743091
0.49204920492049	0.097254074609386	0.83378385683879
0.49404940494049	0.097451707462360	0.83698149303442
0.49604960496050	0.097648981909997	0.84017871385039
0.49804980498050	0.097845991314117	0.84337544061765
0.50005000500050	0.098042729105946	0.84657154802811
0.50205020502050	0.098239087046887	0.84976695678108
0.50405040504050	0.098434923618182	0.85296169617096
0.50605060506051	0.098630156485999	0.85615589469253
0.50805080508051	0.098824817601550	0.85934970497672
0.51005100510051	0.099019034894664	0.86254321258901
0.51205120512051	0.099212953150894	0.86573638809248
0.51405140514051	0.099406646100631	0.86892911251530
0.51605160516052	0.099600076315962	0.87212125801123
0.51805180518052	0.099793127014962	0.87531277018504
0.52005200520052	0.099985682478758	0.87850369909368
0.52205220522052	0.10017770292244	0.88169416107992
0.52405240524052	0.10036924513434	0.88488425942076
0.52605260526053	0.10056041747957	0.88807401791623
0.52805280528053	0.10075130162399	0.89126337131455
0.53005300530053	0.10094189459080	0.89445221751250
0.53205320532053	0.10113211002665	0.89764049515017
0.53405340534053	0.10132183734933	0.90082823387715
0.53605360536054	0.10151101886698	0.90401554347131
0.53805380538054	0.10169969342953	0.90720254896852
0.54005400540054	0.10188797779793	0.91038931456874
0.54205420542054	0.10207599814888	0.91357580596793
0.54405440544054	0.10226381651022	0.91676191494537
0.54605460546055	0.10245139935909	0.91994752911525
0.54805480548055	0.10263864714310	0.92313260087737
0.55005500550055	0.10282546344770	0.92631717143308
0.55205520552055	0.10301181744086	0.92950133634749
0.55405540554055	0.10319775916720	0.93268517776750
0.55605560556056	0.10338337958102	0.93586870948786
0.55805580558056	0.10356874399863	0.93905187115388
0.56005600560056	0.10375384457406	0.94223457426528
0.56205620562056	0.10393860374936	0.94541676801585
0.56405640564056	0.10412292606004	0.94859848025901
0.56605660566057	0.10430676345368	0.95177980601435
0.56805680568057	0.10449015063479	0.95496085104718
0.57005700570057	0.10467318716414	0.95814166767039
0.57205720572057	0.10485597827461	0.96132222460558
0.57405740574057	0.10503857315767	0.96450242987972
0.57605760576058	0.10522094038533	0.96768219086146
0.57805780578058	0.10540299507643	0.97086147179339
0.58005800580058	0.10558465838954	0.97404031189446
0.58205820582058	0.10576590944390	0.97721879392075
0.58405840584058	0.10594679597857	0.98039698582386
0.58605860586059	0.10612739825466	0.98357489516795
0.58805880588059	0.10630777181675	0.98675246641195
0.59005900590059	0.10648790818628	0.98992962192701
0.59205920592059	0.10666773984100	0.99310631841849
0.59405940594059	0.10684718588001	0.99628258054864
0.59605960596060	0.10702620768800	0.99945848918223
0.59805980598060	0.10720483755732	1.0026341320191
0.60006000600060	0.10738316143013	1.0058095491607
0.60206020602060	0.10756126727731	1.0089847091312
0.60406040604060	0.10773919293459	1.0121595304662
0.60606060606061	0.10791690695896	1.0153339340217
0.60806080608061	0.10809433384297	1.0185078915152
0.61006100610061	0.10827140577061	1.0216814391659
0.61206120612061	0.10844810630334	1.0248546489686
0.61406140614061	0.10862447771401	1.0280275781148
0.61606160616062	0.10880058846434	1.0312002308672
0.61806180618062	0.10897648382008	1.0343725580227
0.62006200620062	0.10915215329802	1.0375444935017
0.62206220622062	0.10932753678814	1.0407160028152
0.62406240624062	0.10950256505044	1.0438871105679
0.62606260626063	0.10967720739704	1.0470578884633
0.62806280628063	0.10985149480621	1.0502284116753
0.63006300630063	0.11002550320437	1.0533987123002
0.63206320632063	0.11019930797907	1.0565687602493
0.63406340634063	0.11037293945425	1.0597384836086
0.63606360636064	0.11054636792080	1.0629078145760
0.63806380638064	0.11071952697849	1.0660767307661
0.64006400640064	0.11089235880285	1.0692452654596
0.64206420642064	0.11106485112174	1.0724134813920
0.64406440644064	0.11123704202175	1.0755814267246
0.64606460646065	0.11140899060359	1.0787491030408
0.64806480648065	0.11158073420067	1.0819164664482
0.65006500650065	0.11175226136742	1.0850834603327
0.65206520652065	0.11192351879473	1.0882500571758
0.65406540654065	0.11209444738176	1.0914162810631
0.65606560656066	0.11226502326221	1.0945821956566
0.65806580658066	0.11243527645156	1.0977478654769
0.66006600660066	0.11260527476848	1.1009133159437
0.66206620662066	0.11277508363074	1.1040785182175
0.66406640664066	0.11294472797651	1.1072434083349
0.66606660666067	0.11311418073715	1.1104079276195
0.66806680668067	0.11328338448420	1.1135720577773
0.67006700670067	0.11345229109284	1.1167358282128
0.67206720672067	0.11362089290223	1.1198992918802
0.67406740674067	0.11378922518028	1.1230624867498
0.67606760676068	0.11395733919268	1.1262254090267
0.67806780678068	0.11412526471948	1.1293880158319
0.68006800680068	0.11429298753553	1.1325502550709
0.68206820682068	0.11446045699778	1.1357121020752
0.68406840684068	0.11462761860527	1.1388735782950
0.68606860686069	0.11479444979897	1.1420347394751
0.68806880688069	0.11496097526104	1.1451956410777
0.69006900690069	0.11512725168377	1.1483563036800
0.69206920692069	0.11529333212397	1.1515167008669
0.69406940694069	0.11545923327157	1.1546767771293
0.69606960696070	0.11562492664808	1.1578364835872
0.69806980698070	0.11579035870964	1.1609958080095
0.70007000700070	0.11595548584862	1.1641547799131
0.70207020702070	0.11612030091853	1.1673134483611
0.70407040704070	0.11628483413017	1.1704718481010
0.70607060706071	0.11644912857137	1.1736299769955
0.70807080708071	0.11661320748528	1.1767877996535
0.71007100710071	0.11677705563644	1.1799452743878
0.71207120712071	0.11694062735859	1.1831023850330
0.71407140714071	0.11710387589566	1.1862591560580
0.71607160716072	0.11726678444764	1.1894156406860
0.71807180718072	0.11742937827332	1.1925718897202
0.72007200720072	0.11759170981361	1.1957279214961
0.72207220722072	0.11775382658059	1.1988837125023
0.72407240724072	0.11791574271600	1.2020392144907
0.72607260726073	0.11807743240908	1.2051943865627
0.72807280728073	0.11823884878464	1.2083492212093
0.73007300730073	0.11839995520727	1.2115037477316
0.73207320732073	0.11856074819619	1.2146580116845
0.73407340734073	0.11872125723449	1.2178120447557
