#Parameters = {C_1=27.494459420379; C_2=629.72665244523; Conductivity=10000; Conductivity_Mo=17900000; Conductivity_MoGr=1000000; Ip=630.32658368396; Pipe_lenght=40; Pipe_r=30; beta=1; cells_wave=30; conductivity_copper=59500000; d=-929.72665244523; half_gap_x=30; half_gap_y=2.5055405796205; half_gap_z=150; mu_copper=0.999994; offset_x=5; offset_y=1; sigma_z=5; teta=2.5; thcoll=27.494459420379; translate_z=-779.72665244523; wakelength=20000}
#"Frequency / GHz"	"Z [Re / Ohm]"	"Z [Im / Ohm]"
#-----------------------------------------------
0.0000000000000	-0.049536180278456	-1.6871425520865e-13
0.0020002000200020	-0.045908219596717	0.026437962351985
0.0040004000400040	-0.035923897387258	0.049597360201041
0.0060006000600060	-0.021985538394992	0.067164436305093
0.0080008000800080	-0.0072208053329180	0.078414250006178
0.010001000100010	0.0054868295530572	0.084287219439178
0.012001200120012	0.014311072783075	0.086922848038668
0.014001400140014	0.018869137801808	0.088855501417808
0.016001600160016	0.020089745575781	0.092185697050425
0.018001800180018	0.019671261603548	0.098019162251009
0.020002000200020	0.019377803743876	0.10633339913040
0.022002200220022	0.020448956710625	0.11625132435047
0.024002400240024	0.023315359983297	0.12655173326385
0.026002600260026	0.027664949921694	0.13618429749807
0.028002800280028	0.032761852270652	0.14459649117333
0.030003000300030	0.037840150830566	0.15179031603471
0.032003200320032	0.042401539075284	0.15815093111337
0.034003400340034	0.046322010203544	0.16417258627352
0.036003600360036	0.049773519973766	0.17022118746373
0.038003800380038	0.053043687359938	0.17642416036824
0.040004000400040	0.056360632756644	0.18270056808789
0.042004200420042	0.059800831795902	0.18887836724237
0.044004400440044	0.063299718509466	0.19481907159334
0.046004600460046	0.066730912214425	0.20048704057222
0.048004800480048	0.069995091721381	0.20594375039582
0.050005000500050	0.073069536755245	0.21129013762508
0.052005200520052	0.076001746397146	0.21660131480087
0.054005400540054	0.078864149413417	0.22189150244650
0.056005600560056	0.081704143606024	0.22712205771003
0.058005800580058	0.084518876148337	0.23223894252885
0.060006000600060	0.087264322681246	0.23721234679575
0.062006200620062	0.089887035775902	0.24205531236102
0.064006400640064	0.092356279992290	0.24681444701493
0.066006600660066	0.094678104018729	0.25154293743710
0.068006800680068	0.096886473406220	0.25627434175276
0.070007000700070	0.099020549723739	0.26101195758494
0.072007200720072	0.10110356864283	0.26573705599440
0.074007400740074	0.10313517814342	0.27042782298636
0.076007600760076	0.10509924594386	0.27507602634785
0.078007800780078	0.10697973558782	0.27969195033234
0.080008000800080	0.10877368959291	0.28429664853249
0.082008200820082	0.11049383144141	0.28890830655770
0.084008400840084	0.11216070376470	0.29353203368298
0.086008600860086	0.11379063450228	0.29815897909135
0.088008800880088	0.11538751455087	0.30277417659210
0.090009000900090	0.11694301124000	0.30736726785235
0.092009200920092	0.11844412330675	0.31193922704561
0.094009400940094	0.11988265392254	0.31650147790173
0.096009600960096	0.12126067300978	0.32106884064115
0.098009800980098	0.12258918709013	0.32565130116694
0.10001000100010	0.12388168202908	0.33024969077060
0.10201020102010	0.12514709879074	0.33485736282558
0.10401040104010	0.12638657311276	0.33946604782284
0.10601060106011	0.12759542693639	0.34407174417817
0.10801080108011	0.12876848464026	0.34867699345443
0.11001100110011	0.12990495877091	0.35328856959608
0.11201120112011	0.13100985296018	0.35791258662183
0.11401140114011	0.13209135092911	0.36255043018989
0.11601160116012	0.13315624425645	0.36719804782358
0.11801180118012	0.13420648865170	0.37184876794689
0.12001200120012	0.13523898172673	0.37649758053326
0.12201220122012	0.13624844641142	0.38114408116766
0.12401240124012	0.13723137543936	0.38579236430652
0.12601260126013	0.13818851728840	0.39044820250378
0.12801280128013	0.13912452085944	0.39511549866570
0.13001300130013	0.14004524619039	0.39979425851564
0.13201320132013	0.14095464437641	0.40448116835041
0.13401340134013	0.14185318757197	0.40917213564611
0.13601360136014	0.14273866309806	0.41386498801428
0.13801380138014	0.14360857861877	0.41856060449704
0.14001400140014	0.14446247719163	0.42326191052689
0.14201420142014	0.14530267284570	0.42797158031136
0.14401440144014	0.14613305477140	0.43269004545291
0.14601460146015	0.14695687441018	0.43741508509371
0.14801480148015	0.14777501324138	0.44214316427485
0.15001500150015	0.14858581532146	0.44687155824096
0.15201520152015	0.14938649779044	0.45159986736330
0.15401540154015	0.15017515292509	0.45633001057317
0.15601560156016	0.15095205361442	0.46106480918105
0.15801580158016	0.15171950801937	0.46580614947848
0.16001600160016	0.15248047787883	0.47055389903259
0.16201620162016	0.15323693328884	0.47530618279459
0.16401640164016	0.15398900139055	0.48006071830469
0.16601660166017	0.15473537505419	0.48481626422991
0.16801680168017	0.15547460660392	0.48957324245735
0.17001700170017	0.15620637408425	0.49433319842737
0.17201720172017	0.15693189358541	0.49909753833010
0.17401740174017	0.15765326105195	0.50386641913225
0.17601760176018	0.15837221437763	0.50863851212576
0.17801780178018	0.15908915226704	0.51341175236790
0.18001800180018	0.15980303301918	0.51818454427100
0.18201820182018	0.16051217673728	0.52295663067332
0.18401840184018	0.16121541648386	0.52772909285635
0.18601860186019	0.16191285535223	0.53250353284360
0.18801880188019	0.16260578290453	0.53728100379576
0.19001900190019	0.16329586588166	0.54206137573196
0.19201920192019	0.16398417945038	0.54684350000467
0.19401940194019	0.16467070563360	0.55162600233757
0.19601960196020	0.16535458174308	0.55640814527187
0.19801980198020	0.16603487966136	0.56119019609389
0.20002000200020	0.16671136857377	0.56597309430770
0.20202020202020	0.16738475919966	0.57075768085038
0.20402040204020	0.16805629469595	0.57554402163434
0.20602060206021	0.16872698667597	0.58033126816205
0.20802080208021	0.16939701113321	0.58511812651234
0.21002100210021	0.17006565118491	0.58990360811441
0.21202120212021	0.17073180272030	0.59468756915381
0.21402140214021	0.17139469707792	0.59947070481918
0.21602160216022	0.17205437396705	0.60425402979654
0.21802180218022	0.17271162247384	0.60903820171104
0.22002200220022	0.17336746283131	0.61382312307216
0.22202220222022	0.17402252950328	0.61860805284361
0.22402240224022	0.17467675599511	0.62339211825312
0.22602260226023	0.17532954207968	0.62817486742153
0.22802280228023	0.17598026089115	0.63295649968529
0.23002300230023	0.17662875081940	0.63773764178083
0.23202320232023	0.17727546660688	0.64251884210878
0.23402340234023	0.17792120361218	0.64730013148821
0.23602360236024	0.17856659288901	0.65208093957926
0.23802380238024	0.17921170649999	0.65686041158772
0.24002400240024	0.17985602735492	0.66163790739485
0.24202420242024	0.18049879172862	0.66641335564654
0.24402440244024	0.18113947220606	0.67118724225760
0.24602460246025	0.18177808911387	0.67596025697723
0.24802480248025	0.18241516325821	0.68073283903488
0.25002500250025	0.18305136166671	0.68550491462139
0.25202520252025	0.18368708142250	0.69027597987526
0.25402540254025	0.18432224214726	0.69504545236632
0.25602560256026	0.18495640723342	0.69981304532635
0.25802580258026	0.18558913364385	0.70457891807297
0.26002600260026	0.18622030613965	0.70934351543012
0.26202620262026	0.18685023388566	0.71410721731165
0.26402640264026	0.18747945339068	0.71887003930627
0.26602660266027	0.18810837716043	0.72363158225239
0.26802680268027	0.18873702385067	0.72839125840691
0.27002700270027	0.18936500460276	0.73314864013928
0.27202720272027	0.18999176791031	0.73790370262870
0.27402740274027	0.19061693824978	0.74265680868510
0.27602760276028	0.19124052988830	0.74740845557478
0.27802780278028	0.19186290680466	0.75215895539799
0.28002800280028	0.19248452839585	0.75690825490860
0.28202820282028	0.19310565598829	0.76165600066788
0.28402840284028	0.19372621103843	0.76640179182231
0.28602860286029	0.19434586745198	0.77114544444906
0.28802880288029	0.19496430364796	0.77588709304681
0.29002900290029	0.19558143891474	0.78062706994877
0.29202920292029	0.19619749662544	0.78536565226206
0.29402940294029	0.19681285724539	0.79010284993041
0.29602960296030	0.19742780406547	0.79483837551676
0.29802980298030	0.19804233210134	0.79957181240127
0.30003000300030	0.19865614430937	0.80430286759025
0.30203020302030	0.19926883359655	0.80903154350805
0.30403040304030	0.19988012877484	0.81375812083880
0.30603060306031	0.20049004564612	0.81848297009373
0.30803080308031	0.20109885162745	0.82320631898160
0.31003100310031	0.20170687606823	0.82792812551434
0.31203120312031	0.20231429615864	0.83264813172564
0.31403140314031	0.20292103772131	0.83736605259938
0.31603160316032	0.20352684874601	0.84208176927975
0.31803180318032	0.20413148796959	0.84679539907727
0.32003200320032	0.20473489780307	0.85150720133764
0.32203220322032	0.20533724641782	0.85621738814284
0.32403240324032	0.20593881431960	0.86092596934183
0.32603260326033	0.20653980429477	0.86563273479293
0.32803280328033	0.20714020201167	0.87033738343606
0.33003300330033	0.20773977804467	0.87503971216084
0.33203320332033	0.20833822736727	0.87973974065665
0.33403340334033	0.20893535318693	0.88443769351022
0.33603360336034	0.20953117627503	0.88913385560923
0.33803380338034	0.21012590323508	0.89382839802123
0.34003400340034	0.21071978067569	0.89852128666810
0.34203420342034	0.21131293471050	0.90321232786590
0.34403440344034	0.21190530024531	0.90790131374780
0.34603460346035	0.21249668137285	0.91258816725035
0.34803480348035	0.21308689659474	0.91727299097545
0.35003500350035	0.21367590862630	0.92195599131649
0.35203520352035	0.21426385228889	0.92663733265273
0.35403540354035	0.21485094411262	0.93131702100531
0.35603560356036	0.21543733594687	0.93599489440310
0.35803580358036	0.21602301030540	0.94067072497128
0.36003600360036	0.21660778551800	0.94534436430708
0.36203620362036	0.21719142542888	0.95001583709411
0.36403640364036	0.21777378063505	0.95468532406857
0.36603660366037	0.21835487009147	0.95935304880972
0.36803680368037	0.21893485357380	0.96401914437600
0.37003700370037	0.21951391783922	0.96868358584694
0.37203720372037	0.22009215417488	0.97334622858841
0.37403740374037	0.22066950723583	0.97800692165310
0.37603760376038	0.22124582505226	0.98266561795383
0.37803780378038	0.22182097235546	0.98732240815886
0.38003800380038	0.22239492889417	0.99197745836341
0.38203820382038	0.22296780684257	0.99663089608689
0.38403840384038	0.22353977691647	1.0012827223241
0.38603860386039	0.22411095365409	1.0059328083784
0.38803880388039	0.22468131636588	1.0105809790000
0.39003900390039	0.22525071739120	1.0152271265360
0.39203920392039	0.22581897119399	1.0198712816070
0.39403940394039	0.22638596542482	1.0245135957694
0.39603960396040	0.22695172244534	1.0291542497759
0.39803980398040	0.22751637404340	1.0337933486280
0.40004000400040	0.22808006941500	1.0384308709301
0.40204020402040	0.22864287884526	1.0430667022812
0.40404040404040	0.22920475573953	1.0477007266346
0.40604060406041	0.22976557895812	1.0523329127662
0.40804080408041	0.23032524376849	1.0569633386544
0.41004100410041	0.23088373868964	1.0615921396303
0.41204120412041	0.23144115675502	1.0662194171927
0.41404140414041	0.23199763461291	1.0708451706323
0.41604160416042	0.23255326097153	1.0754692971858
0.41804180418042	0.23310801547186	1.0800916602682
0.42004200420042	0.23366177802002	1.0847121804861
0.42204220422042	0.23421440177029	1.0893308900246
0.42404240424042	0.23476580166160	1.0939479160652
0.42604260426043	0.23531600153090	1.0985634057189
0.42804280428043	0.23586511127221	1.1031774423701
0.43004300430043	0.23641325165200	1.1077900071709
0.43204320432043	0.23696047759450	1.1124010081901
0.43404340434043	0.23750674973274	1.1170103548731
0.43604360436044	0.23805197050476	1.1216180267460
0.43804380438044	0.23859605801773	1.1262240910100
0.44004400440044	0.23913900683190	1.1308286590158
0.44204420442044	0.23968089498862	1.1354318125041
0.44404440444044	0.24022183336684	1.1400335498736
0.44604460446045	0.24076189189231	1.1446337884320
0.44804480448045	0.24130105189741	1.1492324208509
0.45004500450045	0.24183921589681	1.1538293883041
0.45204520452045	0.24237626784090	1.1584247224418
0.45404540454045	0.24291214409970	1.1630185296247
0.45604560456046	0.24344686938133	1.1676109289782
0.45804580458046	0.24398053578323	1.1722019854450
0.46004600460046	0.24451324072030	1.1767916809485
0.46204620462046	0.24504502563293	1.1813799405331
0.46404640464046	0.24557585534997	1.1859666938812
0.46604660466047	0.24610564989368	1.1905519301169
0.46804680468047	0.24663434553012	1.1951357096495
0.47004700470047	0.24716194317665	1.1997181263670
0.47204720472047	0.24768851173719	1.2042992466866
0.47404740474047	0.24821414461322	1.2088790668370
0.47604760476048	0.24873889880364	1.2134575169402
0.47804780478048	0.24926275712139	1.2180345090479
0.48004800480048	0.24978563825243	1.2226099973530
0.48204820482048	0.25030744764246	1.2271840113169
0.48404840484048	0.25082813571290	1.2317566408484
0.48604860486049	0.25134772591905	1.2363279842893
0.48804880488049	0.25186629574485	1.2408980937766
0.49004900490049	0.25238392478250	1.2454669531651
0.49204920492049	0.25290064497320	1.2500345013163
0.49404940494049	0.25341642543888	1.2546006834598
0.49604960496050	0.25393120048908	1.2591654954728
0.49804980498050	0.25444492057017	1.2637289917097
0.50005000500050	0.25495759123041	1.2682912520249
0.50205020502050	0.25546927393531	1.2728523309235
0.50405040504050	0.25598004845675	1.2774122232847
0.50605060506051	0.25648996212904	1.2819708695999
0.50805080508051	0.25699899965720	1.2865281972107
0.51005100510051	0.25750709321161	1.2910841703597
0.51205120512051	0.25801416587094	1.2956388164811
0.51405140514051	0.25852017987105	1.3001922122262
0.51605160516052	0.25902515863240	1.3047444392258
0.51805180518052	0.25952916936775	1.3092955389394
0.52005200520052	0.26003227904946	1.3138454956346
0.52205220522052	0.26053451342530	1.3183942572620
0.52405240524052	0.26103584575729	1.3229417788763
0.52605260526053	0.26153622151638	1.3274880589361
0.52805280528053	0.26203560128298	1.3320331444319
0.53005300530053	0.26253399246006	1.3365771021528
0.53205320532053	0.26303144849499	1.3411199760495
0.53405340534053	0.26352803634206	1.3456617596011
0.53605360536054	0.26402379405016	1.3502024017322
0.53805380538054	0.26451870667646	1.3547418423645
0.54005400540054	0.26501271633236	1.3592800541733
0.54205420542054	0.26550575957609	1.3638170633438
0.54405440544054	0.26599780762869	1.3683529362621
0.54605460546055	0.26648888355319	1.3728877414868
0.54805480548055	0.26697904612958	1.3774215121589
0.55005500550055	0.26746835207892	1.3819542329939
0.55205520552055	0.26795682202096	1.3864858592356
0.55405540554055	0.26844443227714	1.3910163537935
0.55605560556056	0.26893113692118	1.3955457172639
0.55805580558056	0.26941690433188	1.4000739909788
0.56005600560056	0.26990174324858	1.4046012316621
0.56205620562056	0.27038570083707	1.4091274752434
0.56405640564056	0.27086883422649	1.4136527143483
0.56605660566057	0.27135117463973	1.4181769045825
0.56805680568057	0.27183270796687	1.4226999954655
0.57005700570057	0.27231338454076	1.4272219656449
0.57205720572057	0.27279315156047	1.4317428394475
0.57405740574057	0.27327198691868	1.4362626743606
0.57605760576058	0.27374991269330	1.4407815281481
0.57805780578058	0.27422698029029	1.4452994273232
0.58005800580058	0.27470323787308	1.4498163572055
0.58205820582058	0.27517870192827	1.4543322791037
0.58405840584058	0.27565335141690	1.4588471622253
0.58605860586059	0.27612714751134	1.4633610085917
0.58805880588059	0.27660006487952	1.4678738544833
0.59005900590059	0.27707211311667	1.4723857479587
0.59205920592059	0.27754333390407	1.4768967179858
0.59405940594059	0.27801377589737	1.4814067561191
0.59605960596060	0.27848346418405	1.4859158230814
0.59805980598060	0.27895238462303	1.4904238759698
0.60006000600060	0.27942049339275	1.4949308982211
0.60206020602060	0.27988774542501	1.4994369128406
0.60406040604060	0.28035412316685	1.5039419705930
0.60606060606061	0.28081964724620	1.5084461212777
0.60806080608061	0.28128436279120	1.5129493869945
0.61006100610061	0.28174831113148	1.5174517544801
0.61206120612061	0.28221150582748	1.5219531906490
0.61406140614061	0.28267392852533	1.5264536701438
0.61606160616062	0.28313554658610	1.5309531961414
0.61806180618062	0.28359633993671	1.5354518006666
0.62006200620062	0.28405631873526	1.5399495246629
0.62206220622062	0.28451551992917	1.5444463916197
0.62406240624062	0.28497398507824	1.5489423926985
0.62606260626063	0.28543173433019	1.5534374934620
0.62806280628063	0.28588875390742	1.5579316578614
0.63006300630063	0.28634500542253	1.5624248737434
0.63206320632063	0.28680045092401	1.5669171632627
0.63406340634063	0.28725507736867	1.5714085716433
0.63606360636064	0.28770890486284	1.5758991419234
0.63806380638064	0.28816197389126	1.5803888922471
0.64006400640064	0.28861432052506	1.5848778101720
0.64206420642064	0.28906595615967	1.5893658669436
0.64406440644064	0.28951686485066	1.5938530415190
0.64606460646065	0.28996701931602	1.5983393380060
0.64806480648065	0.29041640425407	1.6028247849952
0.65006500650065	0.29086503099565	1.6073094176122
0.65206520652065	0.29131293358080	1.6117932546726
0.65406540654065	0.29176014891124	1.6162762864710
0.65606560656066	0.29220669425961	1.6207584815071
0.65806580658066	0.29265255710399	1.6252398078082
0.66006600660066	0.29309770402020	1.6297202548802
0.66206620662066	0.29354210278865	1.6341998420174
0.66406640664066	0.29398574330822	1.6386786077921
0.66606660666067	0.29442864393329	1.6431565878827
0.66806680668067	0.29487083962039	1.6476337958254
0.67006700670067	0.29531236020635	1.6521102189916
0.67206720672067	0.29575321335148	1.6565858317957
0.67406740674067	0.29619338319497	1.6610606167587
0.67606760676068	0.29663284507773	1.6655345791200
0.67806780678068	0.29707158599686	1.6700077453218
0.68006800680068	0.29750961682376	1.6744801466550
0.68206820682068	0.29794696803360	1.6789517992733
0.68406840684068	0.29838367181341	1.6834226941106
0.68606860686069	0.29881974249723	1.6878928035369
0.68806880688069	0.29925516833225	1.6923621004275
0.69006900690069	0.29968992001998	1.6968305771387
0.69206920692069	0.30012397041097	1.7012982520396
0.69406940694069	0.30055731250159	1.7057651595292
0.69606960696070	0.30098996418850	1.7102313302947
0.69806980698070	0.30142195708955	1.7146967747891
0.70007000700070	0.30185331718799	1.7191614805016
0.70207020702070	0.30228405020324	1.7236254243082
0.70407040704070	0.30271414115342	1.7280885912533
0.70607060706071	0.30314356797354	1.7325509870843
0.70807080708071	0.30357231973878	1.7370126362813
0.71007100710071	0.30400040715259	1.7414735671226
0.71207120712071	0.30442785829048	1.7459337939440
0.71407140714071	0.30485470248758	1.7503933084990
0.71607160716072	0.30528095310152	1.7548520861746
0.71807180718072	0.30570660053083	1.7593101029384
0.72007200720072	0.30613161999776	1.7637673518692
0.72207220722072	0.30655598886690	1.7682238485401
0.72407240724072	0.30697970212014	1.7726796219838
0.72607260726073	0.30740277604098	1.7771346974473
0.72807280728073	0.30782523809190	1.7815890823598
0.73007300730073	0.30824711005662	1.7860427645407
0.73207320732073	0.30866839575819	1.7904957233912
0.73407340734073	0.30908908134393	1.7949479462173
0.73607360736074	0.30950914759555	1.7993994386129
0.73807380738074	0.30992858570916	1.8038502220213
0.74007400740074	0.31034740580652	1.8083003202854
0.74207420742074	0.31076563243406	1.8127497443589
0.74407440744074	0.31118329006871	1.8171984855095
0.74607460746075	0.31160038830787	1.8216465216266
0.74807480748075	0.31201691659676	1.8260938325057
