#Parameters = {C_1=27.534904321902; C_2=630.65299298732; Conductivity=10000; Conductivity_MoGr=1000000; Ip=631.25380673694; Pipe_lenght=40; Pipe_r=30; beta=1; cells_wave=30; conductivity_copper=59500000; d=-880.65299298732; half_gap_x=30; half_gap_y=2.4650956780985; half_gap_z=125; mu_copper=0.999994; offset_x=5; offset_y=1; sigma_z=5; teta=2.5; thcoll=27.534904321902; translate_z=-755.65299298732; wakelength=20000}
#"Frequency / GHz"	"Z [Re / Ohm]"	"Z [Im / Ohm]"
#-----------------------------------------------
0.0000000000000	-0.052142611392198	-9.5864217767496e-14
0.0020002000200020	-0.047669433145447	0.048156557920194
0.0040004000400040	-0.035210878124834	0.092706122787110
0.0060006000600060	-0.017336480536686	0.13106465711350
0.0080008000800080	0.0025979697254119	0.16233393364587
0.010001000100010	0.021476385624568	0.18738583968373
0.012001200120012	0.037283701884241	0.20837286128235
0.014001400140014	0.049517126514549	0.22788094550389
0.016001600160016	0.059050308699449	0.24805567391321
0.018001800180018	0.067564731595255	0.27001035466138
0.020002000200020	0.076809825416183	0.29368477350701
0.022002200220022	0.087982691419324	0.31813314489828
0.024002400240024	0.10143034520441	0.34206163738287
0.026002600260026	0.11672170562901	0.36437034835613
0.028002800280028	0.13298583342534	0.38449650248115
0.030003000300030	0.14932873013709	0.40247228255172
0.032003200320032	0.16514819443967	0.41874185864181
0.034003400340034	0.18024665479805	0.43387010530709
0.036003600360036	0.19474831737273	0.44829017796414
0.038003800380038	0.20890841067219	0.46218571506143
0.040004000400040	0.22292768161653	0.47552135816607
0.042004200420042	0.23685443401249	0.48816550258962
0.044004400440044	0.25059499561252	0.50002107776145
0.046004600460046	0.26399661938032	0.51109804607724
0.048004800480048	0.27694057508704	0.52150685798894
0.050005000500050	0.28939373448175	0.53139722157661
0.052005200520052	0.30140114763649	0.54088894115281
0.054005400540054	0.31303758705639	0.55003476460373
0.056005600560056	0.32435421761290	0.55882882095473
0.058005800580058	0.33535145241671	0.56724620991409
0.060006000600060	0.34598808778573	0.57528491711450
0.062006200620062	0.35621443607217	0.58298559154332
0.064006400640064	0.36600592366491	0.59042187513096
0.066006600660066	0.37537766719970	0.59767205406694
0.068006800680068	0.38437487198789	0.60479153847719
0.070007000700070	0.39304863979804	0.61180178912481
0.072007200720072	0.40143349683613	0.61869916316396
0.074007400740074	0.40953916215268	0.62547506332767
0.076007600760076	0.41735867510069	0.63213368151646
0.078007800780078	0.42488506543265	0.63869734919870
0.080008000800080	0.43212498950582	0.64519849006724
0.082008200820082	0.43910142314330	0.65166534439030
0.084008400840084	0.44584532072227	0.65811130382735
0.086008600860086	0.45238288060744	0.66453408142964
0.088008800880088	0.45872684362175	0.67092408788977
0.090009000900090	0.46487670499850	0.67727583830093
0.092009200920092	0.47082668285370	0.68359512942770
0.094009400940094	0.47657571595094	0.68989817806927
0.096009600960096	0.48213323051131	0.69620423918296
0.098009800980098	0.48751773887611	0.70252697543858
0.10001000100010	0.49275002833023	0.70886995065400
0.10201020102010	0.49784575454498	0.71522844981010
0.10401040104010	0.50281201168694	0.72159570506181
0.10601060106011	0.50764944900843	0.72796915371670
0.10801080108011	0.51235789810382	0.73435287327901
0.11001100110011	0.51694154475382	0.74075516987348
0.11201120112011	0.52141042205272	0.74718343768457
0.11401140114011	0.52577766416087	0.75363988624715
0.11601160116012	0.53005468862784	0.76012081280215
0.11801180118012	0.53424757041522	0.76661959963793
0.12001200120012	0.53835681816199	0.77313125347184
0.12201220122012	0.54238043056342	0.77965553176251
0.12401240124012	0.54631807377131	0.78619684540050
0.12601260126013	0.55017371876767	0.79276129308561
0.12801280128013	0.55395527798872	0.79935292564644
0.13001300130013	0.55767177627006	0.80597161360570
0.13201320132013	0.56133006543606	0.81261366446617
0.13401340134013	0.56493317430740	0.81927451207942
0.13601360136014	0.56848115413105	0.82595157319327
0.13801380138014	0.57197362486789	0.83264544878040
0.14001400140014	0.57541222647217	0.83935886946395
0.14201420142014	0.57880140270961	0.84609427558667
0.14401440144014	0.58214714578291	0.85285171977997
0.14601460146015	0.58545466685102	0.85962843848682
0.14801480148015	0.58872657366296	0.86642026855431
0.15001500150015	0.59196269979986	0.87322389310394
0.15201520152015	0.59516159951535	0.88003844363604
0.15401540154015	0.59832266678793	0.88686549544458
0.15601560156016	0.60144751865711	0.89370757448331
0.15801580158016	0.60453984656350	0.90056621921691
0.16001600160016	0.60760396212574	0.90744083789393
0.16201620162016	0.61064306442929	0.91432900115816
0.16401640164016	0.61365834519103	0.92122785250249
0.16601660166017	0.61664942380067	0.92813563808157
0.16801680168017	0.61961571627953	0.93505236379255
0.17001700170017	0.62255777472421	0.94197922578291
0.17201720172017	0.62547772472344	0.94891727768885
0.17401740174017	0.62837857229803	0.95586625959878
0.17601760176018	0.63126289883161	0.96282434966815
0.17801780178018	0.63413182741600	0.96978895687550
0.18001800180018	0.63698491868308	0.97675799533180
0.18201820182018	0.63982102088971	0.98373080290686
0.18401840184018	0.64263948859349	0.99070814166561
0.18601860186019	0.64544098506914	0.99769133423917
0.18801880188019	0.64822739665023	1.0046811336673
0.19001900190019	0.65100098010979	1.0116770526135
0.19201920192019	0.65376334095558	1.0186775360416
0.19401940194019	0.65651490447409	1.0256807979704
0.19601960196020	0.65925517846630	1.0326857320734
0.19801980198020	0.66198357662276	1.0396923006412
0.20002000200020	0.66470022480627	1.0467011842330
0.20202020202020	0.66740622030502	1.0537129685522
0.20402040204020	0.67010320156937	1.0607274306083
0.20602060206021	0.67279254329531	1.0677433915193
0.20802080208021	0.67547472014439	1.0747592112806
0.21002100210021	0.67814924746405	1.0817735808534
0.21202120212021	0.68081521597086	1.0887860910912
0.21402140214021	0.68347205530837	1.0957972262425
0.21602160216022	0.68612003379114	1.1028078152543
0.21802180218022	0.68876019656734	1.1098183174563
0.22002200220022	0.69139381901780	1.1168284023987
0.22202220222022	0.69402175607279	1.1238370677586
0.22402240224022	0.69664411015464	1.1308431797548
0.22602260226023	0.69926040844517	1.1378460565726
0.22802280228023	0.70187013892164	1.1448457114471
0.23002300230023	0.70447327026618	1.1518426162726
0.23202320232023	0.70707041192131	1.1588371676198
0.23402340234023	0.70966252351760	1.1658292230186
0.23602360236024	0.71225038241446	1.1728180127820
0.23802380238024	0.71483416773243	1.1798024743904
0.24002400240024	0.71741342931778	1.1867817793410
0.24202420242024	0.71998745015669	1.1937557066732
0.24402440244024	0.72255575691485	1.2007246303403
0.24602460246025	0.72511844916866	1.2076891454779
0.24802480248025	0.72767614968352	1.2146495881717
0.25002500250025	0.73022963038398	1.2216057579336
0.25202520252025	0.73277937290524	1.2285570052024
0.25402540254025	0.73532534952736	1.2355026025422
0.25602560256026	0.73786715140103	1.2424421399744
0.25802580258026	0.74040435832465	1.2493756839871
0.26002600260026	0.74293689224813	1.2563036080214
0.26202620262026	0.74546511993937	1.2632262222884
0.26402640264026	0.74798964549592	1.2701434572019
0.26602660266027	0.75051093974961	1.2770548095507
0.26802680268027	0.75302905546276	1.2839595806830
0.27002700270027	0.75554361278064	1.2908572441618
0.27202720272027	0.75805405750608	1.2977477017013
0.27402740274027	0.76056001834261	1.3046312670522
0.27602760276028	0.76306153242251	1.3115083987991
0.27802780278028	0.76555900291313	1.3183793631190
0.28002800280028	0.76805293061450	1.3252440438070
0.28202820282028	0.77054360431901	1.3321020112899
0.28402840284028	0.77303095142945	1.3389527896468
0.28602860286029	0.77551463580944	1.3457961357226
0.28802880288029	0.77799432427865	1.3526321461748
0.29002900290029	0.78046993645146	1.3594611299533
0.29202920292029	0.78294171166662	1.3662833408683
0.29402940294029	0.78541005386600	1.3730987535961
0.29602960296030	0.78787526313300	1.3799070316192
0.29802980298030	0.79033733390125	1.3867077047638
0.30003000300030	0.79279595098067	1.3935004361642
0.30203020302030	0.79525068184449	1.4002852037428
0.30403040304030	0.79770123654431	1.4070622821763
0.30603060306031	0.80014762755190	1.4138320439482
0.30803080308031	0.80259013277333	1.4205947136159
0.31003100310031	0.80502909561741	1.4273502335834
0.31203120312031	0.80746469921326	1.4340983204611
0.31403140314031	0.80989686180724	1.4408386641101
0.31603160316032	0.81232531440855	1.4475711311827
0.31803180318032	0.81474979975911	1.4542958385987
0.32003200320032	0.81717025463474	1.4610130537893
0.32203220322032	0.81958685387530	1.4677229945839
0.32403240324032	0.82199989014023	1.4744256655238
0.32603260326033	0.82440957275383	1.4811208392744
0.32803280328033	0.82681588013873	1.4878081932938
0.33003300330033	0.82921856178465	1.4944875098104
0.33203320332033	0.83161728565682	1.5011588082627
0.33403340334033	0.83401183272356	1.5078223269166
0.33603360336034	0.83640221304099	1.5144783704684
0.33803380338034	0.83878863296748	1.5211271261409
0.34003400340034	0.84117134180054	1.5277685668765
0.34203420342034	0.84355046266106	1.5344024988210
0.34403440344034	0.84592591785025	1.5410287142192
0.34603460346035	0.84829749234091	1.5476471439752
0.34803480348035	0.85066498665756	1.5542579089735
0.35003500350035	0.85302835346314	1.5608612399888
0.35203520352035	0.85538772667868	1.5674573240024
0.35403540354035	0.85774332593842	1.5740461817483
0.35603560356036	0.86009530217772	1.5806276579148
0.35803580358036	0.86244362748497	1.5872015291654
0.36003600360036	0.86478810098376	1.5937676576435
0.36203620362036	0.86712846506616	1.6003260895933
0.36403640364036	0.86946455477541	1.6068770369699
0.36603660366037	0.87179638400079	1.6134207574257
0.36803680368037	0.87412411619983	1.6199574130678
0.37003700370037	0.87644794382310	1.6264869989701
0.37203720372037	0.87876795858858	1.6330093835518
0.37403740374037	0.88108409710773	1.6395244285174
0.37603760376038	0.88339619352785	1.6460321055357
0.37803780378038	0.88570409927063	1.6525325323862
0.38003800380038	0.88800778711837	1.6590259073733
0.38203820382038	0.89030736994896	1.6655123889573
0.38403840384038	0.89260302300400	1.6719920026764
0.38603860386039	0.89489486284824	1.6784646374608
0.38803880388039	0.89718286376413	1.6849301330943
0.39003900390039	0.89946686616595	1.6913884005768
0.39203920392039	0.90174667033620	1.6978394968057
0.39403940394039	0.90402215346246	1.7042836065188
0.39603960396040	0.90629333456637	1.7107209457651
0.39803980398040	0.90856034797119	1.7171516513823
0.40004000400040	0.91082334643203	1.7235757276661
0.40204020402040	0.91308239973693	1.7299930815983
0.40404040404040	0.91533745483891	1.7364036191562
0.40604060406041	0.91758838066312	1.7428073364118
0.40804080408041	0.91983506415942	1.7492043450992
0.41004100410041	0.92207749142542	1.7555948177424
0.41204120412041	0.92431575959403	1.7619788912773
0.41404140414041	0.92655001253859	1.7683565947365
0.41604160416042	0.92878034418059	1.7747278492517
0.41804180418042	0.93100673384165	1.7810925399127
0.42004200420042	0.93322905588359	1.7874506117281
0.42204220422042	0.93544715647748	1.7938021270371
0.42404240424042	0.93766094680816	1.8001472481602
0.42604260426043	0.93987045266481	1.8064861584485
0.42804280428043	0.94207579037493	1.8128189743225
0.43004300430043	0.94427708768924	1.8191457049058
0.43204320432043	0.94647440319261	1.8254662828958
0.43404340434043	0.94866769668022	1.8317806430196
0.43604360436044	0.95085686753686	1.8380887941957
0.43804380438044	0.95304183274148	1.8443908376323
0.44004400440044	0.95522259079597	1.8506869204571
0.44204420442044	0.95739922871337	1.8569771576262
0.44404440444044	0.95957186807778	1.8632615752521
0.44604460446045	0.96174058678963	1.8695401132749
0.44804480448045	0.96390536865347	1.8758126854876
0.45004500450045	0.96606611383682	1.8820792571391
0.45204520452045	0.96822270280143	1.8883398894680
0.45404540454045	0.97037507160321	1.8945947230433
0.45604560456046	0.97252325007129	1.9008439121542
0.45804580458046	0.97466733976077	1.9070875538271
0.46004600460046	0.97680744829646	1.9133256571221
0.46204620462046	0.97894362442413	1.9195581706111
0.46404640464046	0.98107583597995	1.9257850473788
0.46604660466047	0.98320400332239	1.9320063030595
0.46804680468047	0.98532806378053	1.9382220285534
0.47004700470047	0.98744802287276	1.9444323502717
0.47204720472047	0.98956395799123	1.9506373658459
0.47404740474047	0.99167597263292	1.9568370989903
0.47604760476048	0.99378413218642	1.9630315037279
0.47804780478048	0.99588842407046	1.9692205150225
0.48004800480048	0.99798876835952	1.9754041122944
0.48204820482048	1.0000850715268	1.9815823543569
0.48404840484048	1.0021772879452	1.9877553637120
0.48604860486049	1.0042654495407	1.9939232715323
0.48804880488049	1.0063496457026	2.0000861598316
0.49004900490049	1.0084299683549	2.0062440380132
0.49204920492049	1.0105064592251	2.0123968673802
0.49404940494049	1.0125790935978	2.0185446153998
0.49604960496050	1.0146478096944	2.0246873026164
0.49804980498050	1.0167125623828	2.0308250111656
0.50005000500050	1.0187733643786	2.0369578502152
0.50205020502050	1.0208302872876	2.0430859024684
0.50405040504050	1.0228834221455	2.0492091880456
0.50605060506051	1.0249328260849	2.0553276699605
0.50805080508051	1.0269784906416	2.0614412975067
0.51005100510051	1.0290203525079	2.0675500588959
0.51205120512051	1.0310583394058	2.0736540087997
0.51405140514051	1.0330924209559	2.0797532533972
0.51605160516052	1.0351226317971	2.0858479035071
0.51805180518052	1.0371490530291	2.0919380268157
0.52005200520052	1.0391717654941	2.0980236298843
0.52205220522052	1.0411908062778	2.1041046802678
0.52405240524052	1.0432061566428	2.1101811525371
0.52605260526053	1.0452177680280	2.1162530668477
0.52805280528053	1.0472256073967	2.1223204945982
0.53005300530053	1.0492296908824	2.1283835282709
0.53205320532053	1.0512300831817	2.1344422364727
0.53405340534053	1.0532268633869	2.1404966346972
0.53605360536054	1.0552200803039	2.1465466914378
0.53805380538054	1.0572097270115	2.1525923655897
0.54005400540054	1.0591957513879	2.1586336504708
0.54205420542054	1.0611780955060	2.1646705957619
0.54405440544054	1.0631567380723	2.1707032935439
0.54605460546055	1.0651317126341	2.1767318382372
0.54805480548055	1.0671030906920	2.1827562869366
0.55005500550055	1.0690709419604	2.1887766456033
0.55205520552055	1.0710352985119	2.1947928889158
0.55405540554055	1.0729961461084	2.2008049992884
0.55605560556056	1.0749534473690	2.2068129984106
0.55805580558056	1.0769071801908	2.2128169503918
0.56005600560056	1.0788573650879	2.2188169350227
0.56205620562056	1.0808040630254	2.2248130096615
0.56405640564056	1.0827473453158	2.2308051855877
0.56605660566057	1.0846872557612	2.2367934347426
0.56805680568057	1.0866237901951	2.2427777224569
0.57005700570057	1.0885569068690	2.2487580446485
0.57205720572057	1.0904865607362	2.2547344452767
0.57405740574057	1.0924127391883	2.2607070030788
0.57605760576058	1.0943354762863	2.2666757968003
0.57805780578058	1.0962548370242	2.2726408718697
0.58005800580058	1.0981708828688	2.2786022298971
0.58205820582058	1.1000836416632	2.2845598468576
0.58405840584058	1.1019931014062	2.2905137068662
0.58605860586059	1.1038992310972	2.2964638285913
0.58805880588059	1.1058020138385	2.3024102668742
0.59005900590059	1.1077014695826	2.3083530890321
0.59205920592059	1.1095976522616	2.3142923422277
0.59405940594059	1.1114906233620	2.3202280340105
0.59605960596060	1.1133804196856	2.3261601391131
0.59805980598060	1.1152670367318	2.3320886280370
0.60006000600060	1.1171504386276	2.3380134986152
0.60206020602060	1.1190305879758	2.3439347899929
0.60406040604060	1.1209074760773	2.3498525702562
0.60606060606061	1.1227811341100	2.3557669062538
0.60806080608061	1.1246516186757	2.3616778355341
0.61006100610061	1.1265189819739	2.3675853583977
0.61206120612061	1.1283832465851	2.3734894544156
0.61406140614061	1.1302444012101	2.3793901115898
0.61606160616062	1.1321024194113	2.3852873483570
0.61806180618062	1.1339572880986	2.3911812139196
0.62006200620062	1.1358090263177	2.3970717671599
0.62206220622062	1.1376576817361	2.4029590487045
0.62406240624062	1.1395033073132	2.4088430650860
0.62606260626063	1.1413459338520	2.4147237956885
0.62806280628063	1.1431855567552	2.4206012179138
0.63006300630063	1.1450221457730	2.4264753339773
0.63206320632063	1.1468556713192	2.4323461818101
0.63406340634063	1.1486861301637	2.4382138231499
0.63606360636064	1.1505135539812	2.4440783168836
0.63806380638064	1.1523379957257	2.4499396951287
0.64006400640064	1.1541595033340	2.4557979573279
0.64206420642064	1.1559780982551	2.4616530854695
0.64406440644064	1.1577937726234	2.4675050696299
0.64606460646065	1.1596065062166	2.4733539265595
0.64806480648065	1.1614162912121	2.4791996991128
0.65006500650065	1.1632231478387	2.4850424373560
0.65206520652065	1.1650271204189	2.4908821744190
0.65406540654065	1.1668282565569	2.4967189134987
0.65606560656066	1.1686265834690	2.5025526348205
0.65806580658066	1.1704220972633	2.5083833180082
0.66006600660066	1.1722147722944	2.5142109651433
0.66206620662066	1.1740045844517	2.5200356094472
0.66406640664066	1.1757915331748	2.5258573041072
0.66606660666067	1.1775756480583	2.5316760987954
0.66806680668067	1.1793569762117	2.5374920192931
0.67006700670067	1.1811355591615	2.5433050632415
0.67206720672067	1.1829114146671	2.5491152141730
0.67406740674067	1.1846845351759	2.5549224639322
0.67606760676068	1.1864549033533	2.5607268283496
0.67806780678068	1.1882225138117	2.5665283458731
0.68006800680068	1.1899873862634	2.5723270604256
0.68206820682068	1.1917495613022	2.5781230002599
0.68406840684068	1.1935090817299	2.5839161671035
0.68606860686069	1.1952659719537	2.5897065428849
0.68806880688069	1.1970202291590	2.5954941095911
0.69006900690069	1.1987718320613	2.6012788691631
0.69206920692069	1.2005207614143	2.6070608504368
0.69406940694069	1.2022670188237	2.6128400987991
0.69606960696070	1.2040106317461	2.6186166555941
0.69806980698070	1.2057516418196	2.6243905408598
0.70007000700070	1.2074900846316	2.6301617504796
0.70207020702070	1.2092259744298	2.6359302690996
0.70407040704070	1.2109593036757	2.6416960897493
0.70607060706071	1.2126900572686	2.6474592268956
0.70807080708071	1.2144182315151	2.6532197143179
0.71007100710071	1.2161438449197	2.6589775894859
0.71207120712071	1.2178669335182	2.6647328751431
0.71407140714071	1.2195875338878	2.6704855705792
0.71607160716072	1.2213056651836	2.6762356585456
0.71807180718072	1.2230213221665	2.6819831233471
0.72007200720072	1.2247344838795	2.6877279682749
0.72207220722072	1.2264451323290	2.6934702210493
0.72407240724072	1.2281532690566	2.6992099238816
0.72607260726073	1.2298589190432	2.7049471148157
0.72807280728073	1.2315621198265	2.7106818125239
0.73007300730073	1.2332629033622	2.7164140141803
0.73207320732073	1.2349612826735	2.7221437072397
0.73407340734073	1.2366572518294	2.7278708868134
0.73607360736074	1.2383507987525	2.7335955668873
0.73807380738074	1.2400419218492	2.7393177780216
0.74007400740074	1.2417306390890	2.7450375533668
0.74207420742074	1.2434169834084	2.7507549126353
0.74407440744074	1.2451009875530	2.7564698549422
0.74607460746075	1.2467826685377	2.7621823654286
0.74807480748075	1.2484620221225	2.7678924313581
0.75007500750075	1.2501390310274	2.7736000571132
0.75207520752075	1.2518136815328	2.7793052682955
0.75407540754075	1.2534859776692	2.7850081023590
0.75607560756076	1.2551559439143	2.7907085920265
0.75807580758076	1.2568236149700	2.7964067523261
0.76007600760076	1.2584890196437	2.8021025794760
