#Parameters = {C_1=13.8; C_2=51.50230114445; Conductivity_W=18000000; Ip=53.319105611157; Pipe_lenght=40; Pipe_r=30; beta=1; cells_wave=20; conductivity_copper=59500000; d=-151.50230114445; half_gap_x=16.2; half_gap_y=30; half_gap_z=50; mu_copper=0.999994; offset=6.48; offset_x=1; offset_y=5; sigma_z=5; teta=15; thcoll=13.8; translate_z=-101.50230114445; wakelength=20000}
#"Frequency / GHz"	"X [Re / Ohm]"	"X [Im / Ohm]"
#-----------------------------------------------
0.0000000000000	-9.7955512992749e-12	-257.03123151921
0.0020478289222872	-135.76704628169	-211.85301963894
0.0040956578445743	-214.92758683103	-97.398418607358
0.0061434867668615	-208.93506964311	34.113118450105
0.0081913156891487	-130.22716210442	126.25163380965
0.010239144611436	-23.463864390893	146.36575805636
0.012286973533723	59.335586626389	99.608743718150
0.014334802456010	85.532491758539	22.275306788928
0.016382631378297	55.974613196347	-40.516770295673
0.018430460300585	-0.12777963655946	-59.425836712812
0.020478289222872	-44.966420889453	-34.107823008002
0.022526118145159	-54.119619193466	11.096660735617
0.024573947067446	-28.189205758060	44.693658380438
0.026621775989733	11.367621878348	47.318768144353
0.028669604912020	37.985051048463	21.424163564528
0.030717433834308	36.734532209513	-13.209615426206
0.032765262756595	11.979253782374	-33.845491371017
0.034813091678882	-17.671132091325	-29.262324576994
0.036860920601169	-32.646466991124	-5.4686409199102
0.038908749523456	-24.871886209277	19.959355792291
0.040956578445743	-1.7072516084156	30.242045569897
0.043004407368031	20.285708272125	20.042413595866
0.045052236290318	26.859898703119	-2.1874100942316
0.047100065212605	15.076462973010	-20.914410590557
0.049147894134892	-5.7677174303973	-24.215291337098
0.051195723057179	-21.209127894784	-11.241304253263
0.053243551979466	-21.478088578483	8.1099070207611
0.055291380901754	-7.5391058197615	20.503748910767
0.057339209824041	10.337839862440	18.182824147164
0.059387038746328	20.006408157206	3.6765990916791
0.061434867668615	15.591451574179	-12.579412592636
0.063482696590902	0.95652108046171	-19.675276640337
0.065530525513189	-13.486472715269	-13.488463938481
0.067578354435477	-18.100399279035	1.0040020560854
0.069626183357764	-10.384648485160	13.588125930544
0.071674012280051	3.7805834068588	15.924473383294
0.073721841202338	14.536782568179	7.0025132729602
0.075769670124625	14.852906957360	-6.5934353259403
0.077817499046912	5.0733537623626	-15.499264274653
0.079865327969200	-7.7023741126968	-13.986824403333
0.081913156891487	-14.725359153342	-3.6155981387283
0.083960985813774	-11.549233991071	8.1793068464377
0.086008814736061	-0.80502554845665	13.367488688925
0.088056643658348	9.9056834238201	8.7487765744196
0.090104472580635	13.356317396156	-2.1199224591890
0.092152301502923	7.5431605319315	-11.627814673267
0.094200130425210	-3.1979208353875	-13.418873406588
0.096247959347497	-11.391714139685	-6.6223916647364
0.098295788269784	-11.601237671508	3.7940506934840
0.10034361719207	-4.0130156453723	10.622673495351
0.10239144611436	5.9195626264184	9.3764761394178
0.10443927503665	11.374113944917	1.2127965920073
0.10648710395893	8.8273698590897	-8.0718808556811
0.10853493288122	0.31185110194700	-12.143699527860
0.11058276180351	-8.1709071699934	-8.4401503255457
0.11263059072579	-10.863401193091	0.23445266917858
0.11467841964808	-6.1451354078392	7.8055399077725
0.11672624857037	2.5171124609108	9.1642668154996
0.11877407749266	9.1001985970705	3.5988392087206
0.12082190641494	9.2004725022307	-4.8748236712047
0.12286973533723	2.9681359240384	-10.400419124779
0.12491756425952	-5.1472722184250	-9.3201388267299
0.12696539318180	-9.5614720565988	-2.5873460580760
0.12901322210409	-7.3874952854735	5.0307896725784
0.13106105102638	-0.31243128460707	8.3159803477584
0.13310887994867	6.6935585130407	5.1619316274399
0.13515670887095	8.8600232849934	-2.0889012809027
0.13720453779324	4.8565959008487	-8.3748634074736
0.13925236671553	-2.4045246265044	-9.4423111101778
0.14130019563781	-7.8769390312088	-4.7182172117126
0.14334802456010	-7.8794399491910	2.4066727199316
0.14539585348239	-2.5649038277760	7.0017550222509
0.14744368240468	4.2923679241517	6.0003213331600
0.14949151132696	7.9705169941046	0.23804431706650
0.15153934024925	6.0457618439631	-6.2241979353487
0.15358716917154	-0.016941426153237	-8.9574109585864
0.15563499809382	-5.9673788638626	-6.1956567695509
0.15768282701611	-7.7436911789910	0.029377716966460
0.15973065593840	-4.2395641724844	5.3739922150886
0.16177848486069	2.0166756728244	6.2070805525977
0.16382631378297	6.6806906405247	2.0711856138983
0.16587414270526	6.6044531960907	-4.0847692151139
0.16792197162755	1.9567925785629	-8.0041374787754
0.16996980054984	-3.9731638463765	-7.0625577676253
0.17201762947212	-7.0989038641334	-2.0216696239989
0.17406545839441	-5.3483712441495	3.5723337211243
0.17611328731670	-0.032706826055139	5.8784239803323
0.17816111623898	5.1290975798515	3.3935496436019
0.18020894516127	6.6086894361077	-2.0735778696814
0.18225677408356	3.4769758937802	-6.7149769692046
0.18430460300585	-2.0190138763995	-7.3731091704007
0.18635243192813	-6.0641505944001	-3.6864308443703
0.18840026085042	-5.9201023550378	1.7249114527192
0.19044808977271	-1.7756835201145	5.1171005705112
0.19249591869499	3.4455444996089	4.2091658248928
0.19454374761728	6.1448331157495	-0.28693687983705
0.19659157653957	4.5261819729039	-5.2169552748988
0.19863940546186	-0.21165712676875	-7.1950644069798
0.20068723438414	-4.7580140246510	-4.9271831414470
0.20273506330643	-6.0009000217264	-0.054408253344867
0.20478289222872	-3.1545325200905	4.0305480081276
0.20683072115100	1.7490576416831	4.5426263193301
0.20887855007329	5.3081855326702	1.2004348450131
0.21092637899558	5.1092794900051	-3.6301951228592
0.21297420791787	1.3615950888667	-6.6090262173972
0.21502203684015	-3.2967993884064	-5.7294579400606
0.21706986576244	-5.6536424317300	-1.6684274355376
0.21911769468473	-4.1353647434214	2.7284245774287
0.22116552360701	0.14483340746500	4.4383208708229
0.22321335252930	4.2001545114391	2.3371992469930
0.22526118145159	5.2527886281187	-2.0644433820308
0.22730901037388	2.6350883212111	-5.7054768818212
0.22935683929616	-1.7906569645492	-6.1016513598073
0.23140466821845	-4.9549146180006	-3.0392642140934
0.23345249714074	-4.7079932342694	1.3185463198332
0.23550032606302	-1.2786524750185	3.9576387462421
0.23754815498531	2.9243335095844	3.0957470649499
0.23959598390760	5.0027030846122	-0.61587631041523
0.24164381282989	3.5659796531517	-4.5810857364963
0.24369164175217	-0.33988160910308	-6.0736106442703
0.24573947067446	-3.9914441941021	-4.1104234936173
0.24778729959675	-4.8852077133053	-0.097364565910874
0.24983512851903	-2.4525216693024	3.1755042822244
0.25188295744132	1.5818281966657	3.4720765181147
0.25393078636361	4.4211963314794	0.63641618810101
0.25597861528590	4.1346540950822	-3.3338099767208
0.25802644420818	0.96902604034031	-5.6936278821521
0.26007427313047	-2.8552652744386	-4.8476969133855
0.26212210205276	-4.7002932499188	-1.4278052111306
0.26416993097504	-3.3289664774905	2.1759436345777
0.26621775989733	0.26701406710415	3.4841618646966
0.26826558881962	3.5827495002487	1.6327049108621
0.27031341774191	4.3440930595836	-2.0584050635626
0.27236124666419	2.0665242770123	-5.0250283048324
0.27440907558648	-1.6389284523224	-5.2393850092869
0.27645690450877	-4.2039861060560	-2.5953355881761
0.27850473343106	-3.8821306118612	1.0472176789943
0.28055256235334	-0.93669282589136	3.1694235089070
0.28260039127563	2.5695236004144	2.3341735255733
0.28464822019792	4.2181027328199	-0.84191243026662
0.28669604912020	2.9023747919514	-4.1419157079118
0.28874387804249	-0.43067831111977	-5.2953560622764
0.29079170696478	-3.4605710953437	-3.5396885616265
0.29283953588707	-4.1078998964739	-0.12322814617320
0.29488736480935	-1.9605164457397	2.5812243233217
0.29693519373164	1.4663141697783	2.7233793480484
0.29898302265393	3.7983835976232	0.24041906246352
0.30103085157621	3.4468245592163	-3.1243430164638
0.30307868049850	0.68996230897070	-5.0448413076354
0.30512650942079	-2.5433606778146	-4.2197110344438
0.30717433834308	-4.0224542089335	-1.2534633476261
0.30922216726536	-2.7529472297709	1.7847186973286
0.31126999618765	0.35571298199933	2.8035460741433
0.31331782510994	3.1408808798453	1.1283226323681
0.31536565403222	3.6906827964422	-2.0535194181484
0.31741348295451	1.6558871046135	-4.5334503366911
0.31946131187680	-1.5300527767172	-4.6143080519150
0.32150914079909	-3.6600228334309	-2.2712799262196
0.32355696972137	-3.2815559656088	0.85236465909066
0.32560479864366	-0.68656934190485	2.5970002109262
0.32765262756595	2.3114610472349	1.7790508468424
0.32970045648823	3.6443417709949	-1.0068494359807
0.33174828541052	2.4154492314830	-3.8191455259100
0.33379611433281	-0.49776436620436	-4.7220514472429
0.33584394325510	-3.0693951753519	-3.1176039081098
0.33789177217738	-3.5333120372797	-0.14083419962019
0.33993960109967	-1.5954812297752	2.1424125966391
0.34198743002196	1.3814270294770	2.1685118542946
0.34403525894424	3.3357928941852	-0.053764876565399
0.34608308786653	2.9343899630294	-2.9680306667790
0.34813091678882	0.48144946420242	-4.5599240366525
0.35017874571111	-2.3100467086298	-3.7490965976169
0.35222657463339	-3.5140458550476	-1.1219659851233
0.35427440355568	-2.3198125875012	1.4913824718029
0.35632223247797	0.42284349673392	2.2914813514702
0.35837006140025	2.8077354951740	0.74798783271955
0.36041789032254	3.1967653490994	-2.0497041455866
0.36246571924483	1.3447201672148	-4.1609479065557
0.36451354816712	-1.4476454314058	-4.1396745347435
0.36656137708940	-3.2466431941406	-2.0245336728998
0.36860920601169	-2.8242347210609	0.70432527714548
0.37065703493398	-0.49581890362155	2.1605261751368
0.37270486385627	2.1140320951777	1.3549751274749
0.37475269277855	3.2047406811972	-1.1328655299142
0.37680052170084	2.0416657520978	-3.5711977949897
0.37884835062313	-0.54954617688246	-4.2811136481733
0.38089617954541	-2.7684844251354	-2.7923248834918
0.38294400846770	-3.0904877232646	-0.15406546745512
0.38499183738999	-1.3138291160816	1.8038504415486
0.38703966631228	1.3154213236150	1.7396944048256
0.38908749523456	2.9770347241525	-0.28114858898870
0.39113532415685	2.5365033689282	-2.8460420480851
0.39318315307914	0.31936453880758	-4.1823145406328
0.39523098200142	-2.1282728161056	-3.3821603633318
0.39727881092371	-3.1174913581390	-1.0190544344102
0.39932663984600	-1.9815599819667	1.2626034710539
0.40137446876829	0.47522102975236	1.8913645416141
0.40342229769057	2.5466657580009	0.45064484467072
0.40547012661286	2.8093837927539	-2.0459890102906
0.40751795553515	1.1006313153572	-3.8676153147479
0.40956578445743	-1.3822317941032	-3.7658004273300
0.41161361337972	-2.9203704170239	-1.8299847281436
0.41366144230201	-2.4630333915336	0.58746415424281
0.41570927122430	-0.34497925251225	1.8156385164359
0.41775710014658	1.9578576012407	1.0196362753894
0.41980492906887	2.8566375643260	-1.2322994521879
0.42185275799116	1.7456296282373	-3.3740651067439
0.42390058691344	-0.58989962000720	-3.9306594301772
0.42594841583573	-2.5283055155299	-2.5338187942371
0.42799624475802	-2.7372151066501	-0.16517295727196
0.43004407368031	-1.0890272189574	1.5332127143291
0.43209190260259	1.2626189634663	1.3968651928823
0.43413973152488	2.6901160252629	-0.46303080395412
0.43618756044717	2.2181882693454	-2.7483025549070
0.43823538936945	0.18999111636120	-3.8797225490675
0.44028321829174	-1.9817423765032	-3.0881701995347
0.44233104721403	-2.7984475630585	-0.93725032569816
0.44437887613632	-1.7095073820704	1.0775487125176
0.44642670505860	0.51692632983322	1.5683318709698
0.44847453398089	2.3355552747648	0.21055343433694
0.45052236290318	2.4963047980669	-2.0429629245938
0.45257019182546	0.90341693339582	-3.6304927908752
0.45461802074775	-1.3289790346848	-3.4635664838964
0.45666584967004	-2.6558572303509	-1.6731092617673
0.45871367859233	-2.1703400652698	0.49175589309187
0.46076150751461	-0.22324048975162	1.5348867411782
0.46280933643690	1.8299850413266	0.74684148884797
0.46485716535919	2.5726731059693	-1.3129417942640
0.46690499428147	1.5042620688063	-3.2130463318380
0.46895282320376	-0.62260365294677	-3.6446860692695
0.47100065212605	-2.3319743731271	-2.3230630834564
0.47304848104834	-2.4485931177464	-0.17484365415209
0.47509630997062	-0.90568440503697	1.3113027849735
0.47714413889291	1.2185516702102	1.1160695959252
0.47919196781520	2.4542589776956	-0.61162926386526
0.48123979673749	1.9568624538268	-2.6673281641101
0.48328762565977	0.084167432315811	-3.6305872538320
0.48533545458206	-1.8605718141620	-2.8463754443935
0.48738328350435	-2.5353846782883	-0.87034180575302
0.48943111242663	-1.4853859134820	0.92454962100675
0.49147894134892	0.55092961790918	1.3017236391262
0.49352677027121	2.1609396425823	0.012682175805569
0.49557459919350	2.2377407551478	-2.0398056757269
0.49762242811578	0.74104586848797	-3.4338437188889
0.49967025703807	-1.2838018158508	-3.2133664511477
0.50171808596036	-2.4357119838823	-1.5437386525643
0.50376591488264	-1.9271230696884	0.41144892279414
0.50581374380493	-0.12223322256422	1.3010665385810
0.50786157272722	1.7235248647158	0.51991120896549
0.50990940164951	2.3366209325488	-1.3798540225123
0.51195723057179	1.3040270933919	-3.0788578384093
0.51400505949408	-0.64875651940563	-3.4067429453800
0.51605288841637	-2.1672169926938	-2.1482958001495
0.51810071733865	-2.2071790290724	-0.18433101049780
0.52014854626094	-0.75265416547268	1.1245737643299
0.52219637518323	1.1812173689272	0.88043055692731
0.52424420410552	2.2565399755676	-0.73630583049519
0.52629203302780	1.7381444719089	-2.5996424121530
0.52833986195009	-0.0039233133375380	-3.4221898656752
0.53038769087238	-1.7582484511288	-2.6445617866615
0.53243551979466	-2.3142854497439	-0.81567798233729
0.53448334871695	-1.2975145294942	0.79445376540021
0.53653117763924	0.57856916849463	1.0764569328337
0.53857900656153	2.0130113316465	-0.15424796548064
0.54062683548381	2.0194399446512	-2.0371183234061
0.54267466440610	0.60423317960019	-3.2681281785101
0.54472249332839	-1.2453631590639	-3.0028379141642
0.54677032225067	-2.2497714815109	-1.4355832795353
0.54881815117296	-1.7221544791568	0.34238222893483
0.55086598009525	-0.037910794760778	1.1025272123509
0.55291380901754	1.6322368085310	0.32775125777855
0.55496163793982	2.1359376230461	-1.4360711036281
0.55700946686211	1.1342263121504	-2.9645894018767
0.55905729578440	-0.67055109196650	-3.2048010896723
0.56110512470668	-2.0270029489686	-2.0004160737440
0.56315295362897	-2.0022203617494	-0.19317094904757
0.56520078255126	-0.62323135257577	0.96526851282137
0.56724861147355	1.1485942611035	0.68001357785465
0.56929644039583	2.0877037785133	-0.84180066946489
0.57134426931812	1.5520033341542	-2.5411537158592
0.57339209824041	-0.078206959522926	-3.2440676114556
0.57543992716269	-1.6699722180730	-2.4726024502079
0.57748775608498	-2.1249061235238	-0.76974800113838
0.57953558500727	-1.1369764084453	0.68253706300739
0.58158341392956	0.60187869483509	0.88354900033850
0.58363124285184	1.8863049215647	-0.29680004599607
0.58567907177413	1.8330126674655	-2.0342981162519
0.58772690069642	0.48814672664906	-3.1259373963172
0.58977472961871	-1.2110256689598	-2.8228358710467
0.59182255854099	-2.0891787716483	-1.3439573085892
0.59387038746328	-1.5457756691140	0.28170052634366
0.59591821638557	0.034394743459961	0.93089843995556
0.59796604530785	1.5535610765742	0.16207580353201
0.60001387423014	1.9635469373131	-1.4845334480925
0.60206170315243	0.98891560881519	-2.8664725292268
0.60410953207472	-0.68815760685074	-3.0317161333404
0.60615736099700	-1.9052316807988	-1.8745143056924
0.60820518991929	-1.8252178867467	-0.20268185543830
0.61025301884158	-0.51200549262528	0.82614443838354
0.61230084776386	1.1196720436624	0.50593234961753
0.61434867668615	1.9413374910307	-0.93339908920285
0.61639650560844	1.3911666575700	-2.4909144801339
0.61844433453073	-0.14194156939405	-3.0907149265802
0.62049216345301	-1.5931039938771	-2.3251316592765
0.62253999237530	-1.9610060372498	-0.73174573835389
0.62458782129759	-0.99871276472549	0.58391795493172
0.62663565021987	0.62079894620637	0.71528085038455
0.62868347914216	1.7752181371861	-0.42074184005577
0.63073130806445	1.6706010246881	-2.0317348239330
0.63277913698674	0.38734588768312	-3.0024988862897
0.63482696590902	-1.1809543247146	-2.6670242933517
0.63687479483131	-1.9496520085136	-1.2653932267886
0.63892262375360	-1.3930846906520	0.22777730685118
0.64097045267588	0.096089214596706	0.78088968924214
0.64301828159817	1.4838290543855	0.017934060069501
0.64506611052046	1.8126851851575	-1.5260789948774
0.64711393944275	0.86234274353461	-2.7802605561239
0.64916176836503	-0.70292196845306	-2.8805812585933
0.65120959728732	-1.7984363267954	-1.7651140889404
0.65325742620961	-1.6706562244565	-0.21176124876198
0.65530525513189	-0.41537026228320	0.70408625680484
0.65735308405418	1.0937283364543	0.35389790522250
0.65940091297647	1.8131142727196	-1.0128030756696
0.66144874189876	1.2509905719577	-2.4461612758789
0.66349657082104	-0.19654911514256	-2.9561526195791
0.66554439974333	-1.5244753269349	-2.1964143562299
0.66759222866562	-1.8165091483761	-0.69945259339316
0.66964005758790	-0.87725679753760	0.49641965891292
0.67168788651019	0.63726666047358	0.56711303785808
0.67373571543248	1.6777888156674	-0.52950682400170
0.67578354435477	1.5286908191165	-2.0292622068880
0.67783137327705	0.30013580275730	-2.8942070388175
0.67987920219934	-1.1529732553263	-2.5309965254021
0.68192703112163	-1.8257968134277	-1.1979375872876
0.68397486004391	-1.2583303366070	0.17847799530325
0.68602268896620	0.15019572119440	0.64733978793425
0.68807051788849	1.4221145121436	-0.10988849405458
0.69011834681078	1.6798838635691	-1.5631532144683
0.69216617573306	0.75148910047961	-2.7048614999350
0.69421400465535	-0.71492850015873	-2.7485049150407
0.69626183357764	-1.7034799386554	-1.6705002678322
0.69830966249993	-1.5342337600759	-0.22200459632271
0.70035749142221	-0.33080264287074	0.59434890939337
0.70240532034450	1.0697040070125	0.21832501529977
0.70445314926679	1.6989300638435	-1.0835865655676
0.70650097818907	1.1267830913272	-2.4069978685143
0.70854880711136	-0.24464745887592	-2.8378852208395
0.71059663603365	-1.4635703208337	-2.0838840177266
0.71264446495594	-1.6889753792610	-0.67263371982971
0.71469229387822	-0.77082418474417	0.41731780898698
0.71674012280051	0.65027227077185	0.43490550009287
0.71878795172280	1.5899845981983	-0.62603262456828
0.72083578064508	1.4020383681302	-2.0267271925146
0.72288360956737	0.22265180144517	-2.7979252762672
0.72493143848966	-1.1279593031707	-2.4106131703627
0.72697926741195	-1.7159229064946	-1.1389105944764
0.72902709633423	-1.1393453246683	0.13376035118607
0.73107492525652	0.19708629659915	0.52824077831298
0.73312275417881	1.3661123844363	-0.22317089347950
0.73517058310109	1.5612529668805	-1.5952223995242
0.73721841202338	0.65316684713976	-2.6368937344756
0.73926624094567	-0.72475837774973	-2.6306198668348
0.74131406986796	-1.6180967274524	-1.5866280751635
0.74336189879024	-1.4123809763625	-0.23187111155317
0.74540972771253	-0.25566034898519	0.49602084113195
0.74745755663482	1.0479299515068	0.097532861843023
0.74950538555710	1.5971835714063	-1.1460961039949
0.75155321447939	1.0168419729912	-2.3713800090138
0.75360104340168	-0.28605386909466	-2.7321850067602
0.75564887232397	-1.4075557515754	-1.9840954944007
0.75769670124625	-1.5738890344884	-0.64999727241886
0.75974453016854	-0.67523972030505	0.34523560972912
0.76179235909083	0.66195248797897	0.31576244462086
0.76384018801311	1.5116549670946	-0.71274860086320
0.76588801693540	1.2895152463593	-2.0246469942542
0.76793584585769	0.15469856652019	-2.7123236105732
0.76998367477998	-1.1040056403011	-2.3041864536290
