#Parameters = {offset=0.98603827123941; C_1=27.534904321902; C_2=102.76166191088; Conductivity_MoGr=1000000; Ip=106.38670083569; Pipe_lenght=40; Pipe_r=30; beta=1; cells_wave=20; d=-352.76166191088; half_gap_x=30; half_gap_y=2.4650956780985; half_gap_z=125; offset_x=5; offset_y=1; sigma_z=5; teta=15; thcoll=27.534904321902; translate_z=-227.76166191089; wakelength=20000}
#"Frequency / GHz"	"Y [Re / Ohm]"	"Y [Im / Ohm]"
#-----------------------------------------------
0.0000000000000	1.4940004319246e-13	-351.63133395178
0.0020478289222872	-62.801312704230	-332.19410474105
0.0040956578445743	-101.39332596297	-282.89775624603
0.0061434867668615	-103.57380887672	-226.06825644540
0.0081913156891487	-74.667950491451	-185.81285509752
0.010239144611436	-33.760278952965	-176.04831259116
0.012286973533723	-3.0420551301484	-194.52222648525
0.014334802456010	3.6226488860211	-225.69698434735
0.016382631378297	-13.301084922963	-250.32108757096
0.018430460300585	-41.256170250367	-255.94561538505
0.020478289222872	-64.078594330841	-242.53983918762
0.022526118145159	-71.394336448716	-220.59274191265
0.024573947067446	-63.551678562275	-203.57961774365
0.026621775989733	-49.779892285807	-199.72280930019
0.028669604912020	-41.418867457801	-207.89787943651
0.030717433834308	-44.768875070185	-219.61410180237
0.032765262756595	-57.870515050519	-225.19448734378
0.034813091678882	-72.724426945264	-219.94829527320
0.036860920601169	-81.003128858887	-206.55662181977
0.038908749523456	-79.355033362278	-192.58901890676
0.040956578445743	-71.027427387291	-185.19067044852
0.043004407368031	-63.140422202088	-186.55852840781
0.045052236290318	-61.742709795947	-193.00240594412
0.047100065212605	-68.000793692297	-197.87137099165
0.049147894134892	-77.869052028954	-196.13760880575
0.051195723057179	-85.166357315360	-187.54675515479
0.053243551979466	-85.797068954874	-176.40935938732
0.055291380901754	-80.285755144711	-168.42636820187
0.057339209824041	-73.097405463110	-166.83812773481
0.059387038746328	-69.417462723629	-170.46446679042
0.061434867668615	-71.679586073446	-174.79101734473
0.063482696590902	-78.141865371949	-175.18352568156
0.065530525513189	-84.317445237505	-169.97299273333
0.067578354435477	-86.134808156153	-161.38119074828
0.069626183357764	-82.629674822023	-153.80550373028
0.071674012280051	-76.410485274210	-150.75735960862
0.073721841202338	-71.716275366389	-152.56635966712
0.075769670124625	-71.494452116520	-156.33548882061
0.077817499046912	-75.499927687880	-158.05468860155
0.079865327969200	-80.630431391463	-155.34736946303
0.081913156891487	-83.158306876434	-148.98124161069
0.083960985813774	-81.269537637574	-142.19456044520
0.086008814736061	-76.193591370539	-138.39663427163
0.088056643658348	-71.233785828654	-138.86310005145
0.090104472580635	-69.447629966757	-141.97384064534
0.092152301502923	-71.598087171930	-144.43520122873
0.094200130425210	-75.741981145872	-143.57549829209
0.096247959347497	-78.661102599492	-139.12119846770
0.098295788269784	-78.092746715571	-133.27901156753
0.10034361719207	-74.221855451310	-129.13948104204
0.10239144611436	-69.457943729343	-128.54838085475
0.10443927503665	-66.716372026310	-130.90499532988
0.10648710395893	-67.424474799802	-133.66302417928
0.10853493288122	-70.611640623068	-134.12967603192
0.11058276180351	-73.658121671409	-131.29636409938
0.11263059072579	-74.134012402169	-126.46023146770
0.11467841964808	-71.442816402652	-122.25943668175
0.11672624857037	-67.162477574650	-120.83281349025
0.11877407749266	-63.898278974875	-122.38275514717
0.12082190641494	-63.477236192388	-125.10257776905
0.12286973533723	-65.732035147518	-126.47149679391
0.12491756425952	-68.680827896429	-124.99222649505
0.12696539318180	-69.935099622363	-121.17609334361
0.12901322210409	-68.339145248294	-117.13021297014
0.13106105102638	-64.718953648058	-115.07164056147
0.13310887994867	-61.258730790030	-115.81266020259
0.13515670887095	-59.971344892927	-118.24892401063
0.13720453779324	-61.331277604073	-120.16872462827
0.13925236671553	-63.996269650285	-119.79311920837
0.14130019563781	-65.775538632153	-116.97636175145
0.14334802456010	-65.148943097557	-113.25832740606
0.14539585348239	-62.285900224804	-110.76566721401
0.14744368240468	-58.883195831223	-110.74308349985
0.14949151132696	-56.964750476118	-112.72670634468
0.15153934024925	-57.490352414573	-114.90620105108
0.15358716917154	-59.727979530500	-115.39676660894
0.15563499809382	-61.798134459642	-113.52874169212
0.15768282701611	-61.988112081759	-110.27375120098
0.15973065593840	-59.918841860318	-107.53839630339
0.16177848486069	-56.770845028556	-106.83658377585
0.16382631378297	-54.438297433312	-108.26321731891
0.16587414270526	-54.215707202778	-110.46335212706
0.16792197162755	-55.926398458533	-111.59380114900
0.16996980054984	-58.078204608441	-110.59591981261
0.17201762947212	-58.915662893266	-107.90169426341
0.17406545839441	-57.628034165605	-105.10328458429
0.17611328731670	-54.882990399105	-103.83595246867
0.17816111623898	-52.336026774757	-104.65671648544
0.18020894516127	-51.474357210090	-106.68639754546
0.18225677408356	-52.601527132333	-108.24323044623
0.18430460300585	-54.654962442917	-108.01249994354
0.18635243192813	-55.963429129975	-105.93956993951
0.18840026085042	-55.405499098723	-103.24048355741
0.19044808977271	-53.166893495555	-101.54146853763
0.19249591869499	-50.586108285302	-101.75511959509
0.19454374761728	-49.212885049313	-103.46886573788
0.19659157653957	-49.740901490528	-105.25446906352
0.19863940546186	-51.548898234673	-105.66785831138
0.20068723438414	-53.152770400551	-104.24004132108
0.20273506330643	-53.240698512175	-101.77975788900
0.20478289222872	-51.570049691133	-99.793677251505
0.20683072115100	-49.113486610875	-99.438809581040
0.20887855007329	-47.368319583642	-100.73470277962
0.21092637899558	-47.318702945201	-102.57107187829
0.21297420791787	-48.769287375235	-103.49083479206
0.21502203684015	-50.500812585366	-102.69689213052
0.21706986576244	-51.125887892103	-100.58753669047
0.21911769468473	-50.044885866872	-98.461432918721
0.22116552360701	-47.843891551232	-97.609504258424
0.22321335252930	-45.871293392723	-98.428075789277
0.22526118145159	-45.298100991988	-100.16191957936
0.22730901037388	-46.316266117808	-101.44280568475
0.22935683929616	-48.023296859390	-101.24005700686
0.23140466821845	-49.060824634632	-99.563166382618
0.23345249714074	-48.555800896312	-97.437917700305
0.23550032606302	-46.712626995724	-96.184454896322
0.23754815498531	-44.655058031629	-96.504827965948
0.23959598390760	-43.638712690278	-98.010170542266
0.24164381282989	-44.185546002068	-99.505406113382
0.24369164175217	-45.736455049916	-99.823724954302
0.24573947067446	-47.052654571758	-98.628523329183
0.24778729959675	-47.078189029426	-96.631989344422
0.24983512851903	-45.663428501535	-95.089068001899
0.25188295744132	-43.654192480210	-94.925860450570
0.25393078636361	-42.294837401519	-96.107380269554
0.25597861528590	-42.366133678583	-97.675885038761
0.25802644420818	-43.654841366363	-98.423437161897
0.26007427313047	-45.114945464414	-97.726720794578
0.26212210205276	-45.599531956054	-95.967468643017
0.26416993097504	-44.651542778803	-94.255258406314
0.26621775989733	-42.808512825860	-93.653403178681
0.26826558881962	-41.218513800988	-94.447637690559
0.27031341774191	-40.841279917122	-95.960231804996
0.27236124666419	-41.790067755600	-97.029844679499
0.27440907558648	-43.265253892472	-96.817667811866
0.27645690450877	-44.117266373663	-95.380537554090
0.27850473343106	-43.642824775751	-93.619693247038
0.28055256235334	-42.063238180181	-92.648856829525
0.28260039127563	-40.359731373270	-93.024407117978
0.28464822019792	-39.587673217817	-94.369472905234
0.28669604912020	-40.148700842637	-95.645599544047
0.28874387804249	-41.522473290963	-95.876516557345
0.29079170696478	-42.636850576914	-94.819792694243
0.29283953588707	-42.613422200809	-93.124508427066
0.29488736480935	-41.370192260206	-91.872864449137
0.29693519373164	-39.668122088986	-91.829169925032
0.29898302265393	-38.576393447601	-92.917134141137
0.30103085157621	-38.731903193025	-94.282698165072
0.30307868049850	-39.905614703523	-94.891960771875
0.30512650942079	-41.170786988210	-94.245793254787
0.30717433834308	-41.549941563056	-92.717408280917
0.30922216726536	-40.689106232970	-91.284799196847
0.31126999618765	-39.094442072841	-90.849562318938
0.31331782510994	-37.773334677623	-91.616327900133
0.31536565403222	-37.534200512942	-92.959730088192
0.31741348295451	-38.431475523665	-93.864968788296
0.31946131187680	-39.736625663112	-93.631777530193
0.32150914079909	-40.449191407930	-92.353625852835
0.32355696972137	-39.989553276039	-90.844396265029
0.32560479864366	-38.593878797905	-90.069242834603
0.32765262756595	-37.142304139018	-90.477439548868
0.32970045648823	-36.545017532164	-91.698196841638
0.33174828541052	-37.114285563004	-92.805192084766
0.33379611433281	-38.355511193258	-92.961296198993
0.33584394325510	-39.316887092897	-91.994912721644
0.33789177217738	-39.250623345994	-90.511279611136
0.33993960109967	-38.126534688328	-89.466895416662
0.34198743002196	-36.645389017931	-89.506142960196
0.34403525894424	-35.748006685076	-90.520031188016
0.34608308786653	-35.963836224664	-91.729063720731
0.34813091678882	-37.049897194510	-92.227727323793
0.35017874571111	-38.166157056326	-91.610400029498
0.35222657463339	-38.460986942129	-90.246168750088
0.35427440355568	-37.658794502402	-89.016510212020
0.35632223247797	-36.244485146947	-88.702092963397
0.35837006140025	-35.121473840749	-89.445127188092
0.36041789032254	-34.984290828858	-90.657407379764
0.36246571924483	-35.841349050013	-91.433172283596
0.36451354816712	-37.015662461641	-91.177113781665
0.36656137708940	-37.618466290469	-90.012220289844
0.36860920601169	-37.164503954313	-88.688153128633
0.37065703493398	-35.903130834362	-88.058058163923
0.37270486385627	-34.639425231092	-88.488821488480
0.37475269277855	-34.173453832377	-89.612312506086
0.37680052170084	-34.748119203799	-90.586138222160
0.37884835062313	-35.886529374508	-90.679335729779
0.38089617954541	-36.727600130944	-89.775890379807
0.38294400846770	-36.623821321790	-88.449333228095
0.38499183738999	-35.586315396068	-87.560751304486
0.38703966631228	-34.271375093955	-87.661855773982
0.38908749523456	-33.521789835749	-88.616808994365
0.39113532415685	-33.783413089383	-89.701925746871
0.39318315307914	-34.800751224998	-90.110306564243
0.39523098200142	-35.799304508570	-89.509608185458
0.39727881092371	-36.024654939333	-88.267482641240
0.39932663984600	-35.263156970873	-87.191869345486
0.40137446876829	-33.984940279652	-86.969487291605
0.40342229769057	-33.013644132943	-87.692671733894
0.40547012661286	-32.954794860596	-88.800482965597
0.40751795553515	-33.779446583686	-89.471350774455
0.40956578445743	-34.849281943555	-89.192495833600
0.41161361337972	-35.362278710150	-88.111553256902
0.41366144230201	-34.907859585667	-86.929363255521
0.41570927122430	-33.747336790390	-86.411603780278
0.41775710014658	-32.628174187071	-86.859490452563
0.41980492906887	-32.263975604927	-87.905355304952
0.42185275799116	-32.841887283638	-88.771737381058
0.42390058691344	-33.897369449489	-88.811488749931
0.42594841583573	-34.640000419037	-87.953756874953
0.42799624475802	-34.501881420837	-86.748565958514
0.43004407368031	-33.528223347156	-85.982241550380
0.43209190260259	-32.341546460731	-86.132498671067
0.43413973152488	-31.707393925608	-87.040732950748
0.43618756044717	-32.004455131519	-88.026248625522
0.43823538936945	-32.965781993506	-88.360283379364
0.44028321829174	-33.867867692712	-87.769794252083
0.44233104721403	-34.033745996429	-86.622809383404
0.44437887613632	-33.300341239741	-85.669600692673
0.44642670505860	-32.127493950248	-85.521632963404
0.44847453398089	-31.275884408363	-86.230078894187
0.45052236290318	-31.279373653389	-87.254363550141
0.45257019182546	-32.077712911388	-87.839748421761
0.45461802074775	-33.062249137874	-87.540274173806
0.45666584967004	-33.500212211445	-86.524785845219
0.45871367859233	-33.041872728139	-85.456096713650
0.46076150751461	-31.959619825559	-85.029666806490
0.46280933643690	-30.955582100281	-85.492815157730
0.46485716535919	-30.673591306346	-86.476782162248
0.46690499428147	-31.254651317481	-87.255602499685
0.46895282320376	-32.242776333351	-87.250110422427
0.47100065212605	-32.903971897266	-86.427223341993
0.47304848104834	-32.735267309385	-85.319283905019
0.47509630997062	-31.810833330550	-84.652542249517
0.47714413889291	-30.727053743262	-84.844002839842
0.47919196781520	-30.187054192731	-85.715166755539
0.48123979673749	-30.514071302094	-86.619120115022
0.48328762565977	-31.430400067657	-86.890555843300
0.48533545458206	-32.253034195556	-86.305722084069
0.48738328350435	-32.368223301236	-85.234368642041
0.48943111242663	-31.655268316142	-84.380566158616
0.49147894134892	-30.566968709586	-84.294023602396
0.49352677027121	-29.813193767496	-84.991036631464
0.49557459919350	-29.868656815196	-85.946392686132
0.49762242811578	-30.646148763112	-86.459621071543
0.49967025703807	-31.560109023016	-86.140231851200
0.50171808596036	-31.934305460780	-85.175850670718
0.50376591488264	-31.469828150695	-84.199175559040
0.50581374380493	-30.449560013112	-83.848036327079
0.50786157272722	-29.539298231802	-84.324420404539
0.50990940164951	-29.325298494628	-85.257294773709
0.51195723057179	-29.909411441678	-85.962332671030
0.51400505949408	-30.841361165283	-85.916773943840
0.51605288841637	-31.433102284662	-85.119953603580
0.51810071733865	-31.235825551758	-84.090896268417
0.52014854626094	-30.348956616734	-83.506632827651
0.52219637518323	-29.348443954317	-83.733240806963
0.52424420410552	-28.885974424980	-84.574400954501
0.52629203302780	-29.237969426966	-85.410137901058
0.52833986195009	-30.116439304474	-85.627742380625
0.53038769087238	-30.871080845545	-85.045396166373
0.53243551979466	-30.940832052509	-84.035646535542
0.53448334871695	-30.241374643860	-83.264925711599
0.53653117763924	-29.220989828447	-83.231205370491
0.53857900656153	-28.547852484471	-83.920503956323
0.54062683548381	-28.646863164003	-84.819145372741
0.54267466440610	-29.407039662342	-85.271489947186
0.54472249332839	-30.260938758042	-84.934041179534
0.54677032225067	-30.579331996407	-84.011442654798
0.54881815117296	-30.106659008428	-83.112257220467
0.55086598009525	-29.135941851539	-82.826128133916
0.55291380901754	-28.303477924319	-83.316080930479
0.55496163793982	-28.147129655771	-84.207824859806
0.55700946686211	-28.734806332035	-84.851175896861
0.55905729578440	-29.619723895454	-84.771037479900
0.56110512470668	-30.151832900156	-83.995161627136
0.56315295362897	-29.928364367905	-83.032602068279
0.56520078255126	-29.071255933757	-82.519393403636
0.56724861147355	-28.140396733478	-82.778044350469
0.56929644039583	-27.744367802666	-83.595896094974
0.57134426931812	-28.119276393881	-84.374634981412
0.57339209824041	-28.967115733015	-84.545869773356
0.57543992716269	-29.664277000667	-83.964149448791
0.57748775608498	-29.694343777510	-83.005695124606
0.57953558500727	-29.004831199932	-82.305863534945
0.58158341392956	-28.041461994022	-82.318519155282
0.58363124285184	-27.437680895678	-83.002863066658
0.58567907177413	-27.575660118915	-83.853780431950
0.58772690069642	-28.322998033916	-84.253236546522
0.58977472961871	-29.126486303410	-83.898288342096
0.59182255854099	-29.396571324542	-83.009325819869
0.59387038746328	-28.915346058945	-82.175423299545
0.59591821638557	-27.985753003483	-81.945291835227
0.59796604530785	-27.219861135318	-82.447842775128
0.60001387423014	-27.114161398060	-83.304716592281
0.60206170315243	-27.706544534313	-83.894094477237
0.60410953207472	-28.551923526503	-83.781872545098
0.60615736099700	-29.032084126518	-83.021247794245
0.60820518991929	-28.784079105347	-82.113989650462
0.61025301884158	-27.950334089536	-81.661527837197
0.61230084776386	-27.078139313214	-81.948454733479
0.61434867668615	-26.739426273202	-82.746846078872
0.61639650560844	-27.134959045104	-83.475922933627
0.61844433453073	-27.956834726882	-83.605232535133
0.62049216345301	-28.603438711545	-83.021483052795
0.62253999237530	-28.596806929830	-82.105373486471
0.62458782129759	-27.912879962806	-81.466348988860
0.62663565021987	-26.996479528573	-81.520067530622
0.62868347914216	-26.451807586800	-82.201499666189
0.63073130806445	-26.623794527552	-83.011668028237
0.63277913698674	-27.360355923564	-83.364477093661
0.63482696590902	-28.119402145097	-82.992579994952
0.63687479483131	-28.345328329363	-82.131247236906
0.63892262375360	-27.853528749901	-81.353801280945
0.64097045267588	-26.956850804584	-81.173709221458
0.64301828159817	-26.247390248854	-81.689473933722
0.64506611052046	-26.185805549612	-82.517891424254
0.64711393944275	-26.782987007887	-83.060867641764
0.64916176836503	-27.594038847371	-82.920032473922
0.65120959728732	-28.027683932506	-82.171751781055
0.65325742620961	-27.755933678594	-81.312702944394
0.65530525513189	-26.940204534530	-80.914769187199
0.65735308405418	-26.118014706588	-81.229021142636
0.65940091297647	-25.829776186304	-82.012997182563
0.66144874189876	-26.244787531150	-82.700082361997
0.66349657082104	-27.045249066448	-82.792673422905
0.66554439974333	-27.647742254939	-82.206336880652
0.66759222866562	-27.607835625965	-81.326946843366
0.66964005758790	-26.927239899571	-80.742160811823
0.67168788651019	-26.051249470625	-80.834077321901
0.67373571543248	-25.559195660715	-81.515406591513
0.67578354435477	-25.763075740348	-82.291301868839
0.67783137327705	-26.492412757123	-82.603072914054
0.67987920219934	-27.213680204966	-82.215058343023
0.68192703112163	-27.400642867023	-81.376779876901
0.68397486004391	-26.898562860197	-80.648816567486
0.68602268896620	-26.030222156282	-80.513895939252
0.68807051788849	-25.371132140066	-81.042991776265
0.69011834681078	-25.350462568747	-81.847368491728
0.69216617573306	-25.954392252442	-82.348947557391
0.69421400465535	-26.736910970852	-82.180967992030
0.69626183357764	-27.129734561131	-81.441264945271
0.69830966249993	-26.835997263973	-80.623271378500
0.70035749142221	-26.034997356556	-80.273387414544
0.70240532034450	-25.256796227248	-80.612617694747
0.70445314926679	-25.014361843025	-81.384461502236
0.70650097818907	-25.448525467657	-82.033734654278
0.70854880711136	-26.231469871583	-82.091667672784
0.71059663603365	-26.794872095487	-81.500178902280
0.71264446495594	-26.723935805218	-80.651022880658
0.71469229387822	-26.044136806972	-80.113452638812
0.71674012280051	-25.202470486430	-80.239706549018
0.71878795172280	-24.756957027345	-80.921715387573
0.72083578064508	-24.990067181885	-81.667060720871
0.72288360956737	-25.713853392475	-81.940809545420
0.72493143848966	-26.401207281986	-81.535941560389
0.72697926741195	-26.551585679320	-80.715876396723
0.72902709633423	-26.037467072917	-80.030989030504
0.73107492525652	-25.191751036757	-79.936911531702
0.73312275417881	-24.576213059067	-80.479323697352
0.73517058310109	-24.592054096893	-81.263282949543
0.73721841202338	-25.202515763872	-81.727662713807
0.73926624094567	-25.959328350696	-81.534009649992
0.74131406986796	-26.313988354820	-80.800361180304
0.74336189879024	-25.997728948488	-80.018505871957
0.74540972771253	-25.206979906754	-79.712675365051
0.74745755663482	-24.466355218787	-80.076527246990
0.74950538555710	-24.264730242837	-80.839783771803
0.75155321447939	-24.716848056784	-81.456354141279
0.75360104340168	-25.484674369937	-81.483008909348
0.75564887232397	-26.012394999034	-80.886037019644
0.75769670124625	-25.911699731760	-80.063731064750
0.75974453016854	-25.230294868821	-79.569726790723
0.76179235909083	-24.417984545002	-79.729357203855
0.76384018801311	-24.014422525524	-80.414854520480
