#Parameters = {C_1=22; C_2=82.105117766515; Conductivity_W=18000000; Ip=85.001472713438; Pipe_lenght=40; Pipe_r=30; beta=1; cells_wave=20; d=-182.10511776652; half_gap_x=30; half_gap_y=8; half_gap_z=50; mu_copper=0.999994; offset=3.2; offset_x=5; offset_y=1; sigma_z=5; teta=15; thcoll=22; translate_z=-132.10511776652; wakelength=20000}
#"Frequency / GHz"	"Y [Re / Ohm]"	"Y [Im / Ohm]"
#-----------------------------------------------
0.0000000000000	7.3243716495812e-12	199.49781696331
0.0020478289222872	109.36036464839	163.10110601238
0.0040956578445743	173.11559463063	70.894633838685
0.0061434867668615	168.26821248188	-35.050089602774
0.0081913156891487	104.84082251717	-109.27044213464
0.010239144611436	18.815714205217	-125.46300859295
0.012286973533723	-47.897869116829	-87.783012714280
0.014334802456010	-69.007339457829	-25.474127321270
0.016382631378297	-45.200020788530	25.114403172795
0.018430460300585	-0.012499189070335	40.346641493161
0.020478289222872	36.094910217466	19.950188858137
0.022526118145159	43.450372614536	-16.461429069694
0.024573947067446	22.543827323524	-43.515211674195
0.026621775989733	-9.3342779007560	-45.614045796978
0.028669604912020	-30.781642018830	-24.738694321885
0.030717433834308	-29.775212526320	3.1714855301394
0.032765262756595	-9.8353263288284	19.799339746283
0.034813091678882	14.042459074305	16.109088076755
0.036860920601169	26.093096902024	-3.0534088101728
0.038908749523456	19.816086458738	-23.525697002334
0.040956578445743	1.1459934913807	-31.791601995580
0.043004407368031	-16.572484934299	-23.556800925359
0.045052236290318	-21.864053919733	-5.6357823286492
0.047100065212605	-12.366712367151	9.4559964028636
0.049147894134892	4.4247286445295	12.115879320506
0.051195723057179	16.857036733420	1.6658514406190
0.053243551979466	17.063115300528	-13.915693051746
0.055291380901754	5.8258375855557	-23.885733633215
0.057339209824041	-8.5769138078665	-21.998895866423
0.059387038746328	-16.360144717812	-10.298871354761
0.061434867668615	-12.795382984817	2.8036091236440
0.063482696590902	-1.0010348706381	8.5203424787266
0.065530525513189	10.631774861454	3.5352229090905
0.067578354435477	14.340965059518	-8.1364909561583
0.069626183357764	8.1174373138770	-18.263806201321
0.071674012280051	-3.2962050452057	-20.130835219893
0.073721841202338	-11.956080116762	-12.929225111026
0.075769670124625	-12.201071340069	-1.9685086858446
0.077817499046912	-4.3145942944549	5.2064620893671
0.079865327969200	5.9791914506154	3.9848263645776
0.081913156891487	11.631790069448	-4.3710289025853
0.083960985813774	9.0655203845678	-13.867109238799
0.086008814736061	0.40598523471734	-18.034558196450
0.088056643658348	-8.2193326650082	-14.300162450367
0.090104472580635	-10.989958597125	-5.5353080851896
0.092152301502923	-6.2970103536721	2.1257787577860
0.094200130425210	2.3607937017484	3.5647280654199
0.096247959347497	8.9591744301401	-1.9142246872553
0.098295788269784	9.1208948655169	-10.303763133471
0.10034361719207	3.0021554423020	-15.795829122998
0.10239144611436	-4.9987756575380	-14.779206010767
0.10443927503665	-9.3851314250261	-8.1923470016207
0.10648710395893	-7.3227414586476	-0.70941893164108
0.10853493288122	-0.45516927689783	2.5671901914505
0.11058276180351	6.3788058391998	-0.42211997700430
0.11263059072579	8.5419228063576	-7.4120872914399
0.11467841964808	4.7339593434996	-13.505757436996
0.11672624857037	-2.2463197148615	-14.589242711395
0.11877407749266	-7.5441233507186	-10.094778301810
0.12082190641494	-7.6144637019482	-3.2632367578999
0.12286973533723	-2.5843158270636	1.1857789766455
0.12491756425952	3.9565016348792	0.30888054508448
0.12696539318180	7.5083388920872	-5.1197255330329
0.12901322210409	5.7494828425487	-11.254819141658
0.13106105102638	0.045315801794209	-13.892433310247
0.13310887994867	-5.5959921247688	-11.340388414161
0.13515670887095	-7.3321075119350	-5.4920056283717
0.13720453779324	-4.0964876653849	-0.42850394287511
0.13925236671553	1.7586909984590	0.42496913275158
0.14130019563781	6.1652198732987	-3.3875592536488
0.14334802456010	6.1599215080175	-9.1286401905899
0.14539585348239	1.8719596326980	-12.824127991755
0.14744368240468	-3.6525856750103	-12.006662095726
0.14949151132696	-6.6085617803802	-7.3557057362414
0.15153934024925	-5.0472785763777	-2.1477371774616
0.15358716917154	-0.15527878748569	0.048881167190330
0.15563499809382	4.6389930050335	-2.1839182541977
0.15768282701611	6.0638099199128	-7.2030218312536
0.15973065593840	3.2330808120548	-11.505322846066
0.16177848486069	-1.8100948225080	-12.166979752914
0.16382631378297	-5.5628253118919	-8.8251155709934
0.16587414270526	-5.4912922928269	-3.8614408568536
0.16792197162755	-1.7375528622846	-0.70741360579046
0.16996980054984	3.0429458035205	-1.4741680148895
0.17201762947212	5.5566398286054	-5.5417914619224
0.17406545839441	4.1380956368567	-10.048185624093
0.17611328731670	-0.14992895399256	-11.898415810283
0.17816111623898	-4.3066767747964	-9.8861355548111
0.18020894516127	-5.4899939337571	-5.4749899416166
0.18225677408356	-2.9565357174814	-1.7367826913105
0.18430460300585	1.4770206900736	-1.2140459990352
0.18635243192813	4.7338390745828	-4.1923753119891
0.18840026085042	4.6099799081808	-8.5547079631344
0.19044808977271	1.2636464402744	-11.282452276778
0.19249591869499	-2.9439852219088	-10.540968914023
0.19454374761728	-5.1120424131683	-6.9102250732010
0.19659157653957	-3.7973823905780	-2.9368105788961
0.19863940546186	0.027659343007014	-1.3491762395372
0.20068723438414	3.6910188901701	-3.1853776178200
0.20273506330643	4.6857595906483	-7.1166437293821
0.20478289222872	2.3839724330839	-10.405452552673
0.20683072115100	-1.5706808232557	-10.809159780017
0.20887855007329	-4.4341749030561	-8.1067636800867
0.21092637899558	-4.2640454756374	-4.2106629891617
0.21297420791787	-1.2350258167668	-1.8145795906975
0.21502203684015	2.5214667895787	-2.5322392712850
0.21706986576244	4.4156687658366	-5.8117866505042
0.21911769468473	3.1835409173466	-9.3549992781074
0.22116552360701	-0.27137155924266	-10.725668053097
0.22321335252930	-3.5376605516626	-9.0226518957842
0.22526118145159	-4.3773988604393	-5.4696676757780
0.22730901037388	-2.2578334706571	-2.5373698245018
0.22935683929616	1.3139335130081	-2.2262447268914
0.23140466821845	3.8612077770812	-4.7027362389847
0.23345249714074	3.6539651489228	-8.2175267105784
0.23550032606302	0.88271733159763	-10.339354261739
0.23754815498531	-2.5056113447061	-9.6351094088907
0.23959598390760	-4.1739880189766	-6.6360576796870
0.24164381282989	-3.0058036563669	-3.4396664746675
0.24369164175217	0.14943229506352	-2.2434853079149
0.24573947067446	3.0922291988927	-3.8350662041189
0.24778729959675	3.8054620549739	-7.0748336474424
0.24983512851903	1.8361415151015	-9.7102561414989
0.25188295744132	-1.4192050856919	-9.9405976263584
0.25393078636361	-3.7034745988026	-7.6460017226553
0.25597861528590	-3.4627559913341	-4.4427033131492
0.25802644420818	-0.90220311373205	-2.5453604307609
0.26007427313047	2.1827562289293	-3.2365826105489
0.26212210205276	3.6645916644474	-6.0006590792870
0.26416993097504	2.5502103805967	-8.9058573517752
0.26621775989733	-0.35442681443719	-9.9533124270005
0.26826558881962	-3.0256243326614	-8.4512310362768
0.27031341774191	-3.6308450878492	-5.4702415173214
0.27236124666419	-1.7849005343367	-3.0811318115066
0.27440907558648	1.2071107383042	-2.9169603173355
0.27645690450877	3.2718026631471	-5.0574033807679
0.27850473343106	3.0037062379071	-7.9969736891787
0.28055256235334	0.62137248327917	-9.7029330623102
0.28260039127563	-2.2064988151587	-9.0200589058118
0.28464822019792	-3.5289882397820	-6.4519755114260
0.28669604912020	-2.4580240016708	-3.7911556653763
0.28874387804249	0.23629305438955	-2.8683715200156
0.29079170696478	2.6785682286734	-4.2935737090089
0.29283953588707	3.1929732195536	-7.0537051540653
0.29488736480935	1.4526560437494	-9.2318579147100
0.29693519373164	-1.3142105183325	-9.3378128750359
0.29898302265393	-3.1903277448329	-7.3268647077722
0.30103085157621	-2.8971165810255	-4.6108167888650
0.30307868049850	-0.66531517055795	-3.0673415504196
0.30512650942079	1.9440418005136	-3.7423829363632
0.30717433834308	3.1310429035933	-6.1419283922040
0.30922216726536	2.0980462869451	-8.5922573794977
0.31126999618765	-0.41491022497778	-9.4067527419713
0.31331782510994	-2.6593209023302	-8.0462350475849
0.31536565403222	-3.0941452672274	-5.4749157632110
0.31741348295451	-1.4432552751368	-3.4776288301736
0.31946131187680	1.1308605717661	-3.4213758003855
0.32150914079909	2.8452627454174	-5.3201682213144
0.32355696972137	2.5311511140196	-7.8425574903527
0.32560479864366	0.43032836246692	-9.2447193576223
0.32765262756595	-1.9888557567238	-8.5755348293685
0.32970045648823	-3.0571814340708	-6.3212103727451
0.33174828541052	-2.0557262158060	-4.0529123778510
0.33379611433281	0.30106437868705	-3.3321765086988
0.33584394325510	2.3745785484031	-4.6363529662455
0.33789177217738	2.7410226971631	-7.0432350958588
0.33993960109967	1.1687881313224	-8.8826758268539
0.34198743002196	-1.2364291923134	-8.8951218837777
0.34403525894424	-2.8086523038830	-7.0937080611277
0.34608308786653	-2.4750502134334	-4.7401378547630
0.34813091678882	-0.48747551828145	-3.4614411407469
0.35017874571111	1.7664194171801	-4.1256278913919
0.35222657463339	2.7317137493381	-6.2529451259907
0.35427440355568	1.7586652196314	-8.3617582678841
0.35632223247797	-0.46035325180633	-9.0001654299402
0.35837006140025	-2.3829055780530	-7.7453196971934
0.36041789032254	-2.6881880564565	-5.4828842470304
0.36246571924483	-1.1839907582097	-3.7824077309939
0.36451354816712	1.0736255361632	-3.8088587443439
0.36656137708940	2.5214957015248	-5.5249239255057
0.36860920601169	2.1714470304333	-7.7300549783952
0.37065703493398	0.28447421617852	-8.9000932048298
0.37270486385627	-1.8227207069703	-8.2404996686367
0.37475269277855	-2.6960881816810	-6.2256014012737
0.37680052170084	-1.7471833660620	-4.2581279376162
0.37884835062313	0.35088110389800	-3.6930404980748
0.38089617954541	2.1406109779087	-4.9047680860843
0.38294400846770	2.3924397266910	-7.0397689223131
0.38499183738999	0.94927025078829	-8.6175174738952
0.38703966631228	-1.1766365752943	-8.5569907448254
0.38908749523456	-2.5132670351271	-6.9171605637595
0.39113532415685	-2.1477228212382	-4.8444569731227
0.39318315307914	-0.34932202091622	-3.7716715300116
0.39523098200142	1.6281649087141	-4.4278924287437
0.39727881092371	2.4204338239058	-6.3434286323066
0.39932663984600	1.4937546725882	-8.1856791581031
0.40137446876829	-0.49574013364458	-8.6860752133479
0.40342229769057	-2.1661886318171	-7.5135015453386
0.40547012661286	-2.3694663823636	-5.4930083019646
0.40751795553515	-0.97997271947088	-4.0257194685544
0.40956578445743	1.0290099668865	-4.1176045005004
0.41161361337972	2.2668993499577	-5.6901820286107
0.41366144230201	1.8882058707530	-7.6452987523700
0.41570927122430	0.16984253392813	-8.6319143684414
0.41775710014658	-1.6906702903747	-7.9796485563392
0.41980492906887	-2.4094494396790	-6.1541774767671
0.42185275799116	-1.5019274642601	-4.4253108848362
0.42390058691344	0.39086608927294	-3.9840895453270
0.42594841583573	1.9548943681057	-5.1226378224937
0.42799624475802	2.1152199513288	-7.0413779099052
0.43004407368031	0.77465689624853	-8.4104964771327
0.43209190260259	-1.1284603231101	-8.2915624806751
0.43413973152488	-2.2767880085437	-6.7807151884398
0.43618756044717	-1.8855801593500	-4.9327321748580
0.43823538936945	-0.23869049477677	-4.0250255693625
0.44028321829174	1.5169868069331	-4.6749973917409
0.44233104721403	2.1700942341362	-6.4204981797790
0.44437887613632	1.2804932732270	-8.0483163760337
0.44642670505860	-0.52433512846198	-8.4374164828226
0.44847453398089	-1.9915751069774	-7.3309647227747
0.45052236290318	-2.1124572564628	-5.5055940512046
0.45257019182546	-0.81556041810748	-4.2266649965015
0.45461802074775	0.99233294144798	-4.3714710505065
0.45666584967004	2.0601578646658	-5.8278183975365
0.45871367859233	1.6582234541515	-7.5801557645993
0.46076150751461	0.076741960865323	-8.4177812085096
0.46280933643690	-1.5832400057477	-7.7713685367876
0.46485716535919	-2.1761503248366	-6.0999338652853
0.46690499428147	-1.3022173445030	-4.5653669288045
0.46895282320376	0.42332002969469	-4.2251339938602
0.47100065212605	1.8032272561460	-5.3039634709480
0.47304848104834	1.8888855438403	-7.0460230380705
0.47509630997062	0.63234847733250	-8.2445352583291
0.47714413889291	-1.0882582430689	-8.0778446961143
0.47919196781520	-2.0821778267947	-6.6728042035565
0.48123979673749	-1.6698751749381	-5.0092882014342
0.48328762565977	-0.14740039093454	-4.2372358903847
0.48533545458206	1.4259498134683	-4.8821312503576
0.48738328350435	1.9645827159916	-6.4877741593917
0.48943111242663	1.1055757209894	-7.9390632408542
0.49147894134892	-0.54696935790078	-8.2365477434176
0.49352677027121	-1.8465445344982	-7.1848377178441
0.49557459919350	-1.8994799419747	-5.5207958725173
0.49762242811578	-0.67930633031962	-4.3976795741570
0.49967025703807	0.96202272518615	-4.5862700518900
0.50171808596036	1.8888982069704	-5.9462831973521
0.50376591488264	1.4676868723995	-7.5304666431107
0.50581374380493	-0.00019706287250369	-8.2444951130082
0.50786157272722	-1.4936736570321	-7.6030428491033
0.50990940164951	-1.9820972472070	-6.0597459348632
0.51195723057179	-1.1363280136979	-4.6868333935499
0.51400505949408	0.44973072000839	-4.4305597902310
0.51605288841637	1.6760945759693	-5.4593923941361
0.51810071733865	1.6995214954013	-7.0538634869032
0.52014854626094	0.51327018259361	-8.1098422727434
0.52219637518323	-1.0547300494151	-7.9032730791973
0.52424420410552	-1.9195311821859	-6.5867895241657
0.52629203302780	-1.4896904508782	-5.0776704586908
0.52833986195009	-0.071560724210716	-4.4191111482075
0.53038769087238	1.3489238085958	-5.0594983433666
0.53243551979466	1.7916745868899	-6.5475508936289
0.53448334871695	0.95865006562896	-7.8504996006952
0.53653117763924	-0.56563414577869	-8.0710732651254
0.53857900656153	-1.7240465042060	-7.0656058968197
0.54062683548381	-1.7198119678191	-5.5375380186814
0.54267466440610	-0.56437372698653	-4.5457171698128
0.54472249332839	0.93649324631738	-4.7711147722777
0.54677032225067	1.7445727401854	-6.0497097152303
0.54881815117296	1.3073503907897	-7.4918863961801
0.55086598009525	-0.064269114912354	-8.1016487292560
0.55291380901754	-1.4168124564677	-7.4647159250780
0.55496163793982	-1.8168942676161	-6.0301859263732
0.55700946686211	-0.99520462356122	-4.7943586046762
0.55905729578440	0.47242664035149	-4.6092267938004
0.56110512470668	1.5684977466861	-5.5955307864789
0.56315295362897	1.5392111421020	-7.0646646266132
0.56520078255126	0.41282424537515	-7.9996848651922
0.56724861147355	-1.0254064635396	-7.7594917742779
0.56929644039583	-1.7805378763578	-6.5186348116724
0.57134426931812	-1.3361025400597	-5.1410933501938
0.57339209824041	-0.0072055150408832	-4.5791297006748
0.57543992716269	1.2827785624901	-5.2154256413133
0.57748775608498	1.6437634210796	-6.6029248990018
0.57953558500727	0.83307052248116	-7.7791608695512
0.58158341392956	-0.58154754532832	-7.9341408858317
0.58363124285184	-1.6193751788905	-6.9683799587919
0.58567907177413	-1.5665016895704	-5.5566908630088
0.58772690069642	-0.46677414698191	-4.6770960298305
0.58977472961871	0.91363420097827	-4.9336703134843
0.59182255854099	1.6199966668321	-6.1421068564143
0.59387038746328	1.1693369834127	-7.4622767810732
0.59591821638557	-0.11935955045768	-7.9825837844857
0.59796604530785	-1.3507301614165	-7.3497178095273
0.60001387423014	-1.6749693694174	-6.0088102370520
0.60206170315243	-0.87416043833547	-4.8908267624475
0.60410953207472	0.49148998251680	-4.7666694869362
0.60615736099700	1.4755334646202	-5.7160569370624
0.60820518991929	1.4012010731560	-7.0770514614609
0.61025301884158	0.32683746324156	-7.9079045332401
0.61230084776386	-0.99919506616729	-7.6390344562251
0.61434867668615	-1.6596676837871	-6.4638167438621
0.61639650560844	-1.2028175090530	-5.2001174987327
0.61844433453073	0.048779296003501	-4.7216011028826
0.62049216345301	1.2259143782681	-5.3541961967814
0.62253999237530	1.5163696031396	-6.6545986988255
0.62458782129759	0.72531580346874	-7.7212669881103
0.62663565021987	-0.59411949467447	-7.8197913371025
0.62868347914216	-1.5275099576260	-6.8888845530022
0.63073130806445	-1.4327748762677	-5.5784229961459
0.63277913698674	-0.38177516298079	-4.7962445143255
0.63482696590902	0.89380542550247	-5.0797043703241
0.63687479483131	1.5118047836627	-6.2269812706658
0.63892262375360	1.0496296066367	-7.4410569181136
0.64097045267588	-0.16682122561979	-7.8837516582283
0.64301828159817	-1.2928379277434	-7.2547296652367
0.64506611052046	-1.5513784265834	-5.9955454382688
0.64711393944275	-0.76919585807706	-4.9801698210326
0.64916176836503	0.50725077868492	-4.9088472847549
0.65120959728732	1.3935496064090	-5.8256347220762
0.65325742620961	1.2801072736273	-7.0919927003994
0.65530525513189	0.25141558967190	-7.8318761021609
0.65735308405418	-0.97650919489956	-7.5381184742648
0.65940091297647	-1.5543902453663	-6.4204205121088
0.66144874189876	-1.0869637562717	-5.2562168213206
0.66349657082104	0.096797651256804	-4.8503988118599
0.66554439974333	1.1752018048765	-5.4793204880896
0.66759222866562	1.4042175209257	-6.7031137184894
0.66964005758790	0.63082404232348	-7.6737171580512
0.67168788651019	-0.60482354409994	-7.7229591096249
0.67373571543248	-1.4465240563382	-6.8229288294438
0.67578354435477	-1.3151887929099	-5.6014762470969
0.67783137327705	-0.30713789144516	-4.9047587997875
0.67987920219934	0.87637515580529	-5.2115919316601
0.68192703112163	1.4169963502011	-6.3049117003129
0.68397486004391	0.94513187133393	-7.4257339405147
0.68602268896620	-0.20740013437464	-7.8004786938873
0.68807051788849	-1.2405930225402	-7.1753212282591
0.69011834681078	-1.4414744626001	-5.9884993370456
0.69216617573306	-0.67602521905626	-5.0636643085674
0.69421400465535	0.52157478300849	-5.0388067035599
0.69626183357764	1.3217039207060	-5.9266740541243
0.69830966249993	1.1739816341858	-7.1095234131781
0.70035749142221	0.18582454760394	-7.7693619140238
0.70240532034450	-0.95546315281596	-7.4540582350992
0.70445314926679	-1.4606754777015	-6.3875658705051
0.70650097818907	-0.98438272882001	-5.3114391413386
0.70854880711136	0.13896405718169	-4.9697358433510
0.71059663603365	1.1298413931305	-5.5950714686086
0.71264446495594	1.3045662245575	-6.7507944193768
0.71469229387822	0.54700454773548	-7.6363089041463
0.71674012280051	-0.61434972462282	-7.6420892868439
0.71878795172280	-1.3749820357504	-6.7696525662080
0.72083578064508	-1.2115913129137	-5.6271528085216
0.72288360956737	-0.24202146066618	-5.0059730225407
0.72493143848966	0.85964286905346	-5.3330694290439
0.72697926741195	1.3317402430398	-6.3780304895774
0.72902709633423	0.85164189586420	-7.4158093340532
0.73107492525652	-0.24376086872770	-7.7302491081364
0.73312275417881	-1.1943364854609	-7.1087458746987
0.73517058310109	-1.3440834345451	-5.9864046648780
0.73721841202338	-0.59373681683251	-5.1419963381242
0.73926624094567	0.53363492824845	-5.1581427559150
0.74131406986796	1.2572866556052	-6.0198820100401
0.74336189879024	1.0795148208675	-7.1281800501135
0.74540972771253	0.12798004939491	-7.7168498839538
0.74745755663482	-0.93578925623185	-7.3827356336915
0.74950538555710	-1.3762149039233	-6.3623119421898
0.75155321447939	-0.89222360548488	-5.3649577221316
0.75360104340168	0.17703326128948	-5.0804085876481
0.75564887232397	1.0898243918644	-5.7023544028604
0.75769670124625	1.2163630680473	-6.7972078914537
0.75974453016854	0.47332182512551	-7.6069066909023
0.76179235909083	-0.62142575251399	-7.5743106108654
0.76384018801311	-1.3096894844516	-6.7270766150207
0.76588801693540	-1.1180137896706	-5.6555426464876
0.76793584585769	-0.18331848610500	-5.1019871102011
