#Parameters = {C_1=13; C_2=297.74895212961; Conductivity_W=18000000; Ip=298.03261313869; Pipe_lenght=40; Pipe_r=30; beta=1; cells_wave=30; conductivity_copper=59500000; d=-397.74895212961; half_gap_x=17; half_gap_y=30; half_gap_z=50; mu_copper=0.999994; offset=6.8; offset_x=1; offset_y=5; sigma_z=5; teta=2.5; thcoll=13; translate_z=-347.74895212961; wakelength=20000}
#"Frequency / GHz"	"X [Re / Ohm]"	"X [Im / Ohm]"
#-----------------------------------------------
0.0000000000000	-4.1267455218544e-11	-1131.2909237058
0.0020478289222872	-600.75882302225	-931.33111780325
0.0040956578445743	-950.95168401085	-424.76820453408
0.0061434867668615	-924.23268203765	157.23812320375
0.0081913156891487	-575.68679146919	564.90130755921
0.010239144611436	-103.03267922991	653.71361666767
0.012286973533723	263.45331117043	446.53036465114
0.014334802456010	379.31390477701	104.05812471296
0.016382631378297	248.34738408744	-173.96094210497
0.018430460300585	-0.093429328531493	-257.65245789396
0.020478289222872	-198.61431020508	-145.53140781764
0.022526118145159	-239.11065671007	54.609236096225
0.024573947067446	-124.27593419465	203.32678327031
0.026621775989733	50.868227514827	214.90085723820
0.028669604912020	168.69958365607	100.21066104912
0.030717433834308	163.13576393398	-53.150556615012
0.032765262756595	53.513819793813	-144.51487899659
0.034813091678882	-77.760300376865	-124.21469025348
0.036860920601169	-144.04223945794	-18.870201627873
0.038908749523456	-109.59473731510	93.690413976517
0.040956578445743	-7.0196540900037	139.17941932153
0.043004407368031	90.348475270179	93.981376548579
0.045052236290318	119.43611128781	-4.4673410251798
0.047100065212605	67.245612009008	-87.388933913422
0.049147894134892	-25.048038185073	-101.99992761577
0.051195723057179	-93.404335727456	-44.556558837258
0.053243551979466	-94.576314767479	41.107850537913
0.055291380901754	-32.848226677009	95.953118787723
0.057339209824041	46.299649148065	85.642901987073
0.059387038746328	89.090052099802	21.390014193039
0.061434867668615	69.521346630336	-50.593956608655
0.063482696590902	4.7125182815085	-82.007733077270
0.065530525513189	-59.231003299456	-54.610192453857
0.067578354435477	-79.644962631163	9.5505144613146
0.069626183357764	-45.469844699798	65.246992637879
0.071674012280051	17.248352252024	75.562145530390
0.073721841202338	64.857961013427	36.034159161236
0.075769670124625	66.236288089970	-24.174562256925
0.077817499046912	22.920638349716	-63.603152111002
0.079865327969200	-33.646843660076	-56.898782472339
0.081913156891487	-64.730827646412	-10.978465961271
0.083960985813774	-50.654671525238	41.231162922416
0.086008814736061	-3.0793130033420	64.177753746536
0.088056643658348	44.333086991792	43.703104723636
0.090104472580635	59.590813514290	-4.4330662369032
0.092152301502923	33.833666761641	-46.529441040209
0.094200130425210	-13.730553279166	-54.450236148929
0.096247959347497	-50.002492663040	-24.352096886939
0.098295788269784	-50.916870390799	21.761245679935
0.10034361719207	-17.311416287809	51.976223783038
0.10239144611436	26.660397578592	46.434884664009
0.10443927503665	50.793094376991	10.273198473772
0.10648710395893	39.496763159147	-30.837639981638
0.10853493288122	1.7819782120851	-48.856807571887
0.11058276180351	-35.773657188516	-32.449056922067
0.11263059072579	-47.682748554792	5.9584399788911
0.11467841964808	-26.781481307106	39.466295210295
0.11672624857037	11.570672374846	45.460596842311
0.11877407749266	40.703679263429	20.801253491589
0.12082190641494	41.127310199418	-16.721894712813
0.12286973533723	13.518186822415	-41.179204382898
0.12491756425952	-22.415126378560	-36.383938511663
0.12696539318180	-41.949057758310	-6.5686949267877
0.12901322210409	-32.310844954688	27.152946583049
0.13106105102638	-0.98137969154104	41.679507812063
0.13310887994867	30.028456925494	27.695540572262
0.13515670887095	39.601601135449	-4.4169449824216
0.13720453779324	21.858695631044	-32.243533099258
0.13925236671553	-10.296436223315	-36.956844325647
0.14130019563781	-34.518541407419	-16.031085425811
0.14334802456010	-34.516086751043	15.512091458645
0.14539585348239	-10.977408581299	35.841777459509
0.14744368240468	19.378782108411	31.388362619056
0.14949151132696	35.647471715285	5.8632083638217
0.15153934024925	27.106665766139	-22.747459484965
0.15358716917154	0.25358624965179	-34.836934051705
0.15563499809382	-26.088694602566	-22.596683161117
0.15768282701611	-33.940550411985	4.9673955383142
0.15973065593840	-18.414575358663	28.619864845261
0.16177848486069	9.2852099956257	32.289755702306
0.16382631378297	29.922168244223	13.962893304616
0.16587414270526	29.565536872716	-13.295458956629
0.16792197162755	8.9742071070476	-30.638573059234
0.16996980054984	-17.281433659859	-26.455434497237
0.17201762947212	-31.109579628951	-4.1295389756234
0.17406545839441	-23.345574346223	20.631861398839
0.17611328731670	0.19448330447446	30.825465475044
0.17816111623898	23.039715252743	19.806710434037
0.18020894516127	29.572762975577	-4.4058608991581
0.18225677408356	15.690881375714	-24.948916645393
0.18430460300585	-8.6474994540600	-27.848356918825
0.18635243192813	-26.549016688819	-11.514651324343
0.18840026085042	-25.896956390931	12.442757635890
0.19044808977271	-7.5386482101012	27.447890901192
0.19249591869499	15.574246907847	23.410191728009
0.19454374761728	27.509694735556	3.4931058323314
0.19659157653957	20.325356307795	-18.331634173695
0.19863940546186	-0.66036385266705	-27.076336352670
0.20068723438414	-20.784634839863	-17.021720099011
0.20273506330643	-26.273729079791	4.5558884531273
0.20478289222872	-13.659447745402	22.631959388399
0.20683072115100	8.0518054110176	24.881699224344
0.20887855007329	23.797387670741	10.070457120423
0.21092637899558	22.898594449797	-11.318449150486
0.21297420791787	6.2932383994649	-24.496086336475
0.21502203684015	-14.331200851817	-20.586786771768
0.21706986576244	-24.754051918899	-2.5989072813383
0.21911769468473	-18.017882049579	16.862367575663
0.22116552360701	0.93775080180147	24.416919568655
0.22321335252930	18.884140773046	15.098293371892
0.22526118145159	23.527303589414	-4.3955071040550
0.22730901037388	11.922124491982	-20.508216806000
0.22935683929616	-7.6766346929360	-22.247027089382
0.23140466821845	-21.677121057844	-8.6769951683657
0.23345249714074	-20.569089364018	10.616115426428
0.23550032606302	-5.3766899832148	22.287343399519
0.23754815498531	13.227948457820	18.454367194798
0.23959598390760	22.414569292334	2.0117764594495
0.24164381282989	16.036465145268	-15.540054357149
0.24369164175217	-1.2646093187693	-22.133967000689
0.24573947067446	-17.426163927599	-13.427997210230
0.24778729959675	-21.368888484398	4.3433188837610
0.24983512851903	-10.586012767850	18.824066222299
0.25188295744132	7.2766238720357	20.120248614580
0.25393078636361	19.835579735402	7.5526968285458
0.25597861528590	18.549328514852	-10.025595744295
0.25802644420818	4.5219943937721	-20.461613357217
0.26007427313047	-12.408378442566	-16.700778655049
0.26212210205276	-20.564367478613	-1.5514745670050
0.26416993097504	-14.478487710798	14.398342204726
0.26621775989733	1.4477699181037	20.174776063918
0.26826558881962	16.119667047773	11.962299414942
0.27031341774191	19.473533843853	-4.3845908163272
0.27236124666419	9.3751422807147	-17.510435201266
0.27440907558648	-7.0334305912263	-18.443768222928
0.27645690450877	-18.380024354292	-6.7259254082529
0.27850473343106	-16.939735545676	9.4001722325116
0.28055256235334	-3.8897725181251	18.782853780393
0.28260039127563	11.629818168081	15.068236236928
0.28464822019792	18.913680910662	0.99751578080625
0.28669604912020	13.071870334503	-13.608287435981
0.28874387804249	-1.6921740201262	-18.700397008034
0.29079170696478	-15.100379996417	-10.913194663498
0.29283953588707	-17.951477554183	4.2163874623841
0.29488736480935	-8.4317212925030	16.180227101438
0.29693519373164	6.7409056965612	16.792858682791
0.29898302265393	17.053678568618	5.7874535966438
0.30103085157621	15.479836738292	-9.1093863674402
0.30307868049850	3.2629776704972	-17.599737494569
0.30512650942079	-11.050106611562	-13.930845676339
0.30717433834308	-17.585402211214	-0.79027011308777
0.30922216726536	-11.950268116792	12.655225558228
0.31126999618765	1.8180933475920	17.150413186199
0.31331782510994	14.140616316366	9.7187014439350
0.31536565403222	16.557938471014	-4.3726154335094
0.31741348295451	7.5349269986184	-15.342906176924
0.31946131187680	-6.5727621607050	-15.684832722806
0.32150914079909	-15.992403383246	-5.2998560065278
0.32355696972137	-14.301289354453	8.5284979776944
0.32560479864366	-2.8031905062601	16.239413566586
0.32765262756595	10.466037200085	12.601772883099
0.32970045648823	16.352029830529	0.25937443300069
0.33174828541052	10.895031146430	-12.186256862289
0.33379611433281	-2.0094671713838	-16.168572674563
0.33584394325510	-13.387999191039	-9.0508018201874
0.33789177217738	-15.426656091759	4.1318427102780
0.33993960109967	-6.8347524137275	14.230649931280
0.34198743002196	6.3455495732960	14.329683091476
0.34403525894424	14.985890458345	4.4791282302470
0.34608308786653	13.191650348451	-8.4222843892433
0.34813091678882	2.3211256272243	-15.457089189773
0.35017874571111	-10.034906599260	-11.851339159898
0.35222657463339	-15.351600353012	-0.21243465295707
0.35427440355568	-10.049576836293	11.351787419230
0.35632223247797	2.0981085413548	14.878510482291
0.35837006140025	12.648206446725	8.0304329984257
0.36041789032254	14.353846635174	-4.3593694838151
0.36246571924483	6.1405513017050	-13.696684999018
0.36451354816712	-6.2237526189973	-13.586216519840
0.36656137708940	-14.177314024494	-4.2104636923056
0.36860920601169	-12.291380070213	7.8695102691441
0.37065703493398	-1.9736936583290	14.303087912465
0.37270486385627	9.5765474020485	10.720478697912
0.37475269277855	14.390230118959	-0.30173910813113
0.37680052170084	9.2249886591518	-11.091060590794
0.37884835062313	-2.2531591266941	-14.218636028806
0.38089617954541	-12.069469136506	-7.6131408484064
0.38294400846770	-13.479497423848	4.0702364128119
0.38499183738999	-5.6013645661580	12.728184596901
0.38703966631228	6.0392165012184	12.427546758935
0.38908749523456	13.383027946909	3.4692328843153
0.39113532415685	11.415577390255	-7.8847247194680
0.39318315307914	1.5895057859661	-13.787327089462
0.39523098200142	-9.2435228611060	-10.228818085570
0.39727881092371	-13.608960429003	0.24075326753361
0.39932663984600	-8.5652208829613	10.335994542019
0.40137446876829	2.3162363511665	13.104016542909
0.40342229769057	11.478018450085	6.7113552013658
0.40547012661286	12.624233927193	-4.3447919358201
0.40751795553515	5.0456596828906	-12.399140815691
0.40956578445743	-5.9477550424836	-11.931758935654
0.41161361337972	-12.745901344084	-3.3500909248218
0.41366144230201	-10.705264722375	7.3507961251004
0.41570927122430	-1.3193140075709	12.774656198370
0.41775710014658	8.8711318133697	9.2346436617459
0.41980492906887	12.834814887807	-0.74238084019033
0.42185275799116	7.9003390529000	-10.217844529420
0.42390058691344	-2.4451556859414	-12.666070677053
0.42594841583573	-11.018756248767	-6.4676223874276
0.42799624475802	-11.927729761758	4.0217753473518
0.43004407368031	-4.6185081167543	11.530431422201
0.43209190260259	5.7926313466010	10.910312793379
0.43413973152488	12.099679622488	2.6651689191842
0.43618756044717	9.9934384213704	-7.4500041965901
0.43823538936945	1.0045585899293	-12.445068235266
0.44028321829174	-8.6061073651945	-8.9245561132933
0.44233104721403	-12.207185395415	0.60522903107143
0.44437887613632	-7.3714043073850	9.5185212115849
0.44642670505860	2.4899214765625	11.675490379437
0.44847453398089	10.532075385130	5.6503416447264
0.45052236290318	11.226875507321	-4.3288188303745
0.45257019182546	4.1617941142977	-11.346196703548
0.45461802074775	-5.7219277689131	-10.590429985980
0.45666584967004	-11.584107166081	-2.6527000436204
0.45871367859233	-9.4185315146670	6.9292914486500
0.46076150751461	-0.78976145492502	11.533463642613
0.46280933643690	8.2950864250422	8.0287103438934
0.46485716535919	11.567449041140	-1.0971357849372
0.46690499428147	6.8217840439415	-9.5021468653263
0.46895282320376	-2.5993054451580	-11.396935867015
0.47100065212605	-10.158321578724	-5.5317752184422
0.47304848104834	-10.658519173460	3.9811199874595
0.47509630997062	-3.8157510461141	10.549595440003
0.47714413889291	5.5879198522436	9.6686785036384
0.47919196781520	11.045317959187	2.0092306696830
0.48123979673749	8.8262267811320	-7.0888890123073
0.48328762565977	0.52617127066384	-11.338965410623
0.48533545458206	-8.0790008387219	-7.8509250103773
0.48738328350435	-11.051621494083	0.90420102636530
0.48943111242663	-6.3884876079425	8.8434485368432
0.49147894134892	2.6304989100444	10.497334260921
0.49352677027121	9.7484017801756	4.7769334425268
0.49557459919350	10.071293561811	-4.3114221097336
0.49762242811578	3.4323648709862	-10.471404563771
0.49967025703807	-5.5318973943223	-9.4782088864962
0.50171808596036	-10.618971360384	-2.0755635583027
0.50376591488264	-8.3512168655205	6.5777731889371
0.50581374380493	-0.35246321764670	10.502154531683
0.50786157272722	7.8133230628157	7.0282520708488
0.50990940164951	10.511693975842	-1.3883646462804
0.51195723057179	5.9248830751217	-8.9021820464983
0.51400505949408	-2.7247928293213	-10.337092862996
0.51605288841637	-9.4378560004154	-4.7516302757801
0.51810071733865	-9.5982917032039	3.9451525072994
0.52014854626094	-3.1469348111082	9.7286024890846
0.52219637518323	5.4135534486242	8.6312210003964
0.52424420410552	10.160640777710	1.4635792288626
0.52629203302780	7.8488069150128	-6.7821567074933
0.52833986195009	0.12777596709119	-10.408751268291
0.53038769087238	-7.6335221125426	-6.9498651075747
0.53243551979466	-10.079703310047	1.1533124387829
0.53448334871695	-5.5636098057682	8.2739866456992
0.53653117763924	2.7456415003701	9.5062322853083
0.53857900656153	9.0858778495376	4.0443003949703
0.54062683548381	9.0971863436812	-4.2925881740112
0.54267466440610	2.8194860741487	-9.7303506014321
0.54472249332839	-5.3681711906092	-8.5387401666477
0.54677032225067	-9.8016539059099	-1.5898153219152
0.54881815117296	-7.4495846062022	6.2781964415534
0.55086598009525	0.014608887612692	9.6288532673470
0.55291380901754	7.4023082832962	6.1831707209115
0.55496163793982	9.6159826620528	-1.6311690142423
0.55700946686211	5.1659994121779	-8.3896831272259
0.55905729578440	-2.8279428718311	-9.4362313062594
0.56110512470668	-8.8232918562623	-4.0903972438489
0.56315295362897	-8.6970252670064	3.9119468459735
0.56520078255126	-2.5805466194770	9.0287380308697
0.56724861147355	5.2617668286290	7.7492887773605
0.56929644039583	9.4051792211348	1.0023592629025
0.57134426931812	7.0165697718740	-6.5166630419537
0.57339209824041	-0.20892879795741	-9.6130713353157
0.57543992716269	-7.2500647115821	-6.1813959685543
0.57748775608498	-9.2484321301617	1.3634818559012
0.57953558500727	-4.8603175850334	7.7849396149471
0.58158341392956	2.8407194035349	8.6585857811151
0.58363124285184	8.5161441596546	3.4201008966637
0.58567907177413	8.2628130739658	-4.2723157393698
0.58772690069642	2.2968324202714	-9.0922294549891
0.58977472961871	-5.2242387495462	-7.7328214655645
0.59182255854099	-9.0982417219961	-1.1752575864121
0.59387038746328	-6.6762016587814	6.0181279448510
0.59591821638557	0.32687364546093	8.8774732238959
0.59796604530785	7.0456595824441	5.4585087463802
0.60001387423014	8.8442556248855	-1.8361156832168
0.60206170315243	4.5145209901289	-7.9448444125415
0.60410953207472	-2.9132660102877	-8.6590072587190
0.60615736099700	-8.2907533067861	-3.5221290113421
0.60820518991929	-7.9195373527439	3.8802698255901
0.61025301884158	-2.0943472209068	8.4228265034500
0.61230084776386	5.1271340867308	6.9886082036217
0.61434867668615	8.7503690253920	0.60731198264906
0.61639650560844	6.2979351641328	-6.2831096210455
0.61844433453073	-0.49696522034739	-8.9226000390079
0.62049216345301	-6.9147774260636	-5.5170817335911
0.62253999237530	-8.5272876700944	1.5425686235644
0.62458782129759	-4.2526616161679	7.3584826996787
0.62663565021987	2.9196017716209	7.9234022871420
0.62868347914216	8.0190084323183	2.8812882496784
0.63073130806445	7.5383615286123	-4.2506037931171
0.63277913698674	1.8455378224818	-8.5349979223671
0.63482696590902	-5.0954936314546	-7.0323305065248
0.63687479483131	-8.4844569226820	-0.81732132189722
0.63892262375360	-6.0041925064588	5.7887406951713
0.64097045267588	0.59545172245517	8.2221527551464
0.64301828159817	6.7316325203954	4.8291453870184
0.64506611052046	8.1705526597494	-2.0108122625866
0.64711393944275	3.9483497773971	-7.5533738821195
0.64916176836503	-2.9840575195722	-7.9798633456275
0.65120959728732	-7.8230071611145	-3.0279998884669
0.65325742620961	-7.2403594203648	3.8493078325451
0.65530525513189	-1.6721880420356	7.8912378863462
0.65735308405418	5.0057592777749	6.3243440593008
0.65940091297647	8.1754849709572	0.26517871161594
0.66144874189876	5.6699300936102	-6.0747352778779
0.66349657082104	-0.74584376763111	-8.3159685099430
0.66554439974333	-6.6175932313111	-4.9361494025138
0.66759222866562	-7.8940056662895	1.6963714093320
0.66964005758790	-3.7216641577756	6.9816519285920
0.67168788651019	2.9851531923151	7.2780481484786
0.67373571543248	7.5797127252791	2.4109942323153
0.67578354435477	6.9019813102059	-4.2274574066054
0.67783137327705	1.4517358413069	-8.0424767832689
0.67987920219934	-4.9785825674518	-6.4165813639490
0.68192703112163	-7.9424640904612	-0.50524506694363
0.68397486004391	-5.4137675439331	5.5835869780459
0.68602268896620	0.82855954006890	7.6438677551089
0.68807051788849	6.4515822001336	4.2765603235455
0.69011834681078	7.5757029619282	-2.1608783940028
0.69216617573306	3.4511279712401	-7.2047020270794
0.69421400465535	-3.0427880550426	-7.3798621770775
0.69626183357764	-7.4073111349889	-2.5940185558442
0.69830966249993	-6.6406081682093	3.8185109999651
0.70035749142221	-1.3020651259010	7.4194442112306
0.70240532034450	4.8947698386110	5.7380652283429
0.70445314926679	7.6651224872254	-0.033896650536631
0.70650097818907	5.1154412812234	-5.8865025027253
0.70854880711136	-0.96267531346707	-7.7772338119282
0.71059663603365	-6.3510234050888	-4.4230653683780
0.71264446495594	-7.3319658791391	1.8292688009495
0.71469229387822	-3.2531257378261	6.6448016294880
0.71674012280051	3.0395414604949	6.7056165739033
0.71878795172280	7.1872238587844	1.9965950167519
0.72083578064508	6.3372952910881	-4.2028794167348
0.72288360956737	1.1050081805353	-7.6025179041718
0.72493143848966	-4.8710055572345	-5.8700127618693
0.72697926741195	-7.4588638269660	-0.23089904178903
0.72902709633423	-4.8900263822618	5.3978572727238
0.73107492525652	1.0324090990522	7.1283204718235
0.73312275417881	6.1990167693202	3.7868041689858
0.73517058310109	7.0452546604956	-2.2905551890423
0.73721841202338	3.0104983634657	-6.8908473132971
0.73926624094567	-3.0913387308681	-6.8446776158629
0.74131406986796	-7.0340351935410	-2.2095731290794
0.74336189879024	-6.1059809895274	3.7874964257100
0.74540972771253	-0.97486247966490	6.9964619472068
0.74745755663482	4.7920102666133	5.2158023082831
0.74950538555710	7.2076019360553	-0.29739984430897
0.75155321447939	4.6214650703714	-5.7145904472619
0.75360104340168	-1.1528806132853	-7.2942696543473
0.75564887232397	-6.1093826427029	-3.9659899415391
0.75769670124625	-6.8285120312833	1.9446231157536
0.75974453016854	-2.8362108636588	6.3406034478013
0.76179235909083	3.0844387558616	6.1932207468112
0.76384018801311	6.8331308169828	1.6284496364407
0.76588801693540	5.8317883550700	-4.1768796356346
0.76793584585769	0.79737387533112	-7.2058320054248
0.76998367477998	-4.7708661118841	-5.3807021910092
0.77203150370226	-7.0234016766711	0.011967288265232
0.77407933262455	-4.4215428608107	5.2278888924026
0.77612716154684	1.2117786715167	6.6645566900519
0.77817499046912	5.9689626312982	3.3491687946455
